!Keysight Technologies N9916A: A.08.06
!Date: Thursday, 30 May 2024 20:10:53
!Timezone: (GMT+10:00) Brisbane
!Model: N9916A
!Serial: MY53102361
!GPS Latitude: 
!GPS Longitude: 
!GPS TimeStamp: 0001-01-01 00:00:00Z
!GPS Seconds Since Last Read: 0
!CHECKSUM:1568369503
!Correction: S11(Rdy)S21()S12()S22()
!S2P File: Measurements:S11,S21,S12,S22:
# Hz S RI R 50
30000	0.976007140081669	-0.00197491162433757	1	0	1	0	1	0	
30029850	0.405171154138541	-0.87036958125964	1	0	1	0	1	0	
60029700	-0.587346179862811	-0.77205707311057	1	0	1	0	1	0	
90029550	-0.946941104257435	0.123161143987316	1	0	1	0	1	0	
120029400	-0.358220063170737	0.853052587495058	1	0	1	0	1	0	
150029250	0.571786898764923	0.71529433356181	1	0	1	0	1	0	
180029100	0.912280736786945	-0.189029681669439	1	0	1	0	1	0	
210028950	0.236775164821237	-0.911024902555705	1	0	1	0	1	0	
240028800	-0.690726657683622	-0.602349427826294	1	0	1	0	1	0	
270028650	-0.837178934652502	0.320118206035857	1	0	1	0	1	0	
300028500	-0.140172500332972	0.888324151945657	1	0	1	0	1	0	
330028350	0.699794309955635	0.591858131040978	1	0	1	0	1	0	
360028200	0.862894246455688	-0.311010936104968	1	0	1	0	1	0	
390028050	0.105161750847733	-0.884106472087731	1	0	1	0	1	0	
420027900	-0.740493852584386	-0.448225228871195	1	0	1	0	1	0	
450027750	-0.741294805986915	0.473703925820664	1	0	1	0	1	0	
480027600	0.0253539974116157	0.89782290508816	1	0	1	0	1	0	
510027450	0.767283377390325	0.46884114801733	1	0	1	0	1	0	
540027300	0.776318408064871	-0.400421186015014	1	0	1	0	1	0	
570027150	-0.00603817862831526	-0.845870381501555	1	0	1	0	1	0	
600027000	-0.772999958534283	-0.35541397596749	1	0	1	0	1	0	
630026850	-0.68101349090417	0.541939604075594	1	0	1	0	1	0	
660026700	0.119234037540889	0.856269970697319	1	0	1	0	1	0	
690026550	0.772486650301331	0.335481484305762	1	0	1	0	1	0	
720026400	0.677930285101298	-0.482150848552323	1	0	1	0	1	0	
750026250	-0.100089431237566	-0.840187720087736	1	0	1	0	1	0	
780026100	-0.788854570548227	-0.299483766838395	1	0	1	0	1	0	
810025950	-0.613611789258424	0.55620411725709	1	0	1	0	1	0	
840025800	0.189911481074517	0.790550360717876	1	0	1	0	1	0	
870025650	0.773870199651414	0.253573329160536	1	0	1	0	1	0	
900025500	0.646125968126895	-0.522907863152542	1	0	1	0	1	0	
930025350	-0.0955054294999619	-0.830174457248601	1	0	1	0	1	0	
960025200	-0.746569724980647	-0.305790549728046	1	0	1	0	1	0	
990025050	-0.552508326176489	0.528923687977115	1	0	1	0	1	0	
1020024900	0.247244719383686	0.739979326767132	1	0	1	0	1	0	
1050024750	0.787059593863487	0.17722433498293	1	0	1	0	1	0	
1080024600	0.596411519747773	-0.560429745069145	1	0	1	0	1	0	
1110024450	-0.131451650761776	-0.776703039318345	1	0	1	0	1	0	
1140024300	-0.708199545203617	-0.245008507412964	1	0	1	0	1	0	
1170024150	-0.528049965796196	0.536301613483071	1	0	1	0	1	0	
1200024000	0.230703028442395	0.729804808203179	1	0	1	0	1	0	
1230023850	0.75471676229541	0.180755930039643	1	0	1	0	1	0	
1260023700	0.533183509387469	-0.522740846539291	1	0	1	0	1	0	
1290023550	-0.147852918689293	-0.712029966045369	1	0	1	0	1	0	
1320023400	-0.688464075300221	-0.210384226712431	1	0	1	0	1	0	
1350023250	-0.501197191676659	0.513011694188529	1	0	1	0	1	0	
1380023100	0.228394381892327	0.667387200504805	1	0	1	0	1	0	
1410022950	0.688897968724815	0.114773425428689	1	0	1	0	1	0	
1440022800	0.416309780549694	-0.547420261188284	1	0	1	0	1	0	
1470022650	-0.225060324126974	-0.653315805858267	1	0	1	0	1	0	
1500022500	-0.667951106769615	-0.168497022092226	1	0	1	0	1	0	
1530022350	-0.451561980536053	0.461988319261789	1	0	1	0	1	0	
1560022200	0.209298267463623	0.573001077047696	1	0	1	0	1	0	
1590022050	0.593969241504521	0.0121738228683503	1	0	1	0	1	0	
1620021900	0.296125838136076	-0.550965639937126	1	0	1	0	1	0	
1650021750	-0.295864137040016	-0.561177341280425	1	0	1	0	1	0	
1680021600	-0.60096530966624	-0.0763900282337006	1	0	1	0	1	0	
1710021450	-0.315539259305264	0.434511405302076	1	0	1	0	1	0	
1740021300	0.248834184127891	0.431477026696717	1	0	1	0	1	0	
1770021150	0.486843851355194	-0.0819801612486774	1	0	1	0	1	0	
1800021000	0.134169150802299	-0.471302283900302	1	0	1	0	1	0	
1830020850	-0.335080328543587	-0.329995691973665	1	0	1	0	1	0	
1860020700	-0.433063231449648	0.110607400844309	1	0	1	0	1	0	
1890020550	-0.0780857815504533	0.412382536137384	1	0	1	0	1	0	
1920020400	0.332840251281984	0.220777756482457	1	0	1	0	1	0	
1950020250	0.292839784993697	-0.21623086118193	1	0	1	0	1	0	
1980020100	-0.0966400954258136	-0.344442158179861	1	0	1	0	1	0	
2010019950	-0.356813160957545	-0.0506307309942434	1	0	1	0	1	0	
2040019800	-0.219942170762737	0.304263011938633	1	0	1	0	1	0	
2070019650	0.151066154124468	0.312804493065862	1	0	1	0	1	0	
2100019500	0.289852584902158	-0.0456049732716952	1	0	1	0	1	0	
2130019350	0.0116443319985447	-0.294839723172005	1	0	1	0	1	0	
2160019200	-0.329131580999849	-0.124522701573831	1	0	1	0	1	0	
2190019050	-0.316371725836708	0.250428881747192	1	0	1	0	1	0	
2220018900	0.0462817664551817	0.397810865432333	1	0	1	0	1	0	
2250018750	0.352244465980329	0.0925359221549436	1	0	1	0	1	0	
2280018600	0.18035746764681	-0.321795660977666	1	0	1	0	1	0	
2310018450	-0.279372424780335	-0.3180811747991	1	0	1	0	1	0	
2340018300	-0.477889234305982	0.0898406809466584	1	0	1	0	1	0	
2370018150	-0.205925852273114	0.468164618393271	1	0	1	0	1	0	
2400018000	0.297116723517999	0.418833072193736	1	0	1	0	1	0	
2430017850	0.505105198230186	-0.0877741935834919	1	0	1	0	1	0	
2460017700	0.108000479225271	-0.501423524014377	1	0	1	0	1	0	
2490017550	-0.432591866017397	-0.317984858278775	1	0	1	0	1	0	
2520017400	-0.514178058257866	0.238124653420272	1	0	1	0	1	0	
2550017250	-0.0933412920803921	0.599452482053271	1	0	1	0	1	0	
2580017100	0.475890072678872	0.431937121153566	1	0	1	0	1	0	
2610016950	0.614857606713774	-0.18312466340136	1	0	1	0	1	0	
2640016800	0.0966729244440174	-0.599617308400677	1	0	1	0	1	0	
2670016650	-0.50674651807987	-0.304088781060249	1	0	1	0	1	0	
2700016500	-0.544465962689756	0.331794790128511	1	0	1	0	1	0	
2730016350	-0.0412254561926072	0.694369970744074	1	0	1	0	1	0	
2760016200	0.555658042563061	0.476621649784116	1	0	1	0	1	0	
2790016050	0.690147746127973	-0.178080334784854	1	0	1	0	1	0	
2820015900	0.144966643896647	-0.644844199684212	1	0	1	0	1	0	
2850015750	-0.537826598526292	-0.363005294311886	1	0	1	0	1	0	
2880015600	-0.600976356656439	0.344972810985128	1	0	1	0	1	0	
2910015450	-0.0523242826621705	0.74010382928515	1	0	1	0	1	0	
2940015300	0.566747430144973	0.507119066576956	1	0	1	0	1	0	
2970015150	0.728087879770633	-0.161833172525034	1	0	1	0	1	0	
3000015000	0.2243237038951	-0.682188041250975	1	0	1	0	1	0	
3030014850	-0.509715752806152	-0.481384342584053	1	0	1	0	1	0	
3060014700	-0.670150845268523	0.257941345804063	1	0	1	0	1	0	
3090014550	-0.131219037211123	0.73295909261207	1	0	1	0	1	0	
3120014400	0.539554504005694	0.545026957906798	1	0	1	0	1	0	
3150014250	0.774895468330873	-0.112016782663235	1	0	1	0	1	0	
3180014100	0.340579374965552	-0.694270997461602	1	0	1	0	1	0	
3210013950	-0.416212169555643	-0.605278018079798	1	0	1	0	1	0	
3240013800	-0.697999561264562	0.124017036173265	1	0	1	0	1	0	
3270013650	-0.211573462918561	0.69954481298338	1	0	1	0	1	0	
3300013500	0.518332853811318	0.58502565922317	1	0	1	0	1	0	
3330013350	0.811850299811281	-0.0510918886770222	1	0	1	0	1	0	
3360013200	0.467503974753963	-0.653358036141549	1	0	1	0	1	0	
3390013050	-0.254362853579971	-0.713971511098983	1	0	1	0	1	0	
3420012900	-0.703534033178884	-0.0746797532964646	1	0	1	0	1	0	
3450012750	-0.336569997933716	0.640596986130357	1	0	1	0	1	0	
3480012600	0.441877974792415	0.644461284027513	1	0	1	0	1	0	
3510012450	0.808602112724753	0.0278613122846484	1	0	1	0	1	0	
3540012300	0.531204746498023	-0.590171522760821	1	0	1	0	1	0	
3570012150	-0.143859057047977	-0.740904226981231	1	0	1	0	1	0	
3600012000	-0.680764542464019	-0.246601187373531	1	0	1	0	1	0	
3630011850	-0.498463567563652	0.526202126131542	1	0	1	0	1	0	
3660011700	0.277915913928926	0.699466066359977	1	0	1	0	1	0	
3690011550	0.765689539584572	0.146951784878358	1	0	1	0	1	0	
3720011400	0.588499365415695	-0.512668162724073	1	0	1	0	1	0	
3750011250	-0.0584001843888131	-0.768204158273118	1	0	1	0	1	0	
3780011100	-0.650181882410717	-0.377115640973078	1	0	1	0	1	0	
3810010950	-0.633898358045362	0.378786906176727	1	0	1	0	1	0	
3840010800	0.0606993940862243	0.739071286266788	1	0	1	0	1	0	
3870010650	0.695903933948955	0.292700268414495	1	0	1	0	1	0	
3900010500	0.640363561802327	-0.431491011562074	1	0	1	0	1	0	
3930010350	0.0475901341427831	-0.774888874248525	1	0	1	0	1	0	
3960010200	-0.571059771631381	-0.496267314769799	1	0	1	0	1	0	
3990010050	-0.685310953020397	0.208898905589626	1	0	1	0	1	0	
4020009900	-0.0972955666365821	0.691942559812692	1	0	1	0	1	0	
4050009750	0.623780072081573	0.369312917619474	1	0	1	0	1	0	
4080009600	0.642735340260012	-0.382727342051686	1	0	1	0	1	0	
4110009450	0.0687733965937107	-0.741570665188239	1	0	1	0	1	0	
4140009300	-0.512344090517656	-0.511606734796569	1	0	1	0	1	0	
4170009150	-0.689101114104913	0.102974068348516	1	0	1	0	1	0	
4200009000	-0.227773283440249	0.633954241234128	1	0	1	0	1	0	
4230008850	0.501593389454375	0.442614217423506	1	0	1	0	1	0	
4260008700	0.627155381692043	-0.26879522953856	1	0	1	0	1	0	
4290008550	0.147833459195922	-0.673165905199629	1	0	1	0	1	0	
4320008400	-0.430246638731586	-0.507770691515506	1	0	1	0	1	0	
4350008250	-0.636067161834983	0.0367919927932851	1	0	1	0	1	0	
4380008100	-0.271319601543099	0.528339103965725	1	0	1	0	1	0	
4410007950	0.351595345979706	0.441504367421974	1	0	1	0	1	0	
4440007800	0.526640978108767	-0.136442319062766	1	0	1	0	1	0	
4470007650	0.136144054035689	-0.514825419088638	1	0	1	0	1	0	
4500007500	-0.333202073115374	-0.392782407827453	1	0	1	0	1	0	
4530007350	-0.468128233349915	0.0275151240665706	1	0	1	0	1	0	
4560007200	-0.205930902271751	0.338316974586734	1	0	1	0	1	0	
4590007050	0.145263998817053	0.277346597036709	1	0	1	0	1	0	
4620006900	0.249391827118532	-5.83446821273283E-05	1	0	1	0	1	0	
4650006750	0.114805528382589	-0.182738211817047	1	0	1	0	1	0	
4680006600	-0.0465739180470249	-0.193243616058066	1	0	1	0	1	0	
4710006450	-0.161977956444447	-0.131438275695436	1	0	1	0	1	0	
4740006300	-0.247622880930712	-0.00714046442465145	1	0	1	0	1	0	
4770006150	-0.231295011674393	0.194700176395663	1	0	1	0	1	0	
4800006000	-0.0238259187036345	0.348207152313434	1	0	1	0	1	0	
4830005850	0.286699131458585	0.231371737823103	1	0	1	0	1	0	
4860005700	0.346556237692657	-0.172267915804444	1	0	1	0	1	0	
4890005550	-0.0346300499005557	-0.43391876630208	1	0	1	0	1	0	
4920005400	-0.461346129229389	-0.218001087237661	1	0	1	0	1	0	
4950005250	-0.507856022921716	0.265855589443914	1	0	1	0	1	0	
4980005100	-0.107249697006561	0.588771692078458	1	0	1	0	1	0	
5010004950	0.427627819329885	0.386677818992887	1	0	1	0	1	0	
5040004800	0.509336971363802	-0.237459824171205	1	0	1	0	1	0	
5070004650	-0.0146757455446785	-0.595521919644089	1	0	1	0	1	0	
5100004500	-0.558214725138221	-0.302490671997238	1	0	1	0	1	0	
5130004350	-0.596477915223812	0.295137948254446	1	0	1	0	1	0	
5160004200	-0.101755352506192	0.667788435002476	1	0	1	0	1	0	
5190004050	0.503073616980034	0.442401423216254	1	0	1	0	1	0	
5220003900	0.640317564075433	-0.188691062493048	1	0	1	0	1	0	
5250003750	0.143923196630635	-0.648492900036893	1	0	1	0	1	0	
5280003600	-0.504721628851721	-0.431805492564102	1	0	1	0	1	0	
5310003450	-0.619910673958163	0.241316371978013	1	0	1	0	1	0	
5340003300	-0.11209417121693	0.674626309452997	1	0	1	0	1	0	
5370003150	0.509234846309889	0.493437514314154	1	0	1	0	1	0	
5400003000	0.721484443323822	-0.125295952425887	1	0	1	0	1	0	
5430002850	0.282184558053418	-0.65851915088278	1	0	1	0	1	0	
5460002700	-0.443573195056246	-0.522638615120928	1	0	1	0	1	0	
5490002550	-0.65576435406924	0.188649035446426	1	0	1	0	1	0	
5520002400	-0.178633760235445	0.692960192155428	1	0	1	0	1	0	
5550002250	0.470192755801166	0.589637465132757	1	0	1	0	1	0	
5580002100	0.76244290533046	-0.0120427602415335	1	0	1	0	1	0	
5610001950	0.369356574779401	-0.614220771675353	1	0	1	0	1	0	
5640001800	-0.396165105882747	-0.53071424986695	1	0	1	0	1	0	
5670001650	-0.64876815539384	0.174280036429591	1	0	1	0	1	0	
5700001500	-0.200439237860661	0.685556925093001	1	0	1	0	1	0	
5730001350	0.425929232911313	0.578101281976004	1	0	1	0	1	0	
5760001200	0.678485580392025	0.00856529751951431	1	0	1	0	1	0	
5790001050	0.350745570360819	-0.518381307083642	1	0	1	0	1	0	
5820000900	-0.275169339914887	-0.523683291935574	1	0	1	0	1	0	
5850000750	-0.563945612888107	-0.00470286518046217	1	0	1	0	1	0	
5880000600	-0.289366855132887	0.479903936899386	1	0	1	0	1	0	
5910000450	0.270539595669399	0.510075693531334	1	0	1	0	1	0	
5940000300	0.593538969054746	0.0479142326143341	1	0	1	0	1	0	
5970000150	0.399680142841741	-0.473325874635886	1	0	1	0	1	0	
6000000000	-0.151224829285197	-0.586068307316325	1	0	1	0	1	0	
