!Keysight Technologies N9916A: A.08.06
!Date: Thursday, 30 May 2024 20:10:22
!Timezone: (GMT+10:00) Brisbane
!Model: N9916A
!Serial: MY53102361
!GPS Latitude: 
!GPS Longitude: 
!GPS TimeStamp: 0001-01-01 00:00:00Z
!GPS Seconds Since Last Read: 0
!CHECKSUM:0229838355
!Correction: S11(Rdy)S21()S12()S22()
!S2P File: Measurements:S11,S21,S12,S22:
# Hz S RI R 50
30000	-0.57783351724706	0.0207883019253134	1	0	1	0	1	0	
30029850	-0.307265642473703	0.520314988639956	1	0	1	0	1	0	
60029700	0.296291522031188	0.491943070287578	1	0	1	0	1	0	
90029550	0.565495505926261	-0.0510678075540327	1	0	1	0	1	0	
120029400	0.213035830949197	-0.544353317887183	1	0	1	0	1	0	
150029250	-0.380171463262304	-0.454796720990282	1	0	1	0	1	0	
180029100	-0.573677889872931	0.0991325856008172	1	0	1	0	1	0	
210028950	-0.199113776170176	0.535568489241113	1	0	1	0	1	0	
240028800	0.363429527187119	0.443574473675435	1	0	1	0	1	0	
270028650	0.561624032243097	-0.0942582141674692	1	0	1	0	1	0	
300028500	0.174455358668835	-0.521568487998079	1	0	1	0	1	0	
330028350	-0.380088491607319	-0.370336382572659	1	0	1	0	1	0	
360028200	-0.502394612921222	0.181829598210249	1	0	1	0	1	0	
390028050	-0.0958898815701606	0.550662077596661	1	0	1	0	1	0	
420027900	0.417149255519523	0.391888191631212	1	0	1	0	1	0	
450027750	0.528681397256187	-0.133586784845952	1	0	1	0	1	0	
480027600	0.113418189123016	-0.488254833146738	1	0	1	0	1	0	
510027450	-0.394715949024624	-0.281531370241874	1	0	1	0	1	0	
540027300	-0.442914467791111	0.254506142128344	1	0	1	0	1	0	
570027150	-0.00858825530311578	0.541142077321386	1	0	1	0	1	0	
600027000	0.442378499876802	0.298105330142205	1	0	1	0	1	0	
630026850	0.448620304963266	-0.217936489174929	1	0	1	0	1	0	
660026700	0.00519717698515328	-0.479403286354812	1	0	1	0	1	0	
690026550	-0.435427026357786	-0.210441923434376	1	0	1	0	1	0	
720026400	-0.390338942196026	0.303122465112723	1	0	1	0	1	0	
750026250	0.0799191823164465	0.474350730163934	1	0	1	0	1	0	
780026100	0.454167777045685	0.165072505738578	1	0	1	0	1	0	
810025950	0.368954701696476	-0.313334432585777	1	0	1	0	1	0	
840025800	-0.089949008235127	-0.467326328479908	1	0	1	0	1	0	
870025650	-0.441218587430666	-0.117390794374458	1	0	1	0	1	0	
900025500	-0.269711425219631	0.346328853653227	1	0	1	0	1	0	
930025350	0.216702564707551	0.398875016987577	1	0	1	0	1	0	
960025200	0.493501298124919	0.00410907104572052	1	0	1	0	1	0	
990025050	0.291182345387349	-0.422852133561127	1	0	1	0	1	0	
1020024900	-0.189874375146082	-0.437213401733973	1	0	1	0	1	0	
1050024750	-0.4364446715486	-0.0117055302604682	1	0	1	0	1	0	
1080024600	-0.146117306774966	0.410665885128065	1	0	1	0	1	0	
1110024450	0.343595123678459	0.339178548433497	1	0	1	0	1	0	
1140024300	0.499721613417818	-0.121313034420216	1	0	1	0	1	0	
1170024150	0.155853257259934	-0.471246901807049	1	0	1	0	1	0	
1200024000	-0.317157824832867	-0.356574171530552	1	0	1	0	1	0	
1230023850	-0.447948290416266	0.161308047598156	1	0	1	0	1	0	
1260023700	-0.0492096922922876	0.500114139908124	1	0	1	0	1	0	
1290023550	0.443852984019178	0.294866144148823	1	0	1	0	1	0	
1320023400	0.478227306346635	-0.236414556640169	1	0	1	0	1	0	
1350023250	0.0507306936121892	-0.530041222894755	1	0	1	0	1	0	
1380023100	-0.448842582882329	-0.308394928916761	1	0	1	0	1	0	
1410022950	-0.486662913730701	0.242626407266047	1	0	1	0	1	0	
1440022800	0.00405164682126027	0.526146487448896	1	0	1	0	1	0	
1470022650	0.489032769283812	0.224603826410977	1	0	1	0	1	0	
1500022500	0.437955826221411	-0.351447771258211	1	0	1	0	1	0	
1530022350	-0.0768956332201239	-0.601645654152245	1	0	1	0	1	0	
1560022200	-0.5470921946122	-0.290398994250238	1	0	1	0	1	0	
1590022050	-0.523834094361171	0.290805360358151	1	0	1	0	1	0	
1620021900	0.0379503817239757	0.556688609400722	1	0	1	0	1	0	
1650021750	0.531846045184946	0.190442243708698	1	0	1	0	1	0	
1680021600	0.433239168353168	-0.437106904860914	1	0	1	0	1	0	
1710021450	-0.13991617067372	-0.63069180192978	1	0	1	0	1	0	
1740021300	-0.598190214498456	-0.258684651234719	1	0	1	0	1	0	
1770021150	-0.534953750638088	0.341182052781234	1	0	1	0	1	0	
1800021000	0.0536168664312262	0.63092795319092	1	0	1	0	1	0	
1830020850	0.598542130032326	0.24826440314657	1	0	1	0	1	0	
1860020700	0.507219875057365	-0.421957273058561	1	0	1	0	1	0	
1890020550	-0.108012359574193	-0.644303556436817	1	0	1	0	1	0	
1920020400	-0.596985687000909	-0.236932567611577	1	0	1	0	1	0	
1950020250	-0.546986626561089	0.376304822705222	1	0	1	0	1	0	
1980020100	0.0118020422358804	0.677728798746361	1	0	1	0	1	0	
2010019950	0.599417887412243	0.327475224336295	1	0	1	0	1	0	
2040019800	0.532597470519118	-0.380230948847626	1	0	1	0	1	0	
2070019650	-0.115687285539876	-0.631001719031364	1	0	1	0	1	0	
2100019500	-0.624562307133003	-0.242238207591763	1	0	1	0	1	0	
2130019350	-0.591437868279801	0.371225540920598	1	0	1	0	1	0	
2160019200	-0.0589614886113904	0.715611994620819	1	0	1	0	1	0	
2190019050	0.562371377422234	0.415699459507519	1	0	1	0	1	0	
2220018900	0.582807168001531	-0.31859539491878	1	0	1	0	1	0	
2250018750	-0.0522994174844892	-0.66802537306436	1	0	1	0	1	0	
2280018600	-0.617464759915065	-0.311600098388143	1	0	1	0	1	0	
2310018450	-0.642983611053175	0.315199641586976	1	0	1	0	1	0	
2340018300	-0.145747875853883	0.707461520516928	1	0	1	0	1	0	
2370018150	0.503898534655273	0.504117788447757	1	0	1	0	1	0	
2400018000	0.670346067189146	-0.211342159041291	1	0	1	0	1	0	
2430017850	0.0943329243030822	-0.684867108472022	1	0	1	0	1	0	
2460017700	-0.550598740594784	-0.400371609337781	1	0	1	0	1	0	
2490017550	-0.653811893116385	0.242158746201286	1	0	1	0	1	0	
2520017400	-0.18277921449716	0.692555890015932	1	0	1	0	1	0	
2550017250	0.464396458043261	0.572543523775835	1	0	1	0	1	0	
2580017100	0.737499248286951	-0.0838419108652651	1	0	1	0	1	0	
2610016950	0.262671303033828	-0.652918670479212	1	0	1	0	1	0	
2640016800	-0.450469491628727	-0.496359984837241	1	0	1	0	1	0	
2670016650	-0.659643465726663	0.17548249328857	1	0	1	0	1	0	
2700016500	-0.246410685606299	0.686921294699331	1	0	1	0	1	0	
2730016350	0.405374363894794	0.645713115228682	1	0	1	0	1	0	
2760016200	0.75373661326026	0.0642052586129501	1	0	1	0	1	0	
2790016050	0.418553548898595	-0.570270366855408	1	0	1	0	1	0	
2820015900	-0.326982478873881	-0.575477440142901	1	0	1	0	1	0	
2850015750	-0.679015495768388	0.0655693420673388	1	0	1	0	1	0	
2880015600	-0.325570090064747	0.647991673622429	1	0	1	0	1	0	
2910015450	0.326167405743751	0.679655647628085	1	0	1	0	1	0	
2940015300	0.727930791756327	0.164024855353866	1	0	1	0	1	0	
2970015150	0.514582835272176	-0.492534139476519	1	0	1	0	1	0	
3000015000	-0.187293821870279	-0.653565899460421	1	0	1	0	1	0	
3030014850	-0.667070034507205	-0.104596125224338	1	0	1	0	1	0	
3060014700	-0.428535623815325	0.549080401060731	1	0	1	0	1	0	
3090014550	0.218117971442783	0.685325014912833	1	0	1	0	1	0	
3120014400	0.687601285184762	0.238626366819653	1	0	1	0	1	0	
3150014250	0.594413146530532	-0.414289649928796	1	0	1	0	1	0	
3180014100	-0.031403206521082	-0.690942193259722	1	0	1	0	1	0	
3210013950	-0.589777410276941	-0.261821135343584	1	0	1	0	1	0	
3240013800	-0.474433830644566	0.420988142091214	1	0	1	0	1	0	
3270013650	0.136094683069135	0.657692302053363	1	0	1	0	1	0	
3300013500	0.657975809161346	0.285052813050872	1	0	1	0	1	0	
3330013350	0.644845207269102	-0.329228651617674	1	0	1	0	1	0	
3360013200	0.130954483024851	-0.667312008571323	1	0	1	0	1	0	
3390013050	-0.453595402560832	-0.409120782732672	1	0	1	0	1	0	
3420012900	-0.511525578331748	0.258162023944227	1	0	1	0	1	0	
3450012750	0.0414938305885286	0.611428661349925	1	0	1	0	1	0	
3480012600	0.582923800709058	0.322867902662898	1	0	1	0	1	0	
3510012450	0.625291523555102	-0.245382868662903	1	0	1	0	1	0	
3540012300	0.202094917433498	-0.59598579466828	1	0	1	0	1	0	
3570012150	-0.34472550792457	-0.44729889684106	1	0	1	0	1	0	
3600012000	-0.502107024366306	0.10490279998302	1	0	1	0	1	0	
3630011850	-0.0833302407118257	0.509627781529604	1	0	1	0	1	0	
3660011700	0.435672541695505	0.334838972263659	1	0	1	0	1	0	
3690011550	0.545574271513065	-0.152592449482169	1	0	1	0	1	0	
3720011400	0.223588637877468	-0.495488944239272	1	0	1	0	1	0	
3750011250	-0.24883532477995	-0.438295046727191	1	0	1	0	1	0	
3780011100	-0.446079529787143	-0.0183952718691499	1	0	1	0	1	0	
3810010950	-0.188110838006315	0.359408107181062	1	0	1	0	1	0	
3840010800	0.239320626165266	0.323132022460053	1	0	1	0	1	0	
3870010650	0.409918318685798	-0.0447948535511199	1	0	1	0	1	0	
3900010500	0.21780216055149	-0.352765364663876	1	0	1	0	1	0	
3930010350	-0.106743539973618	-0.371771905681544	1	0	1	0	1	0	
3960010200	-0.290677106356835	-0.139211321132431	1	0	1	0	1	0	
3990010050	-0.201670327159603	0.119165170013109	1	0	1	0	1	0	
4020009900	0.036226112503051	0.183581176114268	1	0	1	0	1	0	
4050009750	0.203122376711923	0.0420983870856848	1	0	1	0	1	0	
4080009600	0.193487664634792	-0.150618846416157	1	0	1	0	1	0	
4110009450	0.0546526174696442	-0.263465854080427	1	0	1	0	1	0	
4140009300	-0.117391550871596	-0.24760012132848	1	0	1	0	1	0	
4170009150	-0.232806477988051	-0.114368754437561	1	0	1	0	1	0	
4200009000	-0.216234783888621	0.0822711665922102	1	0	1	0	1	0	
4230008850	-0.0274417710175706	0.210114690852753	1	0	1	0	1	0	
4260008700	0.218451192309376	0.113547099075185	1	0	1	0	1	0	
4290008550	0.285753466898783	-0.172141819424535	1	0	1	0	1	0	
4320008400	0.0485378197194655	-0.390835643200212	1	0	1	0	1	0	
4350008250	-0.278461818159463	-0.321723837831579	1	0	1	0	1	0	
4380008100	-0.433015485481536	0.0124335429624	1	0	1	0	1	0	
4410007950	-0.2182551031749	0.368867244909953	1	0	1	0	1	0	
4440007800	0.241876352684947	0.363908854234048	1	0	1	0	1	0	
4470007650	0.461150052813743	-0.0803725044405299	1	0	1	0	1	0	
4500007500	0.176666288959536	-0.4833449135637	1	0	1	0	1	0	
4530007350	-0.31534687293957	-0.452331311630099	1	0	1	0	1	0	
4560007200	-0.567495194016325	-0.0191199887190256	1	0	1	0	1	0	
4590007050	-0.341377113061492	0.454274781288706	1	0	1	0	1	0	
4620006900	0.217339544949463	0.518913012775762	1	0	1	0	1	0	
4650006750	0.573960013267943	0.0352033863624236	1	0	1	0	1	0	
4680006600	0.305713098783303	-0.514393292674412	1	0	1	0	1	0	
4710006450	-0.301288900362018	-0.542273561361435	1	0	1	0	1	0	
4740006300	-0.63545752982925	-0.0541275536753046	1	0	1	0	1	0	
4770006150	-0.438373159691949	0.48878624003694	1	0	1	0	1	0	
4800006000	0.136338520357722	0.661880812080203	1	0	1	0	1	0	
4830005850	0.63531383620471	0.211392923933073	1	0	1	0	1	0	
4860005700	0.442102220217092	-0.479169028351198	1	0	1	0	1	0	
4890005550	-0.242620643297088	-0.605938807760582	1	0	1	0	1	0	
4920005400	-0.670611017478798	-0.135208170632043	1	0	1	0	1	0	
4950005250	-0.545322695600452	0.460493435959276	1	0	1	0	1	0	
4980005100	0.0358196578704986	0.714948852116264	1	0	1	0	1	0	
5010004950	0.600894107056907	0.313795034319245	1	0	1	0	1	0	
5040004800	0.512000427506604	-0.409465046042671	1	0	1	0	1	0	
5070004650	-0.148288337130179	-0.660016262338957	1	0	1	0	1	0	
5100004500	-0.659976132823329	-0.232929965186792	1	0	1	0	1	0	
5130004350	-0.59260285863138	0.401849513567539	1	0	1	0	1	0	
5160004200	-0.0159193570698494	0.71790751138244	1	0	1	0	1	0	
5190004050	0.586645349497648	0.398870171843258	1	0	1	0	1	0	
5220003900	0.641801197101308	-0.278349458496011	1	0	1	0	1	0	
5250003750	0.0730578703760262	-0.688629439436959	1	0	1	0	1	0	
5280003600	-0.565354788035471	-0.390828721183981	1	0	1	0	1	0	
5310003450	-0.614696216554343	0.307384840970565	1	0	1	0	1	0	
5340003300	-0.0593263961759331	0.700406442238464	1	0	1	0	1	0	
5370003150	0.558523842764018	0.468137330879092	1	0	1	0	1	0	
5400003000	0.722122130117682	-0.174397109148187	1	0	1	0	1	0	
5430002850	0.242149319999787	-0.682112365605835	1	0	1	0	1	0	
5460002700	-0.481510376830938	-0.497300247372612	1	0	1	0	1	0	
5490002550	-0.651295672518116	0.227626640417551	1	0	1	0	1	0	
5520002400	-0.149891009943652	0.705755287436284	1	0	1	0	1	0	
5550002250	0.494622581045899	0.576068398798559	1	0	1	0	1	0	
5580002100	0.763076753268608	-0.0384630922820161	1	0	1	0	1	0	
5610001950	0.347499579895263	-0.629638549711601	1	0	1	0	1	0	
5640001800	-0.415280939897024	-0.518640238478742	1	0	1	0	1	0	
5670001650	-0.648202048458665	0.196598167239131	1	0	1	0	1	0	
5700001500	-0.186383396967161	0.694287212057251	1	0	1	0	1	0	
5730001350	0.43760774905008	0.571844028087877	1	0	1	0	1	0	
5760001200	0.681552985456274	-0.00396907146390997	1	0	1	0	1	0	
5790001050	0.341671345967288	-0.527285543601724	1	0	1	0	1	0	
5820000900	-0.287038234584018	-0.523298280482167	1	0	1	0	1	0	
5850000750	-0.569044393995817	0.00518995001579449	1	0	1	0	1	0	
5880000600	-0.283804927406278	0.48898758605805	1	0	1	0	1	0	
5910000450	0.277949724766962	0.507003274819333	1	0	1	0	1	0	
5940000300	0.597812265635181	0.0420918594314426	1	0	1	0	1	0	
5970000150	0.394132653857916	-0.477381107456825	1	0	1	0	1	0	
6000000000	-0.158625770773447	-0.587360339957673	1	0	1	0	1	0	
