!Keysight Technologies N9916A: A.08.06
!Date: Thursday, 30 May 2024 20:11:57
!Timezone: (GMT+10:00) Brisbane
!Model: N9916A
!Serial: MY53102361
!GPS Latitude: 
!GPS Longitude: 
!GPS TimeStamp: 0001-01-01 00:00:00Z
!GPS Seconds Since Last Read: 0
!CHECKSUM:1621865029
!Correction: S11(Rdy)S21()S12()S22()
!S2P File: Measurements:S11,S21,S12,S22:
# Hz S RI R 50
30000	-0.181426701637216	0.020680152452872	1	0	1	0	1	0	
30029850	-0.142181067370586	0.202525183601189	1	0	1	0	1	0	
60029700	0.118576958775353	0.200365128878434	1	0	1	0	1	0	
90029550	0.215450151907403	-0.0652606618961434	1	0	1	0	1	0	
120029400	0.0227002298726871	-0.225970890583936	1	0	1	0	1	0	
150029250	-0.184260675408766	-0.142937299281373	1	0	1	0	1	0	
180029100	-0.225300574471528	0.0795452140654211	1	0	1	0	1	0	
210028950	-0.0313279985515932	0.24567690988346	1	0	1	0	1	0	
240028800	0.207257620035348	0.126140716165629	1	0	1	0	1	0	
270028650	0.184411572735163	-0.110687091626744	1	0	1	0	1	0	
300028500	-0.0108576111537765	-0.1894048735942	1	0	1	0	1	0	
330028350	-0.188725899908381	-0.0608792027169466	1	0	1	0	1	0	
360028200	-0.148425690890111	0.187166165085865	1	0	1	0	1	0	
390028050	0.104496121027559	0.239704413339736	1	0	1	0	1	0	
420027900	0.235008552637232	0.0531541061808372	1	0	1	0	1	0	
450027750	0.13951368977103	-0.131610330991393	1	0	1	0	1	0	
480027600	-0.076518972866488	-0.155519224930051	1	0	1	0	1	0	
510027450	-0.208992961172159	0.0607241524982172	1	0	1	0	1	0	
540027300	-0.0344943017352512	0.258763265190457	1	0	1	0	1	0	
570027150	0.187141147632787	0.177104498566989	1	0	1	0	1	0	
600027000	0.225865534884595	-0.0435839575448817	1	0	1	0	1	0	
630026850	0.048928492051577	-0.210809834755811	1	0	1	0	1	0	
660026700	-0.211091518223864	-0.118174843647845	1	0	1	0	1	0	
690026550	-0.198588647518523	0.174782724760834	1	0	1	0	1	0	
720026400	0.0595258398210014	0.263009415581666	1	0	1	0	1	0	
750026250	0.25256069945015	0.0776559248598356	1	0	1	0	1	0	
780026100	0.214057794158814	-0.187524571774925	1	0	1	0	1	0	
810025950	-0.0842239203286166	-0.293578650460885	1	0	1	0	1	0	
840025800	-0.295817283978406	-0.0248653575845843	1	0	1	0	1	0	
870025650	-0.129178739280111	0.262213927855198	1	0	1	0	1	0	
900025500	0.190586471857487	0.253795470419386	1	0	1	0	1	0	
930025350	0.373685011279059	-0.0293020090814673	1	0	1	0	1	0	
960025200	0.196975670837197	-0.366925452686515	1	0	1	0	1	0	
990025050	-0.198030566401274	-0.325063107221458	1	0	1	0	1	0	
1020024900	-0.326873565868124	0.0472134354445248	1	0	1	0	1	0	
1050024750	-0.0767496994063108	0.336410392269364	1	0	1	0	1	0	
1080024600	0.330599774813214	0.271274237896024	1	0	1	0	1	0	
1110024450	0.452610056956807	-0.157562653878391	1	0	1	0	1	0	
1140024300	0.109765037409062	-0.448911593506667	1	0	1	0	1	0	
1170024150	-0.310395026371425	-0.28662188022911	1	0	1	0	1	0	
1200024000	-0.392652558391498	0.139935048413295	1	0	1	0	1	0	
1230023850	-0.0430462990912878	0.474620976206521	1	0	1	0	1	0	
1260023700	0.423343065461174	0.278491570718775	1	0	1	0	1	0	
1290023550	0.466035937257768	-0.216468994966578	1	0	1	0	1	0	
1320023400	0.0589786295068852	-0.490910890067546	1	0	1	0	1	0	
1350023250	-0.380488625010944	-0.311280514349915	1	0	1	0	1	0	
1380023100	-0.477845727993819	0.19455008872086	1	0	1	0	1	0	
1410022950	-0.0279541235902678	0.517573372140333	1	0	1	0	1	0	
1440022800	0.434162373332324	0.22860257992916	1	0	1	0	1	0	
1470022650	0.431977111041919	-0.269943654358905	1	0	1	0	1	0	
1500022500	0.00857155576267203	-0.542350915320061	1	0	1	0	1	0	
1530022350	-0.465393835213855	-0.337264022251383	1	0	1	0	1	0	
1560022200	-0.520433942867716	0.200891935793266	1	0	1	0	1	0	
1590022050	-0.0611506871027208	0.495775359737971	1	0	1	0	1	0	
1620021900	0.425921807466188	0.234216977248669	1	0	1	0	1	0	
1650021750	0.434561582782034	-0.290247824428079	1	0	1	0	1	0	
1680021600	-0.0182007815442788	-0.57752949000015	1	0	1	0	1	0	
1710021450	-0.469595624757963	-0.315510693134169	1	0	1	0	1	0	
1740021300	-0.507561260434625	0.18175911633821	1	0	1	0	1	0	
1770021150	-0.103774780207625	0.495377884486907	1	0	1	0	1	0	
1800021000	0.408352761866608	0.312950968445678	1	0	1	0	1	0	
1830020850	0.470499342754021	-0.226711276348002	1	0	1	0	1	0	
1860020700	0.037125190400199	-0.521208839298464	1	0	1	0	1	0	
1890020550	-0.400321675913744	-0.304385631790763	1	0	1	0	1	0	
1920020400	-0.467591431257025	0.173969743180071	1	0	1	0	1	0	
1950020250	-0.122311599212349	0.490061662233411	1	0	1	0	1	0	
1980020100	0.350334152813448	0.34520287748336	1	0	1	0	1	0	
2010019950	0.43410857662705	-0.142053778207433	1	0	1	0	1	0	
2040019800	0.0581541207202767	-0.422702447324798	1	0	1	0	1	0	
2070019650	-0.358865135426579	-0.26451461615328	1	0	1	0	1	0	
2100019500	-0.455023124474416	0.139234581009129	1	0	1	0	1	0	
2130019350	-0.170624954615797	0.445527369368735	1	0	1	0	1	0	
2160019200	0.234658162118084	0.364642224797004	1	0	1	0	1	0	
2190019050	0.368997711691148	-0.0232163593170995	1	0	1	0	1	0	
2220018900	0.109832194603892	-0.329756350747438	1	0	1	0	1	0	
2250018750	-0.264370681358685	-0.27439379446511	1	0	1	0	1	0	
2280018600	-0.399064421852587	0.0518809472658698	1	0	1	0	1	0	
2310018450	-0.224504479836754	0.327593421408929	1	0	1	0	1	0	
2340018300	0.0902780197448289	0.349216901299005	1	0	1	0	1	0	
2370018150	0.293012509715156	0.0991642143667841	1	0	1	0	1	0	
2400018000	0.194036840628294	-0.197707073503786	1	0	1	0	1	0	
2430017850	-0.0894816454645898	-0.251648685075135	1	0	1	0	1	0	
2460017700	-0.271644592172625	-0.061828812264245	1	0	1	0	1	0	
2490017550	-0.244046547739289	0.18564729039351	1	0	1	0	1	0	
2520017400	-0.0151492499146737	0.317026619194594	1	0	1	0	1	0	
2550017250	0.221175546024448	0.217158643634197	1	0	1	0	1	0	
2580017100	0.287151830218034	-0.0229024938171272	1	0	1	0	1	0	
2610016950	0.128022191154836	-0.217125803864987	1	0	1	0	1	0	
2640016800	-0.137328606543108	-0.196537739042112	1	0	1	0	1	0	
2670016650	-0.270439622856928	0.0548069613129333	1	0	1	0	1	0	
2700016500	-0.149084934950231	0.303718318610224	1	0	1	0	1	0	
2730016350	0.128188951370734	0.362487298643687	1	0	1	0	1	0	
2760016200	0.362317932928645	0.169111782426591	1	0	1	0	1	0	
2790016050	0.324887324002222	-0.163461961297869	1	0	1	0	1	0	
2820015900	-0.0014345527083865	-0.313266492263271	1	0	1	0	1	0	
2850015750	-0.315672409891636	-0.103918779082694	1	0	1	0	1	0	
2880015600	-0.300334901490061	0.275094295729805	1	0	1	0	1	0	
2910015450	0.0355636832258315	0.475564593006193	1	0	1	0	1	0	
2940015300	0.401675283867474	0.298059537122759	1	0	1	0	1	0	
2970015150	0.465293027073274	-0.132314246425123	1	0	1	0	1	0	
3000015000	0.123508776485477	-0.431470001284108	1	0	1	0	1	0	
3030014850	-0.335981262455922	-0.284573747394147	1	0	1	0	1	0	
3060014700	-0.436883627300382	0.198062310194037	1	0	1	0	1	0	
3090014550	-0.0695003227393924	0.522466176668065	1	0	1	0	1	0	
3120014400	0.405780365114046	0.391220775651718	1	0	1	0	1	0	
3150014250	0.574570892985681	-0.0831880469113742	1	0	1	0	1	0	
3180014100	0.262000437478863	-0.505916215618045	1	0	1	0	1	0	
3210013950	-0.288109699222121	-0.442329670704933	1	0	1	0	1	0	
3240013800	-0.502124424449477	0.0856548446448478	1	0	1	0	1	0	
3270013650	-0.155128744585224	0.52218826848678	1	0	1	0	1	0	
3300013500	0.408055647486655	0.458093180552087	1	0	1	0	1	0	
3330013350	0.655441392293464	-0.0313752194874321	1	0	1	0	1	0	
3360013200	0.392908103027464	-0.515591683315317	1	0	1	0	1	0	
3390013050	-0.174327912558472	-0.568761715137574	1	0	1	0	1	0	
3420012900	-0.531329168588189	-0.0784545992736453	1	0	1	0	1	0	
3450012750	-0.26658387920665	0.486246984362475	1	0	1	0	1	0	
3480012600	0.349169124759252	0.525975384337896	1	0	1	0	1	0	
3510012450	0.673132837863426	0.0370273110166312	1	0	1	0	1	0	
3540012300	0.45991158562098	-0.479226000279179	1	0	1	0	1	0	
3570012150	-0.0907663474162271	-0.614736963050798	1	0	1	0	1	0	
3600012000	-0.530852430422287	-0.22738924134435	1	0	1	0	1	0	
3630011850	-0.411520613574587	0.399013256023523	1	0	1	0	1	0	
3660011700	0.211000893524082	0.570561738225998	1	0	1	0	1	0	
3690011550	0.629341303163324	0.137564785034979	1	0	1	0	1	0	
3720011400	0.506918873681676	-0.410274435126523	1	0	1	0	1	0	
3750011250	-0.0183210382144231	-0.642725448498781	1	0	1	0	1	0	
3780011100	-0.517306412030547	-0.335874320415551	1	0	1	0	1	0	
3810010950	-0.5244043063434	0.277926640918922	1	0	1	0	1	0	
3840010800	0.0234441930091744	0.588803684481373	1	0	1	0	1	0	
3870010650	0.547242740073492	0.256528744985757	1	0	1	0	1	0	
3900010500	0.538235278286777	-0.331541272520882	1	0	1	0	1	0	
3930010350	0.0693896082333365	-0.634882368283355	1	0	1	0	1	0	
3960010200	-0.433882047297743	-0.430064432628985	1	0	1	0	1	0	
3990010050	-0.541931992981919	0.11527059985674	1	0	1	0	1	0	
4020009900	-0.117663634153576	0.505831336245418	1	0	1	0	1	0	
4050009750	0.441541444750457	0.305273195876839	1	0	1	0	1	0	
4080009600	0.505404431147018	-0.25444712768879	1	0	1	0	1	0	
4110009450	0.103460903439904	-0.5587206620309	1	0	1	0	1	0	
4140009300	-0.336971165257305	-0.43649017095502	1	0	1	0	1	0	
4170009150	-0.513307641010791	-0.0104245672016308	1	0	1	0	1	0	
4200009000	-0.241119073498062	0.391697878315473	1	0	1	0	1	0	
4230008850	0.245557554379466	0.344300839073369	1	0	1	0	1	0	
4260008700	0.429312553022701	-0.066554649056096	1	0	1	0	1	0	
4290008550	0.23421941580799	-0.41415681678286	1	0	1	0	1	0	
4320008400	-0.17112704044968	-0.450561601027163	1	0	1	0	1	0	
4350008250	-0.426163092004863	-0.165651496428799	1	0	1	0	1	0	
4380008100	-0.365559092472253	0.201753392532937	1	0	1	0	1	0	
4410007950	-0.0313704562929244	0.399015125789558	1	0	1	0	1	0	
4440007800	0.347160467420976	0.21679921361154	1	0	1	0	1	0	
4470007650	0.380534299758843	-0.219755317660003	1	0	1	0	1	0	
4500007500	0.0367644201978075	-0.473577295045517	1	0	1	0	1	0	
4530007350	-0.367347566316736	-0.348807629735393	1	0	1	0	1	0	
4560007200	-0.517641477526471	0.0712226220614295	1	0	1	0	1	0	
4590007050	-0.243050414237769	0.46075578793169	1	0	1	0	1	0	
4620006900	0.272285256468974	0.441249335789744	1	0	1	0	1	0	
4650006750	0.530899474581094	-0.0449058556063342	1	0	1	0	1	0	
4680006600	0.226343446503599	-0.514475884403852	1	0	1	0	1	0	
4710006450	-0.338086901820795	-0.485629318747722	1	0	1	0	1	0	
4740006300	-0.61268917282752	0.00172255914721273	1	0	1	0	1	0	
4770006150	-0.38417105174972	0.506751058065608	1	0	1	0	1	0	
4800006000	0.183843485220701	0.626642911743912	1	0	1	0	1	0	
4830005850	0.625815408825524	0.149280344489385	1	0	1	0	1	0	
4860005700	0.384738485458806	-0.497739997601304	1	0	1	0	1	0	
4890005550	-0.281213772496376	-0.568501204835734	1	0	1	0	1	0	
4920005400	-0.663728416797561	-0.0884709995549812	1	0	1	0	1	0	
4950005250	-0.50710093049754	0.483480950183556	1	0	1	0	1	0	
4980005100	0.0783776926792652	0.693651040417884	1	0	1	0	1	0	
5010004950	0.603885086899868	0.261364164515284	1	0	1	0	1	0	
5040004800	0.468060652033622	-0.434702286445855	1	0	1	0	1	0	
5070004650	-0.185883248945815	-0.636354583145634	1	0	1	0	1	0	
5100004500	-0.659955839270131	-0.191351831176396	1	0	1	0	1	0	
5130004350	-0.559071390857639	0.426298126980767	1	0	1	0	1	0	
5160004200	0.0219792097304668	0.70308436514949	1	0	1	0	1	0	
5190004050	0.595301406220607	0.358371700920386	1	0	1	0	1	0	
5220003900	0.613827997222373	-0.304444747074379	1	0	1	0	1	0	
5250003750	0.0329891384873946	-0.675744558045779	1	0	1	0	1	0	
5280003600	-0.57419040263939	-0.353028570816746	1	0	1	0	1	0	
5310003450	-0.58635970494682	0.330446220070296	1	0	1	0	1	0	
5340003300	-0.0241306379244261	0.68972815470753	1	0	1	0	1	0	
5370003150	0.567182735000691	0.436331823149455	1	0	1	0	1	0	
5400003000	0.698723900004629	-0.20031365782601	1	0	1	0	1	0	
5430002850	0.205777047999449	-0.677019995221254	1	0	1	0	1	0	
5460002700	-0.492838931246377	-0.463315071334694	1	0	1	0	1	0	
5490002550	-0.627940550962442	0.252086188872282	1	0	1	0	1	0	
5520002400	-0.119973163666412	0.699423081782723	1	0	1	0	1	0	
5550002250	0.507006154196387	0.549429577801958	1	0	1	0	1	0	
5580002100	0.749019611348697	-0.0627907005748702	1	0	1	0	1	0	
5610001950	0.317531576146343	-0.624231057411378	1	0	1	0	1	0	
5640001800	-0.424672323872693	-0.493317181357781	1	0	1	0	1	0	
5670001650	-0.632707442010283	0.214347981295892	1	0	1	0	1	0	
5700001500	-0.164730986496013	0.689500563234983	1	0	1	0	1	0	
5730001350	0.447359626690251	0.554396642075058	1	0	1	0	1	0	
5760001200	0.670415719574228	-0.0228895565824365	1	0	1	0	1	0	
5790001050	0.319897876581079	-0.529929074734482	1	0	1	0	1	0	
5820000900	-0.298177113848223	-0.505401324593466	1	0	1	0	1	0	
5850000750	-0.560403473610597	0.0237819113220197	1	0	1	0	1	0	
5880000600	-0.265269181142184	0.490393988291064	1	0	1	0	1	0	
5910000450	0.290765182620782	0.492806070003079	1	0	1	0	1	0	
5940000300	0.591764196055271	0.0265145885545749	1	0	1	0	1	0	
5970000150	0.380179661361309	-0.484474040378521	1	0	1	0	1	0	
6000000000	-0.16990700803334	-0.57668039045312	1	0	1	0	1	0	
