# HZ S RI R 50
50000 0.081032832 -0.039794172 1.132325888 0.008608733 0 0 0 0
9049500 0.056398396 -0.059294092 1.088675024 -0.317432416 0 0 0 0
18049000 0.006043768 -0.093965056 0.956498368 -0.60939488 0 0 0 0
27048500 -0.051324064 -0.088892944 0.741880512 -0.850540096 0 0 0 0
36048000 -0.088009048 -0.051297796 0.47048656 -1.012708307 0 0 0 0
45047500 -0.090175984 -0.004534082 0.174959152 -1.089574816 0 0 0 0
54047000 -0.06475746 0.02859153 -0.121496792 -1.089103696 0 0 0 0
63046500 -0.028386028 0.037837288 -0.407496704 -1.017288208 0 0 0 0
72046000 0.003861938 0.026247568 -0.668615552 -0.873528 0 0 0 0
81045500 0.024891358 0.002806522 -0.88351392 -0.658166528 0 0 0 0
90045000 0.034497364 -0.026820868 -1.030240298 -0.387570944 0 0 0 0
99044500 0.031403774 -0.060125864 -1.092775944 -0.089707776 0 0 0 0
108044000 0.012431328 -0.092393648 -1.068371176 0.20887888 0 0 0 0
117043500 -0.02453763 -0.114513616 -0.96835904 0.482990624 0 0 0 0
126043000 -0.074218896 -0.112394976 -0.806318464 0.720250944 0 0 0 0
135042500 -0.118819992 -0.078290992 -0.594375488 0.914488832 0 0 0 0
144042000 -0.135350896 -0.018608018 -0.331879424 1.058150648 0 0 0 0
153041500 -0.10868988 0.043602256 -0.02283203 1.12409508 0 0 0 0
162041000 -0.04544512 0.078179664 0.300841152 1.087687256 0 0 0 0
171040500 0.02631046 0.0659208 0.59468192 0.952037568 0 0 0 0
180040000 0.076415424 0.013200311 0.82935968 0.744586368 0 0 0 0
189039500 0.085235976 -0.056176176 0.996759872 0.488471136 0 0 0 0
198039000 0.053201756 -0.11365264 1.092830184 0.197340592 0 0 0 0
207038500 -0.002951124 -0.139186592 1.10376716 -0.113596088 0 0 0 0
216038000 -0.057968608 -0.12601908 1.023451448 -0.414409504 0 0 0 0
225037500 -0.091566824 -0.084670216 0.864343424 -0.674093056 0 0 0 0
234037000 -0.09103816 -0.035046276 0.64623136 -0.875461952 0 0 0 0
243036500 -0.065347948 0.004577177 0.38974256 -1.014932275 0 0 0 0
252036000 -0.022481656 0.023238746 0.105280984 -1.083677056 0 0 0 0
261035500 0.025318788 0.01854724 -0.194861296 -1.07363856 0 0 0 0
270035000 0.068563048 -0.0079448 -0.490290432 -0.979650944 0 0 0 0
279034500 0.097661832 -0.054866164 -0.743694656 -0.800036416 0 0 0 0
288034000 0.101737608 -0.116425632 -0.925789504 -0.556727232 0 0 0 0
297033500 0.0703562 -0.1744192 -1.018164992 -0.278318848 0 0 0 0
306033000 0.008485136 -0.214923136 -1.047554376 -0.003227437 0 0 0 0
315032500 -0.07167564 -0.216824256 -1.017139554 0.265404736 0 0 0 0
324032000 -0.143624896 -0.172693808 -0.93282304 0.530594464 0 0 0 0
333031500 -0.178830512 -0.083518536 -0.770254912 0.780680768 0 0 0 0
342031000 -0.152252992 0.010669859 -0.522837568 0.985851456 0 0 0 0
351030500 -0.074914024 0.071445544 -0.214280288 1.0994314 0 0 0 0
360030000 0.023892332 0.073104472 0.10833348 1.106655952 0 0 0 0
369029500 0.101072264 0.019834374 0.40390096 1.025795698 0 0 0 0
378029000 0.133975344 -0.060033412 0.660256704 0.876817664 0 0 0 0
387028500 0.118712368 -0.137245264 0.873908672 0.669242432 0 0 0 0
396028000 0.0656351 -0.188519056 1.027067184 0.404971232 0 0 0 0
405027500 -0.002459644 -0.20185504 1.09353924 0.105868344 0 0 0 0
414027000 -0.063259392 -0.17681288 1.07413864 -0.192331024 0 0 0 0
423026500 -0.099553984 -0.123042856 0.976936512 -0.473082976 0 0 0 0
432026000 -0.099528008 -0.057637504 0.817918656 -0.717724352 0 0 0 0
441025500 -0.064115324 0.000293711 0.603838144 -0.914396928 0 0 0 0
450025000 0.002515031 0.033710308 0.336333184 -1.058817388 0 0 0 0
459024500 0.08328572 0.029645098 0.02127205 -1.107876896 0 0 0 0
468024000 0.15829736 -0.018253736 -0.304548064 -1.049246072 0 0 0 0
477023500 0.205985824 -0.101291488 -0.5886848 -0.892434688 0 0 0 0
486023000 0.201414528 -0.2017532 -0.796542976 -0.679256384 0 0 0 0
495022500 0.142207792 -0.29345472 -0.936136256 -0.453343456 0 0 0 0
504022000 0.040668288 -0.345196256 -1.03421414 -0.215849888 0 0 0 0
513021500 -0.08045624 -0.334542976 -1.077537064 0.03263282 0 0 0 0
522021000 -0.179781296 -0.251329984 -1.065215348 0.315507488 0 0 0 0
531020500 -0.213121648 -0.119033704 -0.952277376 0.612438144 0 0 0 0
540020000 -0.1575092 0.009166374 -0.726894272 0.866534336 0 0 0 0
549019500 -0.039518948 0.0778584 -0.424516256 1.019758822 0 0 0 0
558019000 0.086733072 0.061767816 -0.114613336 1.072919008 0 0 0 0
567018500 0.170744128 -0.015188448 0.182206496 1.052710176 0 0 0 0
576018000 0.194806112 -0.116904128 0.465827616 0.965533568 0 0 0 0
585017500 0.1610092 -0.205762384 0.716081152 0.80042752 0 0 0 0
594017000 0.090591368 -0.263069632 0.92613408 0.57439648 0 0 0 0
603016500 0.01246584 -0.265968944 1.031541468 0.307989888 0 0 0 0
612016000 -0.055230972 -0.22952512 1.063210368 0.019623884 0 0 0 0
621015500 -0.090573384 -0.161723456 1.025449396 -0.263009392 0 0 0 0
630015000 -0.084292384 -0.08067032 0.925351296 -0.535251968 0 0 0 0
639014500 -0.031912334 -0.01048774 0.755674112 -0.786193664 0 0 0 0
648014000 0.055736028 0.027551162 0.507431936 -0.9812672 0 0 0 0
657013500 0.157383168 0.0167486 0.195177632 -1.081083896 0 0 0 0
666013000 0.242205072 -0.04449232 -0.118697512 -1.054953456 0 0 0 0
675012500 0.282946272 -0.148000768 -0.3786184 -0.937362944 0 0 0 0
684012000 0.266948368 -0.266112592 -0.570050048 -0.776200768 0 0 0 0
693011500 0.194527792 -0.364982528 -0.715719936 -0.606301312 0 0 0 0
702011000 0.078672256 -0.419653984 -0.848456576 -0.4195712 0 0 0 0
711010500 -0.057323724 -0.403164704 -0.959348736 -0.189734256 0 0 0 0
720010000 -0.168796704 -0.312929088 -1.028870584 0.106664816 0 0 0 0
729009500 -0.208468816 -0.16322256 -0.990378176 0.438196128 0 0 0 0
738009000 -0.147749584 -0.021301138 -0.829803392 0.734391488 0 0 0 0
747008500 -0.011130192 0.049146536 -0.586064064 0.935330752 0 0 0 0
756008000 0.131451192 0.03009448 -0.312379264 1.048375964 0 0 0 0
765007500 0.22953152 -0.063682764 -0.018090918 1.083161832 0 0 0 0
774007000 0.255873024 -0.176454832 0.285559584 1.04113424 0 0 0 0
783006500 0.230166704 -0.275806528 0.571607616 0.91152256 0 0 0 0
792006000 0.162175696 -0.335168704 0.805153792 0.712955328 0 0 0 0
801005500 0.076042952 -0.350216992 0.970989056 0.4787032 0 0 0 0
810005000 -0.009365905 -0.31737696 1.069781184 0.229456864 0 0 0 0
819004500 -0.07562984 -0.242160576 1.10526252 -0.02682574 0 0 0 0
828004000 -0.095204416 -0.138602816 1.073569896 -0.29654304 0 0 0 0
837003500 -0.053293392 -0.034224388 0.94911136 -0.573156224 0 0 0 0
846003000 0.050318092 0.037494708 0.716402176 -0.811161856 0 0 0 0
855002500 0.185500208 0.044649184 0.39979984 -0.946963776 0 0 0 0
864002000 0.303698912 -0.023485088 0.080787208 -0.962276352 0 0 0 0
873001500 0.3699648 -0.16771288 -0.260273792 -0.88169792 0 0 0 0
882001000 0.355128 -0.305485056 -0.486504384 -0.797041536 0 0 0 0
891000500 0.28213536 -0.420035168 -0.69378144 -0.713349952 0 0 0 0
900000000 0.156598704 -0.486413792 -0.903857088 -0.615379072 0 0 0 0
