# HZ S RI R 50
30000 -1.0005090071673455 -0.00044099684447314606 -7.6463e-05 0.000127688 0 0 0 0
15029700 -1.0001439099511906 -0.0003470964014286256 -1.7123e-05 -0.00010126 0 0 0 0
30029400 -1.0002469189753873 -0.0003353029393241638 4.1963e-05 -9.601e-06 0 0 0 0
45029100 -0.9997769614102934 -3.2579508582844446e-05 -0.000152321 -1.9696e-05 0 0 0 0
60028800 -1.0001440228648062 -0.0003703898451826501 2.5038e-05 5.1919e-05 0 0 0 0
75028500 -1.0002032046121179 -0.0002958269009995097 -6.6447e-05 -3.8184e-05 0 0 0 0
90028200 -0.9997341159886867 -0.00011796721009281324 2.0623e-05 -0.000142389 0 0 0 0
105027900 -1.0000436416334302 -7.288956721863945e-05 0.000162984 -0.000107085 0 0 0 0
120027600 -0.9994178491893678 -0.00028062112015614035 4.246e-06 2.6699e-05 0 0 0 0
135027300 -0.9987159196657135 0.0001366549514003582 8.2465e-05 -0.000147872 0 0 0 0
150027000 -0.9997351948176308 -0.00031590317061317075 -8.4966e-05 4.3913e-05 0 0 0 0
165026700 -0.9998917415401435 -3.542728355489176e-05 -4.3667e-05 -2.31e-07 0 0 0 0
180026400 -0.999879841516679 4.597653780516348e-05 -3.8392e-05 -5.914e-06 0 0 0 0
195026100 -0.9997903102735575 -0.0002575508114844612 -4.2322e-05 -2.1759e-05 0 0 0 0
210025800 -1.000277209844258 -0.00020006922443172278 -0.000122249 7.745e-06 0 0 0 0
225025500 -1.0000647877489632 -3.610852304768957e-06 -6.9301e-05 5.2879e-05 0 0 0 0
240025200 -1.0002869460188228 -3.663025030104896e-05 -8.6031e-05 4.1142e-05 0 0 0 0
255024900 -0.9997573032489235 -7.509177027536165e-06 -0.000188685 -1.1372e-05 0 0 0 0
270024600 -1.0000852014838655 -0.0001589938568260718 -9.8928e-05 -2.0689e-05 0 0 0 0
285024300 -0.9999916168688064 -0.00023771373170255956 -0.000135946 7.1658e-05 0 0 0 0
300024000 -0.9991228258557938 -0.00010244653725653799 3.0177e-05 7.6335e-05 0 0 0 0
315023700 -1.0001121277903633 -0.001172034198504735 0.000236548 0.000149123 0 0 0 0
330023400 -0.9959542812207004 0.00033085001693664267 -0.000127909 -3.9786e-05 0 0 0 0
345023100 -1.0018921752960297 -0.0007183744015199938 0.000320802 -0.000437043 0 0 0 0
360022800 -1.0024091381803908 -0.00012594217136070176 -8.9503e-05 -0.000268626 0 0 0 0
375022500 -1.000570008316808 0.00021808005543164143 -0.000101705 0.000108539 0 0 0 0
390022200 -0.9981624913604759 0.002216732475339702 8.4319e-05 -0.000205507 0 0 0 0
405021900 -1.0002576998346921 0.00014455885621341991 0.000118117 -0.000217931 0 0 0 0
420021600 -0.998752750795066 0.0036886721268880847 -0.000142236 -0.000233617 0 0 0 0
435021300 -0.9989002893676425 -0.0012580376207725979 -9.6747e-05 -0.000556115 0 0 0 0
450021000 -1.0017447593768194 0.0009347106246724527 -0.000120419 -0.000142308 0 0 0 0
465020700 -0.9987603674322582 0.0006136173912707229 -0.000140748 -8.3031e-05 0 0 0 0
480020400 -0.9991546533462906 -0.0004564361052734115 -0.00053042 0.000230285 0 0 0 0
495020100 -0.9983637892862566 -0.0010287713681465126 -0.000107197 0.000351522 0 0 0 0
510019800 -1.000164373891117 0.002313927380064457 -0.000357462 0.000157138 0 0 0 0
525019500 -0.9999762182011938 0.0011054344036784708 5.813e-05 0.000539258 0 0 0 0
540019200 -0.9996977319053163 -0.001894614270292675 -0.000338953 0.000668618 0 0 0 0
555018900 -0.9981589201119795 -0.00069307763788189 5.9827e-05 8.2977e-05 0 0 0 0
570018600 -0.9987036679402861 0.0006114540488108519 0.000358013 0.000811368 0 0 0 0
585018300 -0.9963719876047431 -0.00937734795914987 0.000386762 3.5928e-05 0 0 0 0
600018000 -1.0009637822272501 0.001433679801852344 0.000751959 0.000295449 0 0 0 0
615017700 -0.9990511673720371 -0.00024123284386918568 0.000822578 0.000284886 0 0 0 0
630017400 -1.0006354436686533 -0.00024094126524658633 0.000848584 0.000158339 0 0 0 0
645017100 -1.0043704694990578 0.0002088844967179026 0.000670696 0.00035945 0 0 0 0
660016800 -1.0004641160300034 -0.0014442905709172366 0.000622037 -2.2493e-05 0 0 0 0
675016500 -0.998795926932781 0.0017097200618901593 0.000147143 -0.000140442 0 0 0 0
690016200 -1.0013871470517295 0.002427489941447069 -0.00021781 -0.000268525 0 0 0 0
705015900 -1.00066259662996 -0.0018863982751237914 6.6425e-05 2.1743e-05 0 0 0 0
720015600 -1.0029172356006444 0.0011234644593061333 0.00024195 0.000409149 0 0 0 0
735015300 -0.9995820139037167 -0.0005486775045205278 0.000591679 -0.000109604 0 0 0 0
750015000 -1.0022562212144002 0.00017086409526847517 0.000427713 0.000442514 0 0 0 0
765014700 -0.9953962366026262 0.003508340951976082 0.000370518 0.000655098 0 0 0 0
780014400 -1.018244198601918 -0.018181094845205525 0.000525966 0.000374771 0 0 0 0
795014100 -1.0052626030449974 -0.0005819349129352184 0.000168172 0.000806833 0 0 0 0
810013800 -1.0052922137824853 0.002712427730015441 0.000223982 0.001012506 0 0 0 0
825013500 -0.9995417957335215 -0.00028937260543906984 0.00017829 0.000486232 0 0 0 0
840013200 -0.9954471319831001 -0.0022341063423334828 0.000702035 0.00206347 0 0 0 0
855012900 -1.0019799962118332 0.008066439941210582 0.000283206 0.000602722 0 0 0 0
870012600 -1.0016127747304424 -0.00519260109374989 -0.000163856 0.000512674 0 0 0 0
885012300 -0.9974564287217583 0.007932037211129474 5.5592e-05 -0.001620124 0 0 0 0
900012000 -1.0052280427111724 -0.0020886953369503632 -0.001020927 0.000221291 0 0 0 0
915011700 -0.9929799457316748 -0.009485703754339119 -0.00022987 6.1877e-05 0 0 0 0
930011400 -1.0041538061612385 0.011799491535784452 -0.000539796 -0.001308425 0 0 0 0
945011100 -1.0126864384975862 -0.007869157625939208 -0.001727996 -0.000157982 0 0 0 0
960010800 -0.9895032590438463 0.003845510751806295 -0.000731138 0.000661762 0 0 0 0
975010500 -0.9977911968744262 0.00036956938366806806 -0.00055161 0.001423495 0 0 0 0
990010200 -1.0022261973246047 -0.0022583855123565694 0.000905809 0.00039012 0 0 0 0
1005009900 -0.9977614513497277 0.0008578764854774428 -0.000789867 6.5308e-05 0 0 0 0
1020009600 -1.0009472479050272 0.0007943988111433344 0.001052989 0.000363959 0 0 0 0
1035009300 -1.0098298463965574 0.001895834682604798 -0.000425347 -0.000971 0 0 0 0
1050009000 -1.0018785780637989 0.0008143150196735551 0.000845385 -0.000364093 0 0 0 0
1065008700 -0.9968704531071247 0.006074221203952038 -0.000127048 -0.001693772 0 0 0 0
1080008400 -1.003366416787259 0.007968006749264947 0.001158461 -0.001564225 0 0 0 0
1095008100 -1.0065516247255866 0.0016853699066276572 -3.4366e-05 -0.0003004 0 0 0 0
1110007800 -0.9975527353146338 -0.0059685033128504235 -0.000702923 -0.000969907 0 0 0 0
1125007500 -1.0058432923180385 -0.014258325493924768 -2.2848e-05 -0.000737504 0 0 0 0
1140007200 -1.0078776915829843 -0.011848503146293892 -0.002948333 -0.001010274 0 0 0 0
1155006900 -1.0258554730318976 -0.007162637253862784 -0.002051572 -0.002615489 0 0 0 0
1170006600 -1.024894027271238 0.010748578201206234 -0.002722498 -0.00118705 0 0 0 0
1185006300 -0.9886884403922643 0.0190005552752814 -0.000237835 -0.002332367 0 0 0 0
1200006000 -0.9942118643528605 0.0195550000440759 0.00156379 -0.002082421 0 0 0 0
1215005700 -1.024824887396224 0.015173263935839794 -0.000161388 -0.001774398 0 0 0 0
1230005400 -1.0029135932569362 0.013825061831340257 -0.001478606 -0.002579077 0 0 0 0
1245005100 -0.9877833708764887 0.023927578072131802 -0.002565942 -0.004428949 0 0 0 0
1260004800 -1.010776568116598 0.014666158806160118 -0.002234634 -0.002108972 0 0 0 0
1275004500 -0.9548295881343358 -0.023056957792977877 -0.001014912 -0.00172831 0 0 0 0
1290004200 -0.9584041259229721 -0.01845302729004294 -0.001386041 -0.003714945 0 0 0 0
1305003900 -0.9625922514940581 -0.04197534551164941 -0.002185264 -0.001736037 0 0 0 0
1320003600 -0.9799337539211959 0.06747708984491624 0.000589 -0.00389824 0 0 0 0
1335003300 -0.964427604564187 -0.0005522291687701955 0.000239198 -0.005745741 0 0 0 0
1350003000 -1.0609962907180195 0.08349502793988284 0.001842481 -0.000593367 0 0 0 0
1365002700 -0.999771093485593 0.09171282097866171 -0.000247552 -0.00229903 0 0 0 0
1380002400 -1.1157531319367378 0.047343580528447046 0.003478596 -0.00370608 0 0 0 0
1395002100 -0.8820262797687297 -0.0026535213524553902 -0.00310532 -0.00180828 0 0 0 0
1410001800 -1.0839676778953866 0.031583176587039664 0.007865627 -0.008341108 0 0 0 0
1425001500 -1.0979714285549893 -0.0482635506754376 0.000903838 -0.00563883 0 0 0 0
1440001200 -0.8545980994662509 0.0011751393502111775 0.002803013 -0.01006439 0 0 0 0
1455000900 -1.0660350357002273 -0.014937500361580387 -0.013762491 0.000614429 0 0 0 0
1470000600 -0.8096398578466157 0.10485531778970227 -0.005512467 0.000635823 0 0 0 0
1485000300 -1.0052571600928975 0.0387794983799013 -0.000754593 -0.011217937 0 0 0 0
1500000000 -0.9140854664740056 0.1315274150594729 -0.000828364 -0.005423868 0 0 0 0
