# HZ S RI R 50
30000 1.0051361373422494 -0.001163994859954911 0.000178278 9.1673e-05 0 0 0 0
15029700 0.9999217239572231 -2.698833683447809e-05 1.9887e-05 -0.000182156 0 0 0 0
30029400 1.0007118690031833 -0.00012903042443747253 -2.538e-06 -3.009e-06 0 0 0 0
45029100 0.9999317884164685 0.00020313351721265122 -9.5386e-05 6.0432e-05 0 0 0 0
60028800 1.000117993726983 0.00026951503117680507 0.000223663 0.000184602 0 0 0 0
75028500 1.0000656893650317 0.0003916611094713629 -6.0032e-05 0.000142515 0 0 0 0
90028200 1.000061516952478 0.0004615400939353951 -2.0121e-05 -4.0385e-05 0 0 0 0
105027900 1.000134728911291 -5.5273830438966674e-05 -2.4775e-05 7.585e-06 0 0 0 0
120027600 0.999460861287309 -0.00013816710470962998 -7.9091e-05 0.000142211 0 0 0 0
135027300 1.000418469553577 0.0002608622305984736 -8.931e-06 0.00014519 0 0 0 0
150027000 1.0008933499857278 0.00018904068725676614 2.22e-07 0.000148096 0 0 0 0
165026700 0.9999661620170629 0.00012616474296836268 5.8672e-05 7.4329e-05 0 0 0 0
180026400 0.9999109829004802 0.00034101340258505853 0.000115073 1.981e-05 0 0 0 0
195026100 1.0001468646662428 0.00045622985864732934 5.9342e-05 5.2058e-05 0 0 0 0
210025800 0.9996096266022199 0.0002899372576759362 1.426e-05 9.1682e-05 0 0 0 0
225025500 0.9993498888866801 7.386872351865936e-05 0.000144465 0.00010398 0 0 0 0
240025200 1.000012103543441 0.00043996900526006226 0.000130878 8.674e-05 0 0 0 0
255024900 1.0001226457870012 3.230395652318954e-05 6.8923e-05 1.2286e-05 0 0 0 0
270024600 1.00001547495092 0.00015123250976087973 2.4757e-05 0.000108625 0 0 0 0
285024300 1.0001557358590396 0.00031355401877309106 -0.000129959 6.5814e-05 0 0 0 0
300024000 0.9999888722985205 0.0015431513635771664 -0.000223117 0.000176656 0 0 0 0
315023700 1.0007005102133295 0.0001678656786766361 4.5816e-05 0.000418448 0 0 0 0
330023400 0.9999543065753507 0.0010648829145601525 2.8673e-05 0.000305464 0 0 0 0
345023100 1.000798557080199 4.331370138165838e-05 -0.00018431 -0.000208129 0 0 0 0
360022800 0.9988074186988376 -0.0006779840825797979 5.056e-05 3.6013e-05 0 0 0 0
375022500 0.9992600348126096 -0.0007514153327282355 -9.1955e-05 0.000160175 0 0 0 0
390022200 1.0006658714813639 0.004929491958474936 5.1453e-05 -0.000333063 0 0 0 0
405021900 1.0019240040639785 0.0013477566962363764 -2.1058e-05 0.000331433 0 0 0 0
420021600 1.0005007924752267 -0.0032831008248331104 5.2994e-05 -0.000322431 0 0 0 0
435021300 1.00183520824855 0.0011205785321425606 8.7528e-05 8.7306e-05 0 0 0 0
450021000 1.0007205832338169 0.001717049038332633 0.000280862 0.000277434 0 0 0 0
465020700 1.0000933781609256 -0.0005702096208640735 -1.3964e-05 -0.000254491 0 0 0 0
480020400 0.9975156825206055 0.0006082343506315639 0.000287401 -0.00027608 0 0 0 0
495020100 0.9981125511237944 -0.0035099540175413326 -2.8196e-05 1.9434e-05 0 0 0 0
510019800 0.9970168139253468 -0.0032442582309116365 0.000230642 -4.7025e-05 0 0 0 0
525019500 0.9982132048269946 -0.0021580572223822854 0.000487095 -7.3094e-05 0 0 0 0
540019200 0.999033066110397 0.003036189038195498 0.000346659 -8.2077e-05 0 0 0 0
555018900 0.9973896692627969 0.000352112604662862 0.000525594 -0.000163923 0 0 0 0
570018600 0.9978660113224127 -0.002746390166843608 -2.8954e-05 -0.000467514 0 0 0 0
585018300 0.9982602612170783 -0.0006469743051797454 0.000316776 -0.000107912 0 0 0 0
600018000 0.9989430821483346 -0.001829810301497113 -8.531e-05 -0.000100214 0 0 0 0
615017700 0.9987482932228169 0.0005465933352711748 -0.000630558 0.000176837 0 0 0 0
630017400 1.0003960854167133 5.012118673241625e-05 0.000243152 0.000437694 0 0 0 0
645017100 0.9979475841252674 -0.00019786300081909474 0.000119365 0.00065846 0 0 0 0
660016800 1.009322079276944 -0.0005034446198593976 -1.3182e-05 0.000381465 0 0 0 0
675016500 1.0021067225485722 4.6391084468682845e-05 -0.000227854 0.000369595 0 0 0 0
690016200 1.001273747441901 0.00015347178673334513 -0.000230024 0.000637589 0 0 0 0
705015900 0.9998630612483651 0.0007660819598202064 -5.4601e-05 0.000492377 0 0 0 0
720015600 1.0010494729728456 -0.009603610079459125 -0.000539818 0.000100216 0 0 0 0
735015300 0.9983586272667844 0.001164615359494968 -0.000524863 5.5856e-05 0 0 0 0
750015000 1.000989409866089 5.458227027823804e-05 -0.000826392 0.000331354 0 0 0 0
765014700 1.0031697308571836 -0.001065839785035783 -0.000662752 2.7122e-05 0 0 0 0
780014400 1.0173274441555387 0.011349597655820316 -0.00063769 -0.000607269 0 0 0 0
795014100 1.0024182453142803 0.0015485478440305383 -0.001176096 -1.6994e-05 0 0 0 0
810013800 1.004644746209611 0.001663069858324459 -0.000760968 -1.445e-05 0 0 0 0
825013500 1.0048477798023092 0.002822231601838777 -0.001513372 -0.000417026 0 0 0 0
840013200 0.9876811809479193 0.0033093040231313075 -0.000723983 0.000300047 0 0 0 0
855012900 0.9980662912181353 0.010208138292973165 -0.000220967 -0.000161571 0 0 0 0
870012600 1.0092475408237653 -0.0023162674271148425 -0.001780006 -0.000384016 0 0 0 0
885012300 0.9951104947874995 0.0018109186177428479 -0.000724002 7.7019e-05 0 0 0 0
900012000 1.008136315152611 0.011578846110436766 -0.000426006 0.000464945 0 0 0 0
915011700 0.9860787156864292 0.001325779957039543 -0.000527286 0.001233543 0 0 0 0
930011400 1.008697048318918 0.0014777604028095503 -0.000354794 0.001094367 0 0 0 0
945011100 1.0043750681377956 -0.011403933478815388 0.000309115 0.001904218 0 0 0 0
960010800 1.0100339876802564 -0.0019247775382439645 -0.000232635 -0.00052309 0 0 0 0
975010500 0.9972998638989398 0.00046015852118613516 0.000258525 -0.000665355 0 0 0 0
990010200 0.9982659718981263 -0.005747737122736707 0.000793571 -0.000804888 0 0 0 0
1005009900 0.9967236025833124 -0.0032338462284099193 -0.001979335 -0.001087372 0 0 0 0
1020009600 1.0049654563370405 0.0037519046526255048 -0.002053101 -0.002191004 0 0 0 0
1035009300 1.0029458422984745 -0.003774443198930365 -0.001289471 -0.00145131 0 0 0 0
1050009000 0.9973764719766001 0.005999820380154069 -0.001734857 -0.000917051 0 0 0 0
1065008700 1.0061352859664765 -0.0035470743488513552 -0.00240166 -0.00214722 0 0 0 0
1080008400 0.9966538177590816 -0.004564562276817321 -0.000136032 -0.00057133 0 0 0 0
1095008100 1.0041196225284619 -0.001432653574910925 -0.002224488 -0.002114783 0 0 0 0
1110007800 1.0006794492108853 -0.005228809526347775 0.000893032 -0.002241106 0 0 0 0
1125007500 1.00003532045793 -0.018296739232234713 -0.000368082 -0.000708956 0 0 0 0
1140007200 0.9939183551692099 -0.006486055337517969 0.000114674 -0.00146153 0 0 0 0
1155006900 0.9754638573195412 -0.008038804426415441 -0.004326608 -0.003454637 0 0 0 0
1170006600 1.003567710761395 -0.003917294587397978 -0.004119221 -0.005224508 0 0 0 0
1185006300 0.9993583700541009 0.0034030374440541735 -0.000664034 -0.001018779 0 0 0 0
1200006000 1.002676202192721 -0.02741596883718327 -0.00235916 -0.004463531 0 0 0 0
1215005700 1.005410850397328 -0.008130741307744714 -0.002430892 -0.001744476 0 0 0 0
1230005400 0.9671079220800476 -0.007839353690296195 -0.002894881 -0.000850053 0 0 0 0
1245005100 1.0107484626958871 0.04079742886769549 -0.001887156 -0.004232382 0 0 0 0
1260004800 1.0113601563036947 -0.0006772507314736263 -0.002346627 -0.000973325 0 0 0 0
1275004500 1.0091812122742505 -0.00037067997966839367 -0.001438122 -0.007537422 0 0 0 0
1290004200 1.0084155357965772 0.04938847583384639 -0.00392909 -0.004365922 0 0 0 0
1305003900 0.9535397159812744 -0.012096050314489454 0.000486636 -0.008633337 0 0 0 0
1320003600 1.0282243533060218 -0.026417661523673155 0.002864397 -0.003475478 0 0 0 0
1335003300 0.9503893662139323 0.04168104881517611 -0.007290297 -0.002846606 0 0 0 0
1350003000 0.9475313637434135 0.023779768260710134 -0.005490266 -0.000297208 0 0 0 0
1365002700 1.085145082732405 0.011704221966339171 -0.000194783 -0.005884165 0 0 0 0
1380002400 1.0231187632393588 0.08968350421868107 0.000612315 0.003398597 0 0 0 0
1395002100 0.9410342280949657 -0.11923463642471277 -0.002155961 -0.004712314 0 0 0 0
1410001800 1.0230240596139442 0.106497052466976 -0.003006584 -0.002261084 0 0 0 0
1425001500 0.9822061005214215 0.07817900916350802 0.001954194 -0.006456826 0 0 0 0
1440001200 0.9980365005997851 -0.04534056090204768 -0.000483367 0.000735847 0 0 0 0
1455000900 1.0599182374739347 -0.019428987443088214 -0.003580041 -0.017599382 0 0 0 0
1470000600 0.7503346026519226 0.07972120134308203 0.003325717 -0.007563459 0 0 0 0
1485000300 0.9022293275206681 0.1487867280200219 -0.000723408 0.005831692 0 0 0 0
1500000000 0.8985844677843531 0.05925769409160753 -0.004792549 -0.002532607 0 0 0 0
