# HZ S RI R 50
50000 0.125721632 -0.032551344 0.850895936 -0.016871294 0 0 0 0
12049500 -0.022973718 -0.117346864 0.477736768 -0.68192448 0 0 0 0
24049000 -0.108264768 0.02859914 -0.277001312 -0.76796256 0 0 0 0
36048500 0.039181556 0.099885496 -0.756061376 -0.226188544 0 0 0 0
48048000 0.130943376 -0.035599492 -0.631074624 0.456611168 0 0 0 0
60047500 0.05225776 -0.168561216 -0.009313846 0.784326464 0 0 0 0
72047000 -0.097767192 -0.195121728 0.6405936 0.463604928 0 0 0 0
84046500 -0.232256704 -0.094721152 0.738476352 -0.27289728 0 0 0 0
96046000 -0.241732368 0.086410992 0.167790432 -0.745704896 0 0 0 0
108045500 -0.09992508 0.200317232 -0.500535072 -0.52431696 0 0 0 0
120045000 0.042452652 0.13997384 -0.687979968 0.115733312 0 0 0 0
132044500 0.018998358 0.065801508 -0.253925168 0.626272896 0 0 0 0
144044000 0.079433304 0.150500608 0.4065456 0.468612896 0 0 0 0
156043500 0.281465952 -0.054007872 0.48907984 -0.111257896 0 0 0 0
168043000 0.015205388 -0.350797184 0.131040992 -0.370030976 0 0 0 0
180042500 -0.357417248 -0.137219392 -0.183429856 -0.239715184 0 0 0 0
192042000 -0.27139936 0.303394912 -0.216121888 0.012583753 0 0 0 0
204041500 0.20798552 0.385769088 -0.083612736 0.119363248 0 0 0 0
216041000 0.479561024 -0.062263548 0.018788182 0.0926438 0 0 0 0
228040500 0.172606752 -0.489519296 0.047297756 0.03608732 0 0 0 0
240040000 -0.30768608 -0.414674496 0.03588296 0.002654621 0 0 0 0
252039500 -0.471978784 -0.01777368 0.021785808 -0.005580465 0 0 0 0
264039000 -0.260600832 0.287357248 0.017525784 -0.005926292 0 0 0 0
276038500 0.0564448 0.262203248 0.021263952 -0.010032743 0 0 0 0
288038000 0.145091984 0.009160763 0.025764144 -0.027744024 0 0 0 0
300037500 -0.040542944 -0.118561712 0.00861291 -0.054421988 0 0 0 0
312037000 -0.194262016 0.033208118 -0.057959764 -0.066080644 0 0 0 0
324036500 -0.076544032 0.223165888 -0.120588512 0.005727194 0 0 0 0
336036000 0.147298224 0.162239488 -0.095798944 0.127520528 0 0 0 0
348035500 0.147117296 -0.06765504 0.058466116 0.2158308 0 0 0 0
360035000 -0.090121808 -0.050234804 0.330590592 0.065774092 0 0 0 0
372034500 0.133050056 0.1886176 0.125182392 -0.387077152 0 0 0 0
384034000 0.190913904 -0.193533152 -0.279796704 -0.15616376 0 0 0 0
396033500 -0.085061688 -0.190893104 -0.19195128 0.12274576 0 0 0 0
408033000 -0.1219658 -0.02140046 -0.011867467 0.166447888 0 0 0 0
420032500 -0.00943642 0.024998718 0.091230184 0.09175448 0 0 0 0
432032000 0.0444812 -0.077321984 0.106905288 -0.001762751 0 0 0 0
444031500 -0.053942656 -0.179164544 0.063865364 -0.06350352 0 0 0 0
456031000 -0.217340272 -0.14001224 0.001203523 -0.073645016 0 0 0 0
468030500 -0.297185248 0.027045004 -0.041681272 -0.041746008 0 0 0 0
480030000 -0.229739696 0.209370608 -0.047450184 -0.000196834 0 0 0 0
492029500 -0.057849104 0.293348448 -0.03116848 0.028190526 0 0 0 0
504029000 0.110782456 0.239673808 -0.005257117 0.038682796 0 0 0 0
516028500 0.187758784 0.0991554 0.01983453 0.03228045 0 0 0 0
528028000 0.145322672 -0.034049008 0.035962328 0.010776999 0 0 0 0
540027500 0.038844376 -0.07712908 0.034810076 -0.018476818 0 0 0 0
552027000 -0.037851956 -0.02122972 0.013859002 -0.038051548 0 0 0 0
564026500 -0.01091103 0.062814124 -0.011232275 -0.04099476 0 0 0 0
576026000 0.09443096 0.067831024 -0.038189992 -0.02645653 0 0 0 0
588025500 0.176139968 -0.037780008 -0.049026944 0.011425735 0 0 0 0
600025000 0.148138688 -0.190690144 -0.026782156 0.044458532 0 0 0 0
612024500 0.005341832 -0.28875712 0.014243588 0.052610368 0 0 0 0
624024000 -0.166608352 -0.262039728 0.046438092 0.027027258 0 0 0 0
636023500 -0.281472896 -0.132642168 0.048515004 -0.013490988 0 0 0 0
648023000 -0.29333072 0.03191315 0.022468884 -0.043337328 0 0 0 0
660022500 -0.214526944 0.159983472 -0.01595442 -0.048091624 0 0 0 0
672022000 -0.100128392 0.207611328 -0.047604828 -0.026228896 0 0 0 0
684021500 -0.005967044 0.18768392 -0.05905564 0.012961732 0 0 0 0
696021000 0.039606156 0.136329104 -0.040241376 0.053696888 0 0 0 0
708020500 0.048739652 0.093881656 0.009378208 0.074047664 0 0 0 0
720020000 0.047773124 0.071656112 0.068341136 0.054470072 0 0 0 0
732019500 0.053341044 0.055654584 0.104850312 -0.01207855 0 0 0 0
744019000 0.04501794 0.030401586 0.077446544 -0.10815124 0 0 0 0
756018500 0.019737708 0.049030484 -0.054563308 -0.1724916 0 0 0 0
768018000 0.137039472 0.168558608 -0.255295072 -0.017082998 0 0 0 0
780017500 0.461171872 -0.090816104 -0.058457172 0.272078464 0 0 0 0
792017000 0.110041712 -0.420690656 0.177444816 0.092444864 0 0 0 0
804016500 -0.1722492 -0.35672656 0.12424984 -0.063619464 0 0 0 0
816016000 -0.294689824 -0.178206288 0.027137848 -0.098671792 0 0 0 0
828015500 -0.286364512 -0.003660884 -0.040616764 -0.071765072 0 0 0 0
840015000 -0.1965076 0.10204256 -0.067608488 -0.019947332 0 0 0 0
852014500 -0.104302456 0.122373432 -0.059960324 0.032156628 0 0 0 0
864014000 -0.056565744 0.091275064 -0.01885079 0.061120316 0 0 0 0
876013500 -0.065996276 0.10198056 0.020011244 0.042757696 0 0 0 0
888013000 -0.080409568 0.119379656 0.04725 0.006396005 0 0 0 0
900012500 -0.059243136 0.172309248 0.037933832 -0.030741296 0 0 0 0
912012000 0.019475688 0.2022824 0.003383615 -0.049676664 0 0 0 0
924011500 0.12881796 0.175393888 -0.035425844 -0.026498782 0 0 0 0
936011000 0.216314576 0.077164768 -0.038677136 0.016390726 0 0 0 0
948010500 0.233023936 -0.06089358 -0.004034868 0.050772036 0 0 0 0
960010000 0.172032896 -0.182963872 0.044378188 0.036392648 0 0 0 0
972009500 0.070346472 -0.246943104 0.061767092 -0.006365418 0 0 0 0
984009000 -0.044982604 -0.25755968 0.039885012 -0.039487188 0 0 0 0
996008500 -0.142310704 -0.206785552 0.000500006 -0.050709964 0 0 0 0
1008008000 -0.193324624 -0.134684704 -0.038454084 -0.025736588 0 0 0 0
1020007500 -0.193068848 -0.067615808 -0.03902024 0.01881085 0 0 0 0
1032007000 -0.187553344 -0.028703436 -0.003643895 0.052647592 0 0 0 0
1044006500 -0.187029584 0.00657647 0.04538078 0.040863344 0 0 0 0
1056006000 -0.191502208 0.039159012 0.064910768 -0.011610053 0 0 0 0
1068005500 -0.171669312 0.101165736 0.03306412 -0.063660728 0 0 0 0
1080005000 -0.11868548 0.166861008 -0.038540432 -0.069453808 0 0 0 0
1092004500 -0.009055591 0.165261232 -0.09695944 -0.006795946 0 0 0 0
1104004000 0.079994648 0.073674992 -0.070067192 0.11355936 0 0 0 0
1116003500 -0.007639987 -0.057641904 0.14310832 0.139599968 0 0 0 0
1128003000 -0.041161672 0.116712488 0.121606544 -0.164323424 0 0 0 0
1140002500 0.15917904 -0.002821318 -0.087762624 -0.09545076 0 0 0 0
1152002000 0.115978416 -0.202255344 -0.078040608 0.021313732 0 0 0 0
1164001500 -0.037817184 -0.29291232 -0.01859393 0.06013692 0 0 0 0
1176001000 -0.170508224 -0.265538992 0.02838209 0.040477092 0 0 0 0
1188000500 -0.233347632 -0.182970608 0.039146568 -0.002204256 0 0 0 0
1200000000 -0.23104664 -0.095453656 0.021922516 -0.02710735 0 0 0 0
