# HZ S RI R 50
50000 0.081326096 -0.038778728 1.129792688 0.00492131 0 0 0 0
9049500 0.00826574 -0.124471416 0.985622784 -0.548331776 0 0 0 0
18049000 -0.139638864 -0.130379808 0.586692416 -0.950964736 0 0 0 0
27048500 -0.2313692 -0.010489244 0.05322898 -1.086473104 0 0 0 0
36048000 -0.20046616 0.129289432 -0.44504496 -0.95590912 0 0 0 0
45047500 -0.09694444 0.200088464 -0.81712448 -0.63818816 0 0 0 0
54047000 0.004785238 0.199972016 -1.016332984 -0.191571536 0 0 0 0
63046500 0.080515504 0.168116352 -0.990440448 0.307737792 0 0 0 0
72046000 0.140703728 0.120603536 -0.7236448 0.747263104 0 0 0 0
81045500 0.185944128 0.05241336 -0.264075136 1.004715562 0 0 0 0
90045000 0.20278944 -0.034094068 0.270839232 0.987404288 0 0 0 0
99044500 0.178302624 -0.124749032 0.709946624 0.697871552 0 0 0 0
108044000 0.1096244 -0.194540528 0.926375168 0.2463968 0 0 0 0
117043500 0.012487638 -0.207761328 0.898775616 -0.231552928 0 0 0 0
126043000 -0.05392722 -0.143898112 0.6512032 -0.643569216 0 0 0 0
135042500 -0.010485832 -0.066387236 0.196853536 -0.882082048 0 0 0 0
144042000 0.10795892 -0.119857904 -0.32762112 -0.77913408 0 0 0 0
153041500 0.099046072 -0.328231936 -0.618326144 -0.390676352 0 0 0 0
162041000 -0.145579344 -0.479775712 -0.612431552 -0.000188528 0 0 0 0
171040500 -0.47539904 -0.375513376 -0.438399456 0.26206768 0 0 0 0
180040000 -0.65058048 -0.040598672 -0.197447648 0.3681856 0 0 0 0
189039500 -0.561504 0.334815072 0.01246049 0.327507296 0 0 0 0
198039000 -0.269991264 0.567602688 0.124151024 0.212550512 0 0 0 0
207038500 0.078810304 0.592149184 0.148206368 0.101857208 0 0 0 0
216038000 0.366845344 0.442268608 0.12635332 0.027502074 0 0 0 0
225037500 0.531294688 0.190160432 0.090569328 -0.011082154 0 0 0 0
234037000 0.55473056 -0.090594384 0.058718648 -0.024046076 0 0 0 0
243036500 0.449709312 -0.339001184 0.036932804 -0.022326248 0 0 0 0
252036000 0.249014944 -0.505255328 0.026168606 -0.015588571 0 0 0 0
261035500 0.002277924 -0.550536448 0.023677614 -0.009455071 0 0 0 0
270035000 -0.226598768 -0.4641072 0.026710312 -0.005410434 0 0 0 0
279034500 -0.368637408 -0.268576224 0.035434916 -0.004648388 0 0 0 0
288034000 -0.374347424 -0.039784012 0.050381068 -0.01136801 0 0 0 0
297033500 -0.250078256 0.127971944 0.058183896 -0.025210302 0 0 0 0
306033000 -0.067240496 0.185112752 0.065418648 -0.072631464 0 0 0 0
315032500 0.094374944 0.126740664 0.036729432 -0.128448336 0 0 0 0
324032000 0.178570256 -0.00688265 -0.032379546 -0.166273152 0 0 0 0
333031500 0.15690312 -0.157982 -0.125834392 -0.16778736 0 0 0 0
342031000 0.034338192 -0.261462928 -0.236721424 -0.120482096 0 0 0 0
351030500 -0.153935776 -0.23760856 -0.351399616 0.013205211 0 0 0 0
360030000 -0.260392016 -0.005456312 -0.368702336 0.30670832 0 0 0 0
369029500 0.002451924 0.223563792 -0.005995949 0.577076416 0 0 0 0
378029000 0.274779136 -0.020718646 0.411751232 0.330425856 0 0 0 0
387028500 0.149874176 -0.273003296 0.415857824 -0.021078476 0 0 0 0
396028000 -0.053431764 -0.294729664 0.26116624 -0.187972816 0 0 0 0
405027500 -0.173962224 -0.190493104 0.110714616 -0.22653856 0 0 0 0
414027000 -0.196006128 -0.056093468 0.002858248 -0.204305984 0 0 0 0
423026500 -0.140971968 0.053357488 -0.0647538 -0.158785488 0 0 0 0
432026000 -0.0425953 0.110132296 -0.102891944 -0.109073576 0 0 0 0
441025500 0.066127644 0.112648328 -0.1181088 -0.058517892 0 0 0 0
450025000 0.155184128 0.06609554 -0.114366096 -0.013407486 0 0 0 0
459024500 0.214583248 -0.010412442 -0.096263408 0.023786062 0 0 0 0
468024000 0.237513088 -0.102643024 -0.069420072 0.049767332 0 0 0 0
477023500 0.226000704 -0.196968704 -0.03903718 0.060888748 0 0 0 0
486023000 0.18382152 -0.280207552 -0.013680472 0.065246992 0 0 0 0
495022500 0.118974096 -0.33952944 0.006999589 0.06100376 0 0 0 0
504022000 0.040664616 -0.366785728 0.023629448 0.054684648 0 0 0 0
513021500 -0.043351788 -0.361598208 0.037549444 0.042568188 0 0 0 0
522021000 -0.123425832 -0.320471104 0.048278528 0.02889547 0 0 0 0
531020500 -0.184847664 -0.251363792 0.055383528 0.007579686 0 0 0 0
540020000 -0.221412336 -0.163373008 0.055531384 -0.014017076 0 0 0 0
549019500 -0.225288768 -0.068603992 0.048879216 -0.035119124 0 0 0 0
558019000 -0.189686592 0.018265384 0.037954392 -0.047595656 0 0 0 0
567018500 -0.12296396 0.07501736 0.0240464 -0.060420564 0 0 0 0
576018000 -0.0365143 0.098424728 0.004633693 -0.07084128 0 0 0 0
585017500 0.06044066 0.091015464 -0.021813458 -0.070165192 0 0 0 0
594017000 0.148710384 0.062226128 -0.050645172 -0.059436036 0 0 0 0
603016500 0.210737408 0.011347953 -0.068574328 -0.03652268 0 0 0 0
612016000 0.250757072 -0.053322308 -0.077532792 -0.008770116 0 0 0 0
621015500 0.262970064 -0.123811144 -0.072551584 0.020078866 0 0 0 0
630015000 0.249118928 -0.187025744 -0.057612964 0.04345272 0 0 0 0
639014500 0.213247408 -0.244995232 -0.03346713 0.060844824 0 0 0 0
648014000 0.164104816 -0.291219136 -0.00660269 0.06921728 0 0 0 0
657013500 0.108426336 -0.319154272 0.018420562 0.068020992 0 0 0 0
666013000 0.054278316 -0.332043104 0.043045052 0.062366296 0 0 0 0
675012500 0.007275003 -0.324228576 0.065132552 0.050095748 0 0 0 0
684012000 -0.025398356 -0.299734816 0.082903112 0.029228254 0 0 0 0
693011500 -0.050958736 -0.261382496 0.091430768 0.000747028 0 0 0 0
702011000 -0.063653148 -0.218834288 0.09213248 -0.033234112 0 0 0 0
711010500 -0.064315432 -0.180629648 0.081210536 -0.073245608 0 0 0 0
720010000 -0.063568472 -0.14448232 0.052929236 -0.111229712 0 0 0 0
729009500 -0.067030684 -0.125276896 0.006490626 -0.143518288 0 0 0 0
738009000 -0.074057944 -0.109057256 -0.05820142 -0.160444304 0 0 0 0
747008500 -0.097222392 -0.091361328 -0.146074304 -0.149979936 0 0 0 0
756008000 -0.127792536 -0.02304029 -0.253980224 -0.0759166 0 0 0 0
765007500 -0.090824288 0.145326608 -0.323826624 0.123377352 0 0 0 0
774007000 0.202698624 0.28458704 -0.1417864 0.387555776 0 0 0 0
783006500 0.492460576 0.07818452 0.195694736 0.328957568 0 0 0 0
792006000 0.511961824 -0.17650032 0.27996576 0.10167032 0 0 0 0
801005500 0.433619872 -0.317177504 0.225675872 -0.036133992 0 0 0 0
810005000 0.332833632 -0.386904224 0.152187408 -0.094759632 0 0 0 0
819004500 0.226946448 -0.419267296 0.086313728 -0.115247912 0 0 0 0
828004000 0.12572712 -0.418958048 0.035218312 -0.113713536 0 0 0 0
837003500 0.036340256 -0.40573712 -0.006209236 -0.105291208 0 0 0 0
846003000 -0.032699236 -0.369735168 -0.040761824 -0.089608664 0 0 0 0
855002500 -0.07291472 -0.320628032 -0.069903472 -0.064621972 0 0 0 0
864002000 -0.08818864 -0.2599712 -0.086596584 -0.031222558 0 0 0 0
873001500 -0.070789096 -0.228635808 -0.077203464 0.007830867 0 0 0 0
882001000 -0.040317804 -0.170227952 -0.06501464 0.0485328 0 0 0 0
891000500 0.001373772 -0.123848328 -0.043528096 0.077429928 0 0 0 0
900000000 0.05084214 -0.103561824 -0.015022431 0.093100328 0 0 0 0
