# HZ S RI R 50
50000 0.124783552 -0.033450534 0.851954112 -0.016666201 0 0 0 0
12049500 -0.06031544 -0.134974608 0.512520608 -0.655212672 0 0 0 0
24049000 -0.179138784 0.076269816 -0.196122624 -0.775769024 0 0 0 0
36048500 0.05597788 0.239523888 -0.6689936 -0.317660416 0 0 0 0
48048000 0.328500544 0.020471038 -0.642545152 0.266042976 0 0 0 0
60047500 0.212691536 -0.388912128 -0.223089104 0.647445888 0 0 0 0
72047000 -0.289187968 -0.47119952 0.383863232 0.567108288 0 0 0 0
84046500 -0.613420608 0.015172071 0.6196112 -0.03555168 0 0 0 0
96046000 -0.251053744 0.547442752 0.216502336 -0.405821664 0 0 0 0
108045500 0.412295744 0.337555776 -0.111515744 -0.263194384 0 0 0 0
120045000 0.261579664 -0.397889632 -0.104274008 -0.072137136 0 0 0 0
132044500 -0.494975328 -0.13240224 -0.07198232 -0.150797024 0 0 0 0
144044000 -0.026634016 0.523957024 -0.279002816 -0.045275112 0 0 0 0
156043500 0.462232384 0.008046818 -0.222672208 0.2041476 0 0 0 0
168043000 0.06452314 -0.40581984 0.002738413 0.311706208 0 0 0 0
180042500 -0.354345472 -0.162924432 0.239250256 0.199876416 0 0 0 0
192042000 -0.268277168 0.2840992 0.284879168 -0.048703704 0 0 0 0
204041500 0.196059632 0.363292192 0.14136392 -0.214114368 0 0 0 0
216041000 0.453004352 -0.064793632 -0.044899792 -0.221587632 0 0 0 0
228040500 0.15898264 -0.473302176 -0.160512608 -0.109623184 0 0 0 0
240040000 -0.306622496 -0.400031072 -0.156837904 0.021162602 0 0 0 0
252039500 -0.466923552 -0.00877776 -0.09129804 0.082382832 0 0 0 0
264039000 -0.254002032 0.295461216 -0.041286144 0.098013776 0 0 0 0
276038500 0.0695306 0.269745728 0.002477549 0.112725768 0 0 0 0
288038000 0.170291584 0.005786673 0.071998928 0.115180704 0 0 0 0
300037500 -0.019381826 -0.1527144 0.152469792 0.053782464 0 0 0 0
312037000 -0.218265264 -0.022592118 0.177686752 -0.07859204 0 0 0 0
324036500 -0.157636016 0.209671584 0.082184416 -0.204917728 0 0 0 0
336036000 0.076960616 0.25316456 -0.093943944 -0.228327968 0 0 0 0
348035500 0.221482864 0.088701608 -0.259707808 -0.10598952 0 0 0 0
360035000 0.182387664 -0.091220144 -0.27839072 0.13757376 0 0 0 0
372034500 0.045895072 -0.162986608 -0.075807768 0.311524 0 0 0 0
384034000 -0.077706952 -0.11028312 0.181747232 0.253875584 0 0 0 0
396033500 -0.09413348 0.003625541 0.29297376 0.040701308 0 0 0 0
408033000 0.00204992 0.054491988 0.224734464 -0.165846976 0 0 0 0
420032500 0.090728408 -0.031716292 0.044764712 -0.268264448 0 0 0 0
432032000 0.046433916 -0.174323552 -0.158427424 -0.223634384 0 0 0 0
444031500 -0.120960024 -0.223708416 -0.27333264 -0.043455008 0 0 0 0
456031000 -0.273163744 -0.113968 -0.218368656 0.166744656 0 0 0 0
468030500 -0.300085888 0.080993104 -0.027962938 0.264162624 0 0 0 0
480030000 -0.189966912 0.237076992 0.165316768 0.189021168 0 0 0 0
492029500 -0.021597156 0.279688288 0.228929216 0.005676638 0 0 0 0
504029000 0.119475072 0.211932448 0.14722664 -0.138952768 0 0 0 0
516028500 0.17556816 0.081519584 0.01825186 -0.176404624 0 0 0 0
528028000 0.127634344 -0.03685328 -0.086139904 -0.13089976 0 0 0 0
540027500 0.02334141 -0.07009456 -0.138466496 -0.044133588 0 0 0 0
552027000 -0.044481768 -0.008440233 -0.131182072 0.051739156 0 0 0 0
564026500 -0.010173605 0.07474544 -0.071238416 0.123749648 0 0 0 0
576026000 0.104933688 0.079077136 0.020800396 0.146978848 0 0 0 0
588025500 0.19583992 -0.040899848 0.11457712 0.106911248 0 0 0 0
600025000 0.159257264 -0.210399472 0.159609824 0.001749119 0 0 0 0
612024500 0.000593829 -0.30797184 0.113629936 -0.112460696 0 0 0 0
624024000 -0.18364256 -0.26770288 0.000714074 -0.155581792 0 0 0 0
636023500 -0.294117664 -0.119737904 -0.100522032 -0.109464568 0 0 0 0
648023000 -0.2931848 0.051680248 -0.1386956 -0.01953544 0 0 0 0
660022500 -0.199143728 0.17123168 -0.114297552 0.064375028 0 0 0 0
672022000 -0.074348424 0.206763376 -0.050976152 0.11363568 0 0 0 0
684021500 0.007693242 0.164942272 0.02728702 0.120791296 0 0 0 0
696021000 0.034294888 0.107995832 0.100046488 0.086154424 0 0 0 0
708020500 0.01776015 0.077130456 0.149274384 0.010956629 0 0 0 0
720020000 0.003730298 0.082400888 0.144995744 -0.096870056 0 0 0 0
732019500 0.022413878 0.10358816 0.052106976 -0.19686592 0 0 0 0
744019000 0.074806264 0.1097994 -0.123245312 -0.202361344 0 0 0 0
756018500 0.157037056 0.071947112 -0.254846304 -0.041826036 0 0 0 0
768018000 0.207495536 -0.042312576 -0.200056032 0.165750656 0 0 0 0
780017500 0.144034544 -0.205887024 -0.001912153 0.25701424 0 0 0 0
792017000 0.044660728 -0.256451968 0.154198736 0.191923632 0 0 0 0
804016500 -0.083462496 -0.255924576 0.240215328 0.03813858 0 0 0 0
816016000 -0.184018 -0.190448592 0.206773568 -0.134839952 0 0 0 0
828015500 -0.236820368 -0.094195736 0.065261544 -0.250277968 0 0 0 0
840015000 -0.245430224 0.013240793 -0.136045344 -0.243574304 0 0 0 0
852014500 -0.205956512 0.11833724 -0.297960416 -0.076560048 0 0 0 0
864014000 -0.100252648 0.181813776 -0.26804232 0.192773792 0 0 0 0
876013500 -0.004326678 0.1569972 0.002658999 0.301313568 0 0 0 0
888013000 -0.017260332 0.094211768 0.2067588 0.162527504 0 0 0 0
900012500 -0.04090504 0.117177832 0.223347312 -0.03217733 0 0 0 0
912012000 0.003714723 0.167186528 0.10867664 -0.172460896 0 0 0 0
924011500 0.09463068 0.160772784 -0.044379528 -0.194144016 0 0 0 0
936011000 0.184612912 0.094212544 -0.16651464 -0.114087144 0 0 0 0
948010500 0.2187932 -0.026099508 -0.205232112 0.035089672 0 0 0 0
960010000 0.195275888 -0.150584736 -0.108048136 0.177916016 0 0 0 0
972009500 0.113918712 -0.240744944 0.083818696 0.17627528 0 0 0 0
984009000 -0.019638658 -0.28867536 0.1789992 0.007561222 0 0 0 0
996008500 -0.150595792 -0.243826848 0.092783464 -0.143557888 0 0 0 0
1008008000 -0.229873984 -0.147808768 -0.06111116 -0.152463072 0 0 0 0
1020007500 -0.230802496 -0.046470704 -0.150452688 -0.056768048 0 0 0 0
1032007000 -0.196286272 0.021224562 -0.140677728 0.061656544 0 0 0 0
1044006500 -0.149884032 0.038369988 -0.058255316 0.125352472 0 0 0 0
1056006000 -0.135502272 0.042570024 0.043156092 0.11995644 0 0 0 0
1068005500 -0.143471088 0.063012332 0.109322728 0.05572662 0 0 0 0
1080005000 -0.133018736 0.106546488 0.116012488 -0.033872752 0 0 0 0
1092004500 -0.084915888 0.148573568 0.066942708 -0.106542472 0 0 0 0
1104004000 -0.003037462 0.156287472 -0.029760526 -0.131204816 0 0 0 0
1116003500 0.075301968 0.099543736 -0.131040144 -0.062778496 0 0 0 0
1128003000 0.115207416 0.008159334 -0.13279648 0.089319648 0 0 0 0
1140002500 0.11090196 -0.114541584 0.011329559 0.16467184 0 0 0 0
1152002000 0.044793516 -0.208023152 0.140796528 0.086614968 0 0 0 0
1164001500 -0.073966624 -0.245918112 0.156616896 -0.049534596 0 0 0 0
1176001000 -0.156457712 -0.213498944 0.071156376 -0.134569904 0 0 0 0
1188000500 -0.20728824 -0.158963856 -0.039677076 -0.133195208 0 0 0 0
1200000000 -0.19587352 -0.111716144 -0.121609048 -0.062674568 0 0 0 0
