# HZ S RI R 50
50000 0.082742656 -0.040346168 1.13141632 0.005278171 0 0 0 0
9049500 -0.011144814 -0.165095216 1.007316113 -0.508662816 0 0 0 0
18049000 -0.219246768 -0.187334848 0.6520416 -0.896882176 0 0 0 0
27048500 -0.389543584 -0.018941074 0.167193136 -1.043774128 0 0 0 0
36048000 -0.388542112 0.244571664 -0.27617456 -0.950152384 0 0 0 0
45047500 -0.207105472 0.454212128 -0.600296768 -0.718297216 0 0 0 0
54047000 0.068065808 0.520851744 -0.81179776 -0.40874784 0 0 0 0
63046500 0.343746464 0.432451264 -0.904274112 -0.030581096 0 0 0 0
72046000 0.551491072 0.208658272 -0.81054272 0.393133856 0 0 0 0
81045500 0.629425408 -0.114519504 -0.460251456 0.7154624 0 0 0 0
90045000 0.523690944 -0.474235136 -0.00252474 0.720232512 0 0 0 0
99044500 0.183143296 -0.768067136 0.268708928 0.476298112 0 0 0 0
108044000 -0.38819264 -0.786082944 0.307250784 0.220382304 0 0 0 0
117043500 -0.880953408 -0.23059744 0.20567688 0.070717896 0 0 0 0
126043000 -0.572168256 0.570602432 0.0752032 0.099247608 0 0 0 0
135042500 0.222332016 0.60096416 0.146664224 0.243009936 0 0 0 0
144042000 0.563947776 0.059884564 0.341866912 0.177089952 0 0 0 0
153041500 0.3937976 -0.441481024 0.411097504 -0.000969719 0 0 0 0
162041000 -0.036536256 -0.647849024 0.385851488 -0.175014224 0 0 0 0
171040500 -0.473052992 -0.504465472 0.285495264 -0.326541024 0 0 0 0
180040000 -0.691718272 -0.110336768 0.115651528 -0.415568352 0 0 0 0
189039500 -0.59984704 0.312788512 -0.070599592 -0.403708576 0 0 0 0
198039000 -0.28750448 0.562859392 -0.210297424 -0.312163776 0 0 0 0
207038500 0.073045752 0.584248448 -0.284264032 -0.189240048 0 0 0 0
216038000 0.358609216 0.429847136 -0.301793376 -0.066162504 0 0 0 0
225037500 0.518253856 0.181155328 -0.2730648 0.0410275 0 0 0 0
234037000 0.54250464 -0.091221632 -0.210287824 0.115638144 0 0 0 0
243036500 0.445299648 -0.334210592 -0.138985776 0.145300448 0 0 0 0
252036000 0.255852976 -0.50381808 -0.086455144 0.141630928 0 0 0 0
261035500 0.013948683 -0.563494976 -0.060795616 0.132716792 0 0 0 0
270035000 -0.225234416 -0.493549312 -0.049600964 0.1357572 0 0 0 0
279034500 -0.392823616 -0.304914688 -0.036223376 0.154736032 0 0 0 0
288034000 -0.427671552 -0.05997872 -0.006230849 0.185450848 0 0 0 0
297033500 -0.315921344 0.143183776 0.051121908 0.201302768 0 0 0 0
306033000 -0.125597504 0.242101232 0.134159312 0.204226848 0 0 0 0
315032500 0.064048856 0.218430064 0.227336976 0.160750976 0 0 0 0
324032000 0.19126888 0.108604304 0.300585792 0.074371776 0 0 0 0
333031500 0.235054384 -0.033080478 0.335450336 -0.043507892 0 0 0 0
342031000 0.209679936 -0.161782096 0.325387776 -0.182073808 0 0 0 0
351030500 0.136555408 -0.248624208 0.250326848 -0.324813888 0 0 0 0
360030000 0.045469864 -0.286128 0.098332792 -0.430961792 0 0 0 0
369029500 -0.047142196 -0.282056832 -0.101993744 -0.442488448 0 0 0 0
378029000 -0.13472312 -0.244921696 -0.280991488 -0.352397696 0 0 0 0
387028500 -0.202563072 -0.172511616 -0.386652544 -0.199466112 0 0 0 0
396028000 -0.232476064 -0.074424584 -0.414849088 -0.035190144 0 0 0 0
405027500 -0.204957776 0.029723832 -0.380796 0.11003152 0 0 0 0
414027000 -0.130744216 0.111415984 -0.307015808 0.228957408 0 0 0 0
423026500 -0.024535044 0.151682864 -0.206120368 0.319184608 0 0 0 0
432026000 0.08860964 0.142427408 -0.08032228 0.37473248 0 0 0 0
441025500 0.180855952 0.0937812 0.059810536 0.38203104 0 0 0 0
450025000 0.237996304 0.015061114 0.199341568 0.336049856 0 0 0 0
459024500 0.259588576 -0.078079984 0.311240864 0.236489088 0 0 0 0
468024000 0.243801472 -0.172413744 0.37041936 0.099307176 0 0 0 0
477023500 0.204445904 -0.254565056 0.368103264 -0.051426948 0 0 0 0
486023000 0.14956 -0.313438176 0.305176704 -0.185179104 0 0 0 0
495022500 0.086536248 -0.346955424 0.19559576 -0.269571648 0 0 0 0
504022000 0.019454044 -0.359201696 0.076898648 -0.294396096 0 0 0 0
513021500 -0.049547548 -0.346133344 -0.02225499 -0.276432864 0 0 0 0
522021000 -0.118612312 -0.307607744 -0.096723568 -0.233197408 0 0 0 0
531020500 -0.177288496 -0.24220824 -0.149705856 -0.17735632 0 0 0 0
540020000 -0.217177488 -0.156244208 -0.18556456 -0.117257104 0 0 0 0
549019500 -0.223354944 -0.064069084 -0.206039568 -0.05286242 0 0 0 0
558019000 -0.193505888 0.019355658 -0.209864224 0.011734803 0 0 0 0
567018500 -0.127352984 0.083178208 -0.20040216 0.073088064 0 0 0 0
576018000 -0.033827524 0.11499496 -0.174709664 0.131530432 0 0 0 0
585017500 0.070319056 0.110639936 -0.130960208 0.184037984 0 0 0 0
594017000 0.165860208 0.075169664 -0.06681844 0.221120208 0 0 0 0
603016500 0.242407088 0.021332884 0.01384369 0.229994096 0 0 0 0
612016000 0.283808384 -0.051119332 0.096761112 0.20763208 0 0 0 0
621015500 0.292711232 -0.126415448 0.160040432 0.155291904 0 0 0 0
630015000 0.268445312 -0.196786304 0.197509552 0.087549872 0 0 0 0
639014500 0.224130288 -0.257291728 0.20747536 0.021201336 0 0 0 0
648014000 0.168555808 -0.303784096 0.196213312 -0.036774008 0 0 0 0
657013500 0.106201848 -0.32830304 0.169841536 -0.082768304 0 0 0 0
666013000 0.049504696 -0.339759936 0.135628624 -0.118325416 0 0 0 0
675012500 -0.005302665 -0.325562976 0.098207296 -0.145844432 0 0 0 0
684012000 -0.042093956 -0.291039296 0.055817988 -0.167907552 0 0 0 0
693011500 -0.06363524 -0.24402968 0.009066556 -0.184021344 0 0 0 0
702011000 -0.073791568 -0.186595344 -0.04557976 -0.193172944 0 0 0 0
711010500 -0.07168824 -0.1317092 -0.107729064 -0.193149312 0 0 0 0
720010000 -0.06050972 -0.085369952 -0.178380064 -0.172168368 0 0 0 0
729009500 -0.038626188 -0.050894696 -0.254299104 -0.118129504 0 0 0 0
738009000 -0.010363189 -0.023401154 -0.317892768 -0.016496122 0 0 0 0
747008500 0.033521704 -0.008421969 -0.32988832 0.126507208 0 0 0 0
756008000 0.09329848 -0.012201742 -0.258454832 0.273063424 0 0 0 0
765007500 0.150239456 -0.03757926 -0.120730976 0.362399744 0 0 0 0
774007000 0.205847152 -0.081297128 0.032193456 0.377857696 0 0 0 0
783006500 0.235586832 -0.129435256 0.162936416 0.334271616 0 0 0 0
792006000 0.246818144 -0.16657976 0.2614156 0.255541184 0 0 0 0
801005500 0.247137664 -0.194023472 0.327738016 0.156844704 0 0 0 0
810005000 0.22614816 -0.210200288 0.358852992 0.04655154 0 0 0 0
819004500 0.203627936 -0.222087872 0.361254112 -0.07163684 0 0 0 0
828004000 0.180058896 -0.234880512 0.329546976 -0.189591536 0 0 0 0
837003500 0.161616256 -0.252317968 0.259806064 -0.306829664 0 0 0 0
846003000 0.147775152 -0.279816608 0.137173744 -0.406689472 0 0 0 0
855002500 0.12482408 -0.315067104 -0.04274492 -0.45938368 0 0 0 0
864002000 0.076753496 -0.34205376 -0.2527672 -0.413842816 0 0 0 0
873001500 -3.314e-05 -0.354666816 -0.441775456 -0.191179904 0 0 0 0
882001000 -0.055755968 -0.279389952 -0.453247424 0.035827816 0 0 0 0
891000500 -0.054819552 -0.192302448 -0.357773024 0.202768336 0 0 0 0
900000000 -0.021852692 -0.127482128 -0.230905104 0.292258784 0 0 0 0
