# HZ S RI R 50
30000 1.0185806222858462 -0.002741085205573834 4.5338e-05 -7.6904e-05 0 0 0 0
15029700 0.9154927830494073 -0.46761601033620376 -8.3608e-05 -3.7471e-05 0 0 0 0
30029400 0.6237919443759895 -0.8673133870588888 0.00074615 0.000515507 0 0 0 0
45029100 0.15405508585101607 -1.1193638590074992 0.000806228 -0.001136787 0 0 0 0
60028800 -0.43018467186474807 -1.122465535534837 -0.000401675 -0.002201222 0 0 0 0
75028500 -0.9807735262218633 -0.7903789380236669 -0.005115139 -0.001971668 0 0 0 0
90028200 -1.2564186191417759 -0.15922605964004724 -0.004826994 0.011261518 0 0 0 0
105027900 -1.1235395866305216 0.4803910709139766 0.018470058 -0.000525416 0 0 0 0
120027600 -0.6874192323158168 0.9626757518144962 -0.002943233 -0.01525045 0 0 0 0
135027300 -0.07795911187014407 1.1119134442359357 -0.012249756 0.000750833 0 0 0 0
150027000 0.46704218148965354 0.929835446365059 -0.000652764 0.011626474 0 0 0 0
165026700 0.8163029708725039 0.5564369128654574 0.010238034 0.001505386 0 0 0 0
180026400 0.9588513105533846 0.11115364645423217 0.001568381 -0.00926088 0 0 0 0
195026100 0.9139049218438766 -0.3349264636285116 -0.007477303 -0.003351935 0 0 0 0
210025800 0.694773961969003 -0.7196000356460887 -0.006698483 0.006387287 0 0 0 0
225025500 0.32474317654842905 -0.9909031859902866 0.005166457 0.010189722 0 0 0 0
240025200 -0.1541691304435664 -1.078923795488868 0.012808027 -0.002375051 0 0 0 0
255024900 -0.6390547773788481 -0.917099265988726 0.002594206 -0.015612165 0 0 0 0
270024600 -0.9995078706222569 -0.5375758765354356 -0.01790805 -0.007484943 0 0 0 0
285024300 -1.1518725339794924 0.027967728938024083 -0.012621928 0.01751594 0 0 0 0
300024000 -0.9367691049271579 0.6481154798582283 0.014351698 0.0181409 0 0 0 0
315023700 -0.39042071270430345 1.0075418330917292 0.02265602 -0.011197452 0 0 0 0
330023400 0.23219744069280351 0.9723650381051063 -0.010161823 -0.022497604 0 0 0 0
345023100 0.6759212475820826 0.662552777455107 -0.01993942 0.005320787 0 0 0 0
360022800 0.8927327686883945 0.2437835365832167 0.000552377 0.015655036 0 0 0 0
375022500 0.9197859820978609 -0.17867052476335693 0.012187201 0.003288461 0 0 0 0
390022200 0.7946740652974783 -0.5590692897638382 0.00708974 -0.008328098 0 0 0 0
405021900 0.5100196806339012 -0.8726959480868706 -0.004967624 -0.008369145 0 0 0 0
420021600 0.11529882291173228 -1.0783288251478191 -0.006599848 0.000938089 0 0 0 0
435021300 -0.35506443832358614 -1.0657278772476624 -0.00203499 0.003861023 0 0 0 0
450021000 -0.8228209622817532 -0.7739087167603964 0.001970815 0.00271421 0 0 0 0
465020700 -1.0860492833931439 -0.19446451892029132 0.001443022 -9.4785e-05 0 0 0 0
480020400 -0.9648351461900623 0.44352837132431316 -0.000290416 -0.000544064 0 0 0 0
495020100 -0.5194830045677906 0.8697420858956371 0.001935046 0.00015972 0 0 0 0
510019800 0.05089459879177347 0.9431791376958308 0.000180864 -0.003587243 0 0 0 0
525019500 0.5297974861874011 0.7137676271051503 -0.002136434 -0.001178225 0 0 0 0
540019200 0.8068350191861023 0.3192391952409587 -0.001832865 0.002381646 0 0 0 0
555018900 0.8881768721921971 -0.0876267299434883 0.000442869 0.001985773 0 0 0 0
570018600 0.7986290805824167 -0.44867837429484175 0.001395091 0.001664453 0 0 0 0
585018300 0.5783924093685522 -0.7286394427084542 0.001552324 0.000849851 0 0 0 0
600018000 0.27250515414453275 -0.9556905525661977 0.002572783 -0.00096213 0 0 0 0
615017700 -0.12362369614584581 -1.0482773392858322 0.002250411 -0.002420053 0 0 0 0
630017400 -0.580808356758005 -0.9429776532106151 -0.000817073 -0.004206102 0 0 0 0
645017100 -0.978651313589176 -0.5357479806975389 -0.005898102 -0.001049734 0 0 0 0
660016800 -1.0112072032251114 0.13929692386369455 -0.003724187 0.007957097 0 0 0 0
675016500 -0.5577430331754495 0.7200250868915001 0.011032362 0.006729606 0 0 0 0
690016200 0.09199285896972217 0.8267861787929788 0.007182292 -0.010847966 0 0 0 0
705015900 0.5425762000051456 0.5597018815511211 -0.009239854 -0.005796948 0 0 0 0
720015600 0.7495303675324902 0.17643567229587193 -0.007649388 0.006195372 0 0 0 0
735015300 0.7939328399613781 -0.1825469015432131 0.001537769 0.007570008 0 0 0 0
750015000 0.7276899440078586 -0.5097673887690259 0.006272618 0.00141273 0 0 0 0
765014700 0.566938468591536 -0.7870834235737132 0.004170073 -0.007041122 0 0 0 0
780014400 0.35039382240018796 -0.9143471295900144 -0.003267625 -0.005600778 0 0 0 0
795014100 -0.007773829631842364 -1.0234893973548445 -0.005760399 -0.000697919 0 0 0 0
810013800 -0.4360974043221085 -0.9068263294057258 -0.003987795 0.004727403 0 0 0 0
825013500 -0.8552343173094242 -0.5189126015216267 0.001764774 0.006041639 0 0 0 0
840013200 -0.9050077853830907 0.1456426398164421 0.007214841 0.000747774 0 0 0 0
855012900 -0.4229397079186852 0.6850798423492103 0.002227523 -0.008045797 0 0 0 0
870012600 0.22725437602565782 0.7489755486579728 -0.006344394 -0.002397909 0 0 0 0
885012300 0.5828012205193714 0.3962499683346176 -0.000544358 0.002687575 0 0 0 0
900012000 0.7009107347216513 -0.01956455025026491 -0.001357909 0.000506429 0 0 0 0
915011700 0.6326583468687776 -0.34176254842836484 -0.000729274 -0.000569364 0 0 0 0
930011400 0.4864565203446421 -0.5688149059730793 -0.002161282 0.001965986 0 0 0 0
945011100 0.24333080370286525 -0.7389095550853111 0.002697705 0.004829647 0 0 0 0
960010800 0.034956088671781654 -0.7971690340692059 0.008210188 -0.000407729 0 0 0 0
975010500 -0.17047766857718272 -0.711725024540496 -0.001898927 -0.008435268 0 0 0 0
990010200 -0.2722122688969701 -0.5021838883734998 -0.008445662 0.001014076 0 0 0 0
1005009900 -0.22392888848674788 -0.24721933803435897 0.000131393 0.010839969 0 0 0 0
1020009600 -0.07705429840547319 -0.06808259746813103 0.007154293 -0.000898154 0 0 0 0
1035009300 0.11307657459257253 -0.010829433349070286 0.0024566 -0.005888193 0 0 0 0
1050009000 0.24480426200010388 -0.0577211757068874 -0.005303812 -0.004845001 0 0 0 0
1065008700 0.30739526607530643 -0.12357218142833468 -0.005912926 0.011003634 0 0 0 0
1080008400 0.2953179570252856 -0.20173493782788968 0.002231556 0.002454348 0 0 0 0
1095008100 0.25432238830080856 -0.2713424237037877 0.002817589 -0.002436292 0 0 0 0
1110007800 0.1886494380855209 -0.3291488161874858 -0.00094954 -0.005831122 0 0 0 0
1125007500 0.1604504160445041 -0.3750694257609312 -0.007089309 -0.005413847 0 0 0 0
1140007200 0.19250544619543786 -0.3481137032076148 -0.008369835 0.000611207 0 0 0 0
1155006900 0.19087545989994126 -0.25261515331269263 0.003220897 0.004828663 0 0 0 0
1170006600 0.1719267090836394 -0.1772193648767929 0.003421078 -0.007234429 0 0 0 0
1185006300 0.17099148427958744 -0.13437503672486273 -0.005944214 -0.007261099 0 0 0 0
1200006000 0.11163138441843992 -0.19180019316391292 -0.010440475 0.001744948 0 0 0 0
1215005700 0.07660188084575321 -0.2468361533029156 -0.004071917 0.007941943 0 0 0 0
1230005400 0.121294125708904 -0.26840923556523744 0.006721299 -0.000846714 0 0 0 0
1245005100 0.1655054765789628 -0.3691375852618571 0.0005478 -0.000179036 0 0 0 0
1260004800 0.22404049109727245 -0.3564795343190996 -0.002035065 -0.004819476 0 0 0 0
1275004500 0.3126641473325823 -0.34411160386724093 -0.000199297 -0.007048484 0 0 0 0
1290004200 0.3794770510474819 -0.29108176420812737 -0.003543174 -0.006915139 0 0 0 0
1305003900 0.38680034650998585 -0.23784205991036253 -0.002206458 -0.002049795 0 0 0 0
1320003600 0.38270873430149827 -0.13415018212895108 -0.006326501 -0.00550421 0 0 0 0
1335003300 0.3515107402274169 -0.13302644717487078 0.008456599 -0.002710421 0 0 0 0
1350003000 0.3512486517465348 -0.17304899700194246 0.011722651 -0.00959386 0 0 0 0
1365002700 0.3916604231905938 -0.2343875714433704 0.003322148 -0.009520675 0 0 0 0
1380002400 0.49452424809141377 -0.29666330947176095 -0.002075891 -0.00714386 0 0 0 0
1395002100 0.48978523446487654 -0.259732709138354 -0.006655409 -0.000631157 0 0 0 0
1410001800 0.48570665473086655 -0.12820943158492662 -0.000195946 -0.001341447 0 0 0 0
1425001500 0.3244294599804313 -0.05561978379220384 0.001186957 0.001393609 0 0 0 0
1440001200 -0.0003769297876322299 0.020618850817146282 -0.006716586 -0.00753469 0 0 0 0
1455000900 -0.0773005666038242 -0.2734813278522957 -0.003110682 -0.010873521 0 0 0 0
1470000600 -0.0580156630163286 -0.2856651797640812 0.016780584 0.002775756 0 0 0 0
1485000300 0.10112705789807176 -0.2709806458613373 -0.001600381 0.001092035 0 0 0 0
1500000000 0.2195383973052527 -0.3132223889769587 0.003536754 -0.015364668 0 0 0 0
