# HZ S RI R 50
30000 0.996658048 -0.00304943 -0.0001003 -3.87e-05 0 0 0 0
15029700 0.455041984 -0.832657792 2.622e-05 -0.00011869 0 0 0 0
30029400 -0.436797696 -0.781366784 0.000772439 0.000169631 0 0 0 0
45029100 -0.827021184 -0.083405456 0.0008784 -0.001235856 0 0 0 0
60028800 -0.50924976 0.577146432 -0.0004088 -0.002274217 0 0 0 0
75028500 0.183415088 0.69153472 -0.004883153 -0.002049482 0 0 0 0
90028200 0.652230848 0.17986312 -0.00509398 0.010995862 0 0 0 0
105027900 0.480585152 -0.469052832 0.018444108 -0.00039702 0 0 0 0
120027600 -0.172566272 -0.704184896 -0.002737397 -0.015591188 0 0 0 0
135027300 -0.747683136 -0.244974144 -0.012421433 0.00091553 0 0 0 0
150027000 -0.649481344 0.535276128 -0.000758888 0.011207734 0 0 0 0
165026700 0.123004216 0.866341568 0.010025559 0.001616131 0 0 0 0
180026400 0.81713824 0.329759936 0.00173459 -0.008876307 0 0 0 0
195026100 0.682488576 -0.527011584 -0.007034969 -0.003146757 0 0 0 0
210025800 -0.057514592 -0.818427456 -0.006286481 0.005666286 0 0 0 0
225025500 -0.646370752 -0.41882752 0.003826128 0.010213774 0 0 0 0
240025200 -0.681847808 0.22398896 0.013565212 -0.000944817 0 0 0 0
255024900 -0.224235376 0.617675264 0.003448369 -0.01673966 0 0 0 0
270024600 0.346018912 0.49691456 -0.019507202 -0.0083432 0 0 0 0
285024300 0.588349376 -0.051081904 -0.012851174 0.018871718 0 0 0 0
300024000 0.24057136 -0.581491904 0.017805736 0.018362246 0 0 0 0
315023700 -0.456190048 -0.529129024 0.022388714 -0.012794865 0 0 0 0
330023400 -0.752934592 0.165680032 -0.010122957 -0.023854678 0 0 0 0
345023100 -0.243374928 0.780372288 -0.021322688 0.006230672 0 0 0 0
360022800 0.554624256 0.618847488 0.001800755 0.015891955 0 0 0 0
375022500 0.805931392 -0.131125912 0.012615259 0.003285355 0 0 0 0
390022200 0.345129856 -0.705090176 0.006725621 -0.008989646 0 0 0 0
405021900 -0.328817088 -0.670043968 -0.005176448 -0.00752571 0 0 0 0
420021600 -0.696704384 -0.167307696 -0.006043678 0.001393835 0 0 0 0
435021300 -0.538818368 0.391292224 -0.001476865 0.003652699 0 0 0 0
450021000 0.003621081 0.59391776 0.000509886 0.001721281 0 0 0 0
465020700 0.4804328 0.240147792 0.001111408 0.000773378 0 0 0 0
480020400 0.39874592 -0.36983648 0.001071481 0.000865319 0 0 0 0
495020100 -0.20269016 -0.573991168 0.002479358 -0.001208705 0 0 0 0
510019800 -0.679007296 -0.10111552 -0.000763828 -0.002180372 0 0 0 0
525019500 -0.466339808 0.576748416 -0.00170563 -0.000644659 0 0 0 0
540019200 0.252929808 0.726484608 -0.001236501 0.001686559 0 0 0 0
555018900 0.739551744 0.215409872 -2.3263e-05 0.001529032 0 0 0 0
570018600 0.602466112 -0.43253088 0.000454967 0.001306241 0 0 0 0
585018300 0.04902046 -0.696977664 0.001508189 0.001235202 0 0 0 0
600018000 -0.475771328 -0.455344992 0.002535107 -0.000552137 0 0 0 0
615017700 -0.626201408 0.0669207 0.002188164 -0.002904975 0 0 0 0
630017400 -0.305958656 0.503678848 -0.000696731 -0.004132191 0 0 0 0
645017100 0.259420064 0.470548704 -0.005658902 -0.000551208 0 0 0 0
660016800 0.48580784 -0.095776512 -0.003279759 0.00804099 0 0 0 0
675016500 -0.017808476 -0.542871168 0.011383268 0.007073609 0 0 0 0
690016200 -0.614691328 -0.201966096 0.007111099 -0.011253335 0 0 0 0
705015900 -0.529154496 0.457576 -0.009912778 -0.005954235 0 0 0 0
720015600 0.053710752 0.704537344 -0.006973493 0.006526303 0 0 0 0
735015300 0.56299712 0.39221664 0.001662117 0.008609736 0 0 0 0
750015000 0.639719872 -0.167863808 0.006535371 0.001642825 0 0 0 0
765014700 0.278627104 -0.569740864 0.005757624 -0.004374955 0 0 0 0
780014400 -0.237061536 -0.556599552 -0.00296398 -0.005347969 0 0 0 0
795014100 -0.524903904 -0.163533696 -0.005895945 -0.000423508 0 0 0 0
810013800 -0.379239264 0.304665152 -0.003593193 0.004104611 0 0 0 0
825013500 0.12569644 0.421439456 0.001521076 0.005763545 0 0 0 0
840013200 0.440631968 -0.057112852 0.006650004 0.001082132 0 0 0 0
855012900 0.00517402 -0.53509856 0.001565748 -0.007893407 0 0 0 0
870012600 -0.589499136 -0.301750176 -0.005059582 -0.001402517 0 0 0 0
885012300 -0.574125312 0.326469152 -0.001796095 0.002490671 0 0 0 0
900012000 -0.077984312 0.624601536 -0.001071104 -5.7042e-05 0 0 0 0
915011700 0.39696128 0.407856512 -0.001338176 -0.000223832 0 0 0 0
930011400 0.478108192 -0.075626688 -0.002207843 0.002337004 0 0 0 0
945011100 0.176138192 -0.37436416 0.002332746 0.003942872 0 0 0 0
960010800 -0.176000864 -0.328522496 0.008507213 0.000443613 0 0 0 0
975010500 -0.30229744 -0.067576504 0.000391181 -0.008199559 0 0 0 0
990010200 -0.153363984 0.110865456 -0.010595652 -0.000477537 0 0 0 0
1005009900 0.00377573 0.027643818 -0.002029558 0.009368825 0 0 0 0
1020009600 -0.041844576 -0.136199968 0.007268758 0.003830767 0 0 0 0
1035009300 -0.2247748 -0.135588992 0.001056385 -0.004803514 0 0 0 0
1050009000 -0.313485728 0.037403176 -0.006263892 -0.005824111 0 0 0 0
1065008700 -0.230553328 0.202655472 -0.005548493 0.003136531 0 0 0 0
1080008400 -0.073679848 0.251374368 0.004616306 0.003013679 0 0 0 0
1095008100 0.068139848 0.179290656 0.00406012 -0.002361285 0 0 0 0
1110007800 0.101945448 0.036029228 0.000512946 -0.006425886 0 0 0 0
1125007500 0.096211624 -0.055963932 -0.006819923 -0.004702351 0 0 0 0
1140007200 0.078063768 -0.11109724 -0.009574187 0.002501509 0 0 0 0
1155006900 0.040131384 -0.17516264 0.006334291 0.005954634 0 0 0 0
1170006600 -0.011866601 -0.1931 0.005525694 -0.01036432 0 0 0 0
1185006300 -0.059011712 -0.185555024 -0.009741419 -0.009500158 0 0 0 0
1200006000 -0.131604824 -0.141874352 -0.008879882 -0.001384371 0 0 0 0
1215005700 -0.159269648 -0.087172816 -0.004429364 0.002176036 0 0 0 0
1230005400 -0.150268496 -0.030247698 0.001207363 -0.003171062 0 0 0 0
1245005100 -0.129969104 0.019329026 -0.001728111 -0.006396451 0 0 0 0
1260004800 -0.077099688 0.021015094 0.000153601 -0.002943146 0 0 0 0
1275004500 -0.01731766 0.033511158 0.003328257 -0.004704405 0 0 0 0
1290004200 0.042223488 0.004273467 0.001496862 -0.004756954 0 0 0 0
1305003900 0.084774632 -0.05308508 0.00480844 -0.005038945 0 0 0 0
1320003600 0.116639648 -0.1284046 0.000622703 -0.002889175 0 0 0 0
1335003300 0.090380952 -0.208688384 0.001997148 0.001966555 0 0 0 0
1350003000 -0.003373604 -0.285854592 0.006860555 -0.004464692 0 0 0 0
1365002700 -0.114424752 -0.30759968 -0.001463387 -0.013549917 0 0 0 0
1380002400 -0.22976808 -0.264839888 -0.003101825 -0.007602742 0 0 0 0
1395002100 -0.305909888 -0.213639424 -0.003136553 0.003655597 0 0 0 0
1410001800 -0.281588032 -0.195987568 -0.001014488 -0.000253124 0 0 0 0
1425001500 -0.3191808 -0.17795088 -0.003001368 -0.000848353 0 0 0 0
1440001200 -0.351592128 -0.211681312 -0.000165241 -0.006614256 0 0 0 0
1455000900 -0.277216896 -0.157945776 -0.010961446 -0.011106303 0 0 0 0
1470000600 -0.20685208 -0.118647408 -0.005519496 0.005034418 0 0 0 0
1485000300 -0.171641616 -0.113784848 0.005039153 -0.009028253 0 0 0 0
1500000000 -0.092556936 -0.123554832 -0.008015175 0.007564116 0 0 0 0
