# HZ S RI R 50
30000 0.060349076 -0.02469545 -9.3961e-05 -8.1639e-05 0 0 0 0
15029700 0.044765732 -0.03711756 -1.9421e-05 -4.5913e-05 0 0 0 0
30029400 0.01883491 -0.06480708 -6.07e-05 0.000214943 0 0 0 0
45029100 -0.017355126 -0.076427248 -2.2257e-05 -2.2972e-05 0 0 0 0
60028800 -0.0549239 -0.069795656 2.5585e-05 9.696e-05 0 0 0 0
75028500 -0.084897744 -0.045490884 4.1903e-05 -0.000106624 0 0 0 0
90028200 -0.099312072 -0.009752456 5.8262e-05 -5.661e-05 0 0 0 0
105027900 -0.095124864 0.02874105 -0.000132238 -6.2063e-05 0 0 0 0
120027600 -0.072950576 0.0609587 5.579e-06 1.3341e-05 0 0 0 0
135027300 -0.038089356 0.0781822 6.1897e-05 6.8356e-05 0 0 0 0
150027000 0.001171005 0.076713216 -4.9555e-05 -6.6186e-05 0 0 0 0
165026700 0.035162824 0.056317532 -5.1178e-05 4.9364e-05 0 0 0 0
180026400 0.054981744 0.022001062 -9.8705e-05 -3.493e-06 0 0 0 0
195026100 0.05605506 -0.018195054 -3.2054e-05 6.3822e-05 0 0 0 0
210025800 0.03717866 -0.054168492 -7.5771e-05 4.583e-06 0 0 0 0
225025500 0.002987612 -0.076838072 -4.9291e-05 6.4007e-05 0 0 0 0
240025200 -0.038520384 -0.080315152 -0.000150707 8.342e-05 0 0 0 0
255024900 -0.076919016 -0.063247084 -7.9879e-05 7.3734e-05 0 0 0 0
270024600 -0.10368292 -0.028896498 -6.8458e-05 0.000112713 0 0 0 0
285024300 -0.111096032 0.014679534 -0.000123424 0.00019963 0 0 0 0
300024000 -0.097320576 0.054964836 -0.000171577 0.000156142 0 0 0 0
315023700 -0.065005408 0.086125816 0.00047559 3.1214e-05 0 0 0 0
330023400 -0.021334102 0.098302832 0.000328365 8.1414e-05 0 0 0 0
345023100 0.023848214 0.088765328 -0.000150105 -0.000145639 0 0 0 0
360022800 0.059821836 0.058817832 5.4325e-05 0.000138452 0 0 0 0
375022500 0.076936008 0.014765036 2.1985e-05 -2.1578e-05 0 0 0 0
390022200 0.071422096 -0.033446756 0.000194687 -9.11e-05 0 0 0 0
405021900 0.04405112 -0.074228864 0.000250594 -0.000713286 0 0 0 0
420021600 -0.000258028 -0.095975992 -0.000110755 -0.000263229 0 0 0 0
435021300 -0.050554884 -0.09484784 9.6308e-05 -3.6116e-05 0 0 0 0
450021000 -0.094780344 -0.069926 -0.000200045 -0.000339287 0 0 0 0
465020700 -0.123545064 -0.0264225 -0.000383228 6.338e-05 0 0 0 0
480020400 -0.128884424 0.024801702 0.00015661 -4.5637e-05 0 0 0 0
495020100 -0.108847904 0.074054456 -0.000676848 0.000490659 0 0 0 0
510019800 -0.068853408 0.108671576 0.000123116 0.000213116 0 0 0 0
525019500 -0.016060317 0.121951912 -4.2829e-05 0.000208131 0 0 0 0
540019200 0.038168608 0.108984032 0.000151867 0.000306787 0 0 0 0
555018900 0.079146568 0.07245924 0.000429675 0.00047697 0 0 0 0
570018600 0.100141816 0.019554646 0.000617855 0.000176289 0 0 0 0
585018300 0.092807096 -0.038094832 0.000516197 -7.1565e-05 0 0 0 0
600018000 0.059095448 -0.082594584 0.000776052 0.000488315 0 0 0 0
615017700 0.007833367 -0.111039952 0.000602207 7.9628e-05 0 0 0 0
630017400 -0.051780808 -0.111036632 0.000270359 -0.000189131 0 0 0 0
645017100 -0.105376056 -0.083112344 0.000240383 0.000227708 0 0 0 0
660016800 -0.141900224 -0.033240468 0.00033403 0.000356306 0 0 0 0
675016500 -0.150442992 0.028744188 0.000208493 0.00029345 0 0 0 0
690016200 -0.129559352 0.088923936 0.000339034 0.000280117 0 0 0 0
705015900 -0.083529104 0.13356264 -0.000240531 0.000325144 0 0 0 0
720015600 -0.021114952 0.151996784 -0.000214682 0.000402932 0 0 0 0
735015300 0.045024036 0.141174832 -0.000388263 0.000135241 0 0 0 0
750015000 0.0983512 0.100245648 -8.0549e-05 0.000171455 0 0 0 0
765014700 0.127498808 0.038074632 -0.000272235 0.000524423 0 0 0 0
780014400 0.131341352 -0.036590088 -0.000658141 0.000642645 0 0 0 0
795014100 0.090130728 -0.09310664 3.0568e-05 0.00097066 0 0 0 0
810013800 0.030395626 -0.134928912 0.000174889 0.000373667 0 0 0 0
825013500 -0.041969992 -0.144517648 -0.000694665 0.000408129 0 0 0 0
840013200 -0.111162304 -0.121964576 0.000399245 0.000804547 0 0 0 0
855012900 -0.162533424 -0.066720492 -0.000408186 0.000164897 0 0 0 0
870012600 -0.1928144 0.006554539 -0.001623429 -0.000371709 0 0 0 0
885012300 -0.174878016 0.08405048 -5.7618e-05 -0.00030862 0 0 0 0
900012000 -0.126167488 0.148108704 -0.000291893 -0.000647184 0 0 0 0
915011700 -0.048067304 0.182669456 -0.001079147 -0.00055821 0 0 0 0
930011400 0.036123352 0.167322928 -0.001323488 0.00018479 0 0 0 0
945011100 0.106646232 0.116820608 0.00075394 1.0971e-05 0 0 0 0
960010800 0.138405664 0.039826556 0.001236024 0.000109995 0 0 0 0
975010500 0.133390216 -0.046494984 0.000710848 -0.001383008 0 0 0 0
990010200 0.08746156 -0.129454432 -1.7865e-05 0.000516437 0 0 0 0
1005009900 0.013055742 -0.177814416 -0.00027602 -0.000277034 0 0 0 0
1020009600 -0.076572752 -0.187851616 0.000384728 -0.000895413 0 0 0 0
1035009300 -0.157365856 -0.156733792 -0.002243162 -0.000485246 0 0 0 0
1050009000 -0.210875392 -0.091515776 -0.001657241 -0.000915401 0 0 0 0
1065008700 -0.229795536 -0.01138748 0.000345911 -9.2241e-05 0 0 0 0
1080008400 -0.206330208 0.067358816 -0.000950928 -0.001901516 0 0 0 0
1095008100 -0.148621552 0.12342124 -0.001981074 -0.001106143 0 0 0 0
1110007800 -0.071591464 0.149973184 -0.000478438 -1.5656e-05 0 0 0 0
1125007500 0.014559329 0.129969624 -0.002299815 -0.00106624 0 0 0 0
1140007200 0.082016248 0.069338296 -0.001771037 -0.001690689 0 0 0 0
1155006900 0.111587064 -0.013462395 -0.002164507 -0.001094325 0 0 0 0
1170006600 0.109139416 -0.106677008 -0.001722143 -0.000822793 0 0 0 0
1185006300 0.050362876 -0.1853584 -0.000865365 -0.00213496 0 0 0 0
1200006000 -0.031629588 -0.236407504 -0.000370313 -0.001549246 0 0 0 0
1215005700 -0.12754676 -0.243028048 -0.001337137 -0.000951701 0 0 0 0
1230005400 -0.212527632 -0.207067712 -0.001735784 -0.001074932 0 0 0 0
1245005100 -0.265252 -0.13957456 -0.000992273 -0.003459362 0 0 0 0
1260004800 -0.290535808 -0.056376396 -0.003742726 -0.003290984 0 0 0 0
1275004500 -0.25834608 0.022676344 -0.002146603 -0.004237634 0 0 0 0
1290004200 -0.193597632 0.076885464 -0.00294981 -0.004322616 0 0 0 0
1305003900 -0.112521168 0.095062016 -7.0376e-05 -0.005246158 0 0 0 0
1320003600 -0.01330484 0.066799188 -3.7785e-05 -0.003362584 0 0 0 0
1335003300 0.061449176 0.005458693 -0.004281999 -0.004032148 0 0 0 0
1350003000 0.105077752 -0.097656168 -0.001903084 -0.003844214 0 0 0 0
1365002700 0.092701024 -0.217530496 0.002295048 -0.00776654 0 0 0 0
1380002400 0.033190034 -0.30640304 0.000291619 -0.000616181 0 0 0 0
1395002100 -0.061334292 -0.361490688 -0.003087456 -0.004247733 0 0 0 0
1410001800 -0.181418016 -0.376128576 0.001681803 -0.005084052 0 0 0 0
1425001500 -0.287543936 -0.327521728 0.005659921 -0.000743666 0 0 0 0
1440001200 -0.339087936 -0.24423448 0.002370067 -0.004440612 0 0 0 0
1455000900 -0.374667008 -0.106900624 -0.002273096 -0.006650405 0 0 0 0
1470000600 -0.340402752 -0.030655924 -0.005247242 -0.005409635 0 0 0 0
1485000300 -0.239448496 0.07906916 0.001069439 -0.00840265 0 0 0 0
1500000000 -0.123063384 0.098321712 0.00528515 -0.005936618 0 0 0 0
