# HZ S RI R 50
30000 0.0020081988582167187 0.0005061477198173355 -8.961e-05 0.000177575 0 0 0 0
15029700 -1.5584090937185434e-06 -0.00012674572905360825 6.5899e-05 -1.6571e-05 0 0 0 0
30029400 -5.3433597743738426e-05 6.727277893893186e-05 8.3854e-05 -4.8533e-05 0 0 0 0
45029100 -0.00023180751697766497 -0.0001001181555890788 2.603e-06 -0.000146077 0 0 0 0
60028800 -0.00028100317000631864 -4.072883565053242e-05 0.000196053 0.00013895 0 0 0 0
75028500 0.00010416349418395149 0.00021069241921344793 3.4713e-05 3.8229e-05 0 0 0 0
90028200 -0.00033698301508793395 -0.00011912363265831993 6.6964e-05 -9.3086e-05 0 0 0 0
105027900 0.0002129483837870333 9.061758900576907e-05 -3.9383e-05 -6.7736e-05 0 0 0 0
120027600 -4.6636343435549685e-05 -3.161221861499577e-05 -2.0473e-05 -4.0862e-05 0 0 0 0
135027300 -0.00010418627704617128 7.7166227507075e-05 5.2355e-05 2.9847e-05 0 0 0 0
150027000 6.064673612729878e-05 9.50483117915942e-05 -4.265e-06 -5.5492e-05 0 0 0 0
165026700 -5.2845536697037784e-05 -0.00018096742778949182 6.4018e-05 1.0923e-05 0 0 0 0
180026400 6.210212699249311e-05 -0.00013879493538814633 -2.5365e-05 -8.3826e-05 0 0 0 0
195026100 4.190522445861886e-05 -5.978292465818048e-05 -7.7394e-05 6.819e-05 0 0 0 0
210025800 -5.242154246160181e-05 2.6104929896081587e-05 -0.000160293 1.9221e-05 0 0 0 0
225025500 -5.12853222893285e-06 8.686397480081373e-05 -0.000175635 1.8598e-05 0 0 0 0
240025200 -6.462018988490401e-05 8.015521301231607e-05 -8.5846e-05 0.000214945 0 0 0 0
255024900 -0.00017961270883205046 0.0002659921817805983 -1.8406e-05 0.000175282 0 0 0 0
270024600 -1.7032252088353426e-05 -0.00016883744490491355 -5.2516e-05 0.000126334 0 0 0 0
285024300 -0.00014410054002562007 0.00014354307176074108 -0.000115339 0.000149089 0 0 0 0
300024000 0.0006579360321050879 0.0006947260236455607 0.000286236 0.000375296 0 0 0 0
315023700 0.00015847040782160943 -0.0005180723001732018 8.2487e-05 -0.000143387 0 0 0 0
330023400 0.00014801283297727593 0.00045904004127410053 0.000329231 -0.000326351 0 0 0 0
345023100 -0.00011676930504395222 -0.0002269338748553747 -3.4881e-05 -0.000382959 0 0 0 0
360022800 -0.0001867401839585593 0.00025760158908926596 6.4706e-05 3.7707e-05 0 0 0 0
375022500 0.000343073139938112 -0.0007363268562120978 0.000258525 -0.000480177 0 0 0 0
390022200 0.0002812957517741702 -0.00030875374029985613 0.000356641 -0.000296588 0 0 0 0
405021900 -0.000899225587688382 -0.0002760968131412312 0.000272129 -8.9526e-05 0 0 0 0
420021600 -0.0005141323938536689 -0.00031325078389619806 -0.000138319 -0.000401762 0 0 0 0
435021300 -0.00044708564388938734 -0.0006026020346882111 6.224e-05 -6.1713e-05 0 0 0 0
450021000 -0.0005945260657196065 -0.001039696033139119 -8.2466e-05 -6.371e-06 0 0 0 0
465020700 0.0010477158205823252 0.0005478555970599922 -0.000155254 -5.7713e-05 0 0 0 0
480020400 0.0005229990679020053 0.00026256235733536663 -0.000279548 -0.00034675 0 0 0 0
495020100 -7.772430171272043e-05 0.0003514934280419022 7.502e-06 6.8859e-05 0 0 0 0
510019800 -5.6045552832030225e-05 0.0010907475066676468 1.6175e-05 2.4063e-05 0 0 0 0
525019500 -6.670597853807395e-05 0.0012624053087951928 7.3462e-05 0.000449633 0 0 0 0
540019200 -0.0005664392804823917 0.0011195802697463214 0.00045238 0.000557256 0 0 0 0
555018900 -7.800071678241567e-05 -0.00022783580722873466 0.000168281 0.000255646 0 0 0 0
570018600 0.0011457396615142685 0.00018597372675434716 0.000541041 0.000189892 0 0 0 0
585018300 -0.002250657146862161 0.004142153350396875 0.000226319 0.000385726 0 0 0 0
600018000 -0.0006102984824948208 -0.0006376133024615096 0.00026379 0.000133775 0 0 0 0
615017700 -0.0013263700626032489 -0.000450129657204797 0.000694561 0.000183313 0 0 0 0
630017400 -0.0005196618512049421 -0.0008809231313068143 0.000545247 -7.585e-05 0 0 0 0
645017100 -0.0005328357230044581 -0.00014223744148261913 0.000252578 -0.000131986 0 0 0 0
660016800 -0.0009806669025297894 0.001548232009994692 0.000452534 0.000395346 0 0 0 0
675016500 -0.00035822823547716775 -0.00020091061036537646 0.000417985 0.000146794 0 0 0 0
690016200 -1.304565428849698e-06 -0.000505148320119503 -4.872e-05 -0.00039304 0 0 0 0
705015900 0.0009443554956777336 -0.001094277298656356 0.000140855 -0.000121496 0 0 0 0
720015600 0.001175930670444469 0.000455190843738365 -0.000155426 0.000378309 0 0 0 0
735015300 -0.0005806602937176108 -9.055136685296078e-05 0.000151132 0.000125239 0 0 0 0
750015000 0.0012804244900596069 -0.0007730247013438657 -0.000872496 0.000508133 0 0 0 0
765014700 -0.000549369023155315 0.0002167138469009187 -0.000261166 0.000475965 0 0 0 0
780014400 0.01283441694826904 0.024168380553538874 -0.000468206 0.000128901 0 0 0 0
795014100 0.0022670766820067426 -0.0003669097624059642 -0.000330167 0.000270475 0 0 0 0
810013800 0.0011023374747556325 -0.00021559504882735596 -8.9864e-05 0.000331751 0 0 0 0
825013500 -0.0008570580551950516 0.0001223662050471675 -2.6103e-05 0.000619347 0 0 0 0
840013200 0.0003126566186139222 0.0003552111364154737 -0.000297957 0.000255393 0 0 0 0
855012900 -8.256933240350086e-05 -0.0004101164508203091 0.000422442 0.000992884 0 0 0 0
870012600 0.0008584871271185882 -0.005644342471664769 8.4021e-05 -0.00048198 0 0 0 0
885012300 3.686424469558951e-05 0.003159567356315043 -0.0013189 -0.000539428 0 0 0 0
900012000 -0.0005425817842033917 -0.002809040299792661 -0.001049483 -0.000361915 0 0 0 0
915011700 -0.0032613980854944487 -0.0038712925167833836 -0.00082474 -0.000791968 0 0 0 0
930011400 0.0024405725257044585 0.0020517713003196623 0.001396634 -0.001308296 0 0 0 0
945011100 -0.004008052453602988 0.0030509744123165543 0.000742358 -0.000690118 0 0 0 0
960010800 0.0031050449718885913 -0.0013539053089421762 -0.000820842 -0.000976159 0 0 0 0
975010500 -0.0022845554086284815 -0.002669794140278947 -0.000422604 8.024e-06 0 0 0 0
990010200 -0.002569762890562843 0.00028007192224290044 -0.000598758 0.001038324 0 0 0 0
1005009900 0.0006236081119387469 -0.0009842307965187262 -5.9261e-05 -0.000489763 0 0 0 0
1020009600 0.0002940685828021267 -0.0010146593753887346 -0.000311577 -0.000167094 0 0 0 0
1035009300 -0.0012835715510618685 0.000369175596124352 0.000242444 -0.00070598 0 0 0 0
1050009000 -0.000848328787260893 -0.003317226976632577 -0.001891277 -0.00023687 0 0 0 0
1065008700 -7.342863779482244e-05 0.004758429685095642 0.000230757 -0.002037799 0 0 0 0
1080008400 0.001164094352117665 -0.0037014900307768403 -0.000786686 -0.000801541 0 0 0 0
1095008100 0.002228478670485431 0.002919012587225183 -0.000174902 -0.001669308 0 0 0 0
1110007800 -0.0030912523084843666 -0.0029493631097411164 -0.002364248 -0.000847166 0 0 0 0
1125007500 -0.0025475406519626124 0.0006146045970230016 -0.000984191 -0.001911393 0 0 0 0
1140007200 -0.0014668918016209555 -0.013606046825122122 -0.000431086 -0.001990835 0 0 0 0
1155006900 -0.00250050166744726 0.00098114700233302 -0.001505269 -0.00276125 0 0 0 0
1170006600 -0.0032899693915911365 0.003980725445277807 -0.003623047 -0.001563913 0 0 0 0
1185006300 -0.0062398888933423435 0.0023443492850224587 -0.001350309 -0.001469178 0 0 0 0
1200006000 -0.0013555041202244988 -0.002781640043912718 -0.001735271 -0.001353478 0 0 0 0
1215005700 -0.006001376933421931 8.978836342726989e-05 -0.002134696 -0.002391263 0 0 0 0
1230005400 -0.005999543377315873 -1.74483186959705e-05 -0.002102353 -0.002529261 0 0 0 0
1245005100 7.0559028218858e-05 -0.012572190869972698 -0.004724686 -0.00387986 0 0 0 0
1260004800 0.00633585019830698 0.0033794362185459496 -0.002235075 -0.002483791 0 0 0 0
1275004500 0.008908337586495167 -0.0012229215668354383 -0.001366892 -0.003479947 0 0 0 0
1290004200 -0.0034866800728655186 -0.01407139301769733 0.00050685 -0.005566402 0 0 0 0
1305003900 -0.010670734020485685 -0.013631636968417795 -0.002577835 -0.000641441 0 0 0 0
1320003600 -0.007888546296728695 0.002261662625468476 -0.002808982 -0.000619202 0 0 0 0
1335003300 0.0057277264257707275 0.007951980649219611 -0.002222388 -0.000661079 0 0 0 0
1350003000 0.0024091775577629137 -0.0040024194002820776 -0.000484295 -0.002425091 0 0 0 0
1365002700 0.014478666616670511 -0.0021389413292053692 -0.003176982 -0.0006451 0 0 0 0
1380002400 0.015955044070831977 0.00889907199897699 -0.004158152 -0.006026727 0 0 0 0
1395002100 -0.01983321911427938 0.00674738925703983 0.000514697 -0.004825498 0 0 0 0
1410001800 0.0037440080047162474 0.01981714463539473 -0.000907338 -0.004340379 0 0 0 0
1425001500 0.022024133791704457 0.021722700884290454 -0.00527606 -0.002301893 0 0 0 0
1440001200 -0.01546242440629465 -0.004001077878241091 0.003830377 -0.009756307 0 0 0 0
1455000900 -0.009854370581472862 -0.007203025389965058 -0.005090326 -0.000792758 0 0 0 0
1470000600 -0.03588415465299531 0.002297882644472322 0.003916341 -0.006476107 0 0 0 0
1485000300 -0.010058334245856738 -0.0021693492960622954 -0.001756098 -0.003222121 0 0 0 0
1500000000 -0.04526926678532723 -0.022774071188008112 -0.003678382 0.00648195 0 0 0 0
