# HZ S RI R 50
50000 0.062561296 -0.001285766 4.7498e-05 -6.9527e-05 0 0 0 0
10049500 0.055968956 -0.008587478 7.2628e-05 1.4472e-05 0 0 0 0
20049000 0.05425444 -0.016098151 -9.884e-05 3.5185e-05 0 0 0 0
30048500 0.051607372 -0.023454774 -0.000144203 -1.8752e-05 0 0 0 0
40048000 0.048165692 -0.030571028 -6.8265e-05 -5.763e-06 0 0 0 0
50047500 0.04367024 -0.037216536 0.000189124 2.1594e-05 0 0 0 0
60047000 0.038417824 -0.043233692 1.7933e-05 -0.000183828 0 0 0 0
70046500 0.032404568 -0.048786296 -2.6883e-05 -1.2743e-05 0 0 0 0
80046000 0.025422648 -0.053073852 1.9203e-05 0.00018782 0 0 0 0
90045500 0.018068198 -0.0569161 3.2497e-05 3.0433e-05 0 0 0 0
100045000 0.009968053 -0.05949006 7.0508e-05 -6.3744e-05 0 0 0 0
110044500 0.001607199 -0.061265784 -6.8696e-05 -3.1535e-05 0 0 0 0
120044000 -0.006776281 -0.061775076 3.9468e-05 2.928e-06 0 0 0 0
130043500 -0.015551649 -0.060928912 3.2676e-05 -2.7648e-05 0 0 0 0
140043000 -0.024059448 -0.059504372 1.2231e-05 8.1627e-05 0 0 0 0
150042500 -0.03234476 -0.05658916 -3.1903e-05 8.3439e-05 0 0 0 0
160042000 -0.040329108 -0.05264394 2.1e-07 0.000117187 0 0 0 0
170041500 -0.04761478 -0.047806764 3.1623e-05 8.5946e-05 0 0 0 0
180041000 -0.054536216 -0.04195926 2.8229e-05 3.2431e-05 0 0 0 0
190040500 -0.06065712 -0.035152316 -3.9133e-05 0.000140068 0 0 0 0
200040000 -0.065941268 -0.027446016 4.382e-06 0.000114954 0 0 0 0
210039500 -0.070195872 -0.019068446 1.9278e-05 4.2108e-05 0 0 0 0
220039000 -0.073657152 -0.009929321 -1.0383e-05 0.000157614 0 0 0 0
230038500 -0.075763576 -0.00047025 4.897e-05 9.1758e-05 0 0 0 0
240038000 -0.076919128 0.009171254 0.00010749 0.000112984 0 0 0 0
250037500 -0.076680512 0.018935246 7.9908e-05 3.6465e-05 0 0 0 0
260037000 -0.075195264 0.028599016 6.5423e-05 5.365e-05 0 0 0 0
270036500 -0.072572184 0.038001276 -4.7499e-05 0.000114969 0 0 0 0
280036000 -0.06862896 0.046760512 -4.671e-06 9.296e-05 0 0 0 0
290035500 -0.06405542 0.05357072 -0.000279936 2.7879e-05 0 0 0 0
300035000 -0.05847708 0.061070132 5.6891e-05 0.000318344 0 0 0 0
310034500 -0.051163076 0.068746256 -0.000345486 -0.000186388 0 0 0 0
320034000 -0.044119024 0.0754884 0.000130437 0.000591328 0 0 0 0
330033500 -0.035323044 0.0813852 0.000339852 -0.000127423 0 0 0 0
340033000 -0.0261802 0.085611208 -0.000122391 -3.6627e-05 0 0 0 0
350032500 -0.016888748 0.089994 -6.8403e-05 -0.000135517 0 0 0 0
360032000 -0.006981194 0.091687 0.000120338 2.7687e-05 0 0 0 0
370031500 0.003389788 0.092767776 0.000278814 0.000153474 0 0 0 0
380031000 0.013714378 0.09283284 0.000367562 -1.1915e-05 0 0 0 0
390030500 0.024239236 0.09117752 0.000153283 0.000140392 0 0 0 0
400030000 0.034391068 0.08884444 2.5818e-05 -0.000163379 0 0 0 0
410029500 0.04439532 0.085717824 -1.0758e-05 -2.2958e-05 0 0 0 0
420029000 0.053437916 0.079831344 -2.7428e-05 -0.000190077 0 0 0 0
430028500 0.062467148 0.074097712 0.000216211 -0.000416974 0 0 0 0
440028000 0.07045072 0.066769644 -2.7634e-05 0.000197378 0 0 0 0
450027500 0.077420552 0.05902506 0.000139587 -0.000181975 0 0 0 0
460027000 0.083243072 0.050215276 -0.000337365 -0.000656408 0 0 0 0
470026500 0.088018704 0.039639604 0.000323005 -0.00021795 0 0 0 0
480026000 0.09117572 0.028612454 0.000273691 0.000265381 0 0 0 0
490025500 0.092512584 0.017963598 -1.0943e-05 -6.9495e-05 0 0 0 0
500025000 0.094249408 0.006498657 -3.5742e-05 2.9789e-05 0 0 0 0
510024500 0.093691376 -0.004610507 -2.141e-05 0.000210003 0 0 0 0
520024000 0.092048912 -0.016150056 0.000262033 0.000206385 0 0 0 0
530023500 0.087968888 -0.02713774 -6.995e-06 0.000123631 0 0 0 0
540023000 0.083395472 -0.03751072 0.000258582 -0.000159149 0 0 0 0
550022500 0.077004168 -0.047458428 -8.873e-05 1.5047e-05 0 0 0 0
560022000 0.068981344 -0.056785164 2.3025e-05 0.000113966 0 0 0 0
570021500 0.060391424 -0.06479676 0.000115005 0.000311747 0 0 0 0
580021000 0.050914352 -0.072566672 9.9843e-05 0.000268442 0 0 0 0
590020500 0.039093344 -0.07869176 0.000442571 -0.000166474 0 0 0 0
600020000 0.027860032 -0.08364268 0.000606341 -0.000376658 0 0 0 0
610019500 0.016390713 -0.087274528 0.000697645 3.2477e-05 0 0 0 0
620019000 0.003756738 -0.089922976 0.00042834 0.000198367 0 0 0 0
630018500 -0.008635648 -0.091856968 0.000358519 3.5087e-05 0 0 0 0
640018000 -0.022404758 -0.089872696 0.000468847 0.000198436 0 0 0 0
650017500 -0.047312272 -0.14955392 0.000288046 0.000429531 0 0 0 0
660017000 -0.048772248 -0.084368768 0.000644873 -0.000110617 0 0 0 0
670016500 -0.061700388 -0.079733424 0.00026612 0.000409225 0 0 0 0
680016000 -0.073089744 -0.073919984 0.000102729 -0.000294583 0 0 0 0
690015500 -0.08534488 -0.066124536 -1.1521e-05 -0.00020216 0 0 0 0
700015000 -0.095831216 -0.057365116 0.000491089 0.000104894 0 0 0 0
710014500 -0.105975216 -0.046196268 -9.0456e-05 -0.00036472 0 0 0 0
720014000 -0.1143976 -0.035100504 7.238e-06 -0.000276648 0 0 0 0
730013500 -0.122076544 -0.022891514 0.000482616 -0.000261885 0 0 0 0
740013000 -0.128161328 -0.008322492 0.000485767 -3.066e-06 0 0 0 0
750012500 -0.131562664 0.005681408 0.000384085 -0.000133651 0 0 0 0
760012000 -0.133941992 0.022119374 -0.000129066 1.424e-05 0 0 0 0
770011500 -0.134604 0.03756518 0.000266685 0.000185647 0 0 0 0
780011000 -0.1344672 0.052870928 0.000327519 0.000583228 0 0 0 0
790010500 -0.130730424 0.068692384 -0.000114228 -0.000560722 0 0 0 0
800010000 -0.125009176 0.085179704 0.000301697 -0.000206058 0 0 0 0
810009500 -0.119743864 0.100675048 0.000179258 0.000224756 0 0 0 0
820009000 -0.110347616 0.114959472 0.000147109 -0.000220143 0 0 0 0
830008500 -0.100172168 0.12901248 0.000124156 0.000195811 0 0 0 0
840008000 -0.088352032 0.142183568 0.000168884 0.000265874 0 0 0 0
850007500 -0.075832208 0.15282208 0.000442772 0.000208865 0 0 0 0
860007000 -0.061502176 0.163031984 0.000262575 0.000865578 0 0 0 0
870006500 -0.054085764 0.179860592 -0.000331216 -0.000838889 0 0 0 0
880006000 -0.035956776 0.19163344 0.000766516 0.000726704 0 0 0 0
890005500 -0.0184177 0.195701744 -0.000434366 0.000273526 0 0 0 0
900005000 0.001385321 0.19927904 -0.000896795 0.000210221 0 0 0 0
910004500 0.02761732 0.225055968 -0.000887386 -0.000225931 0 0 0 0
920004000 0.041045392 0.189476176 9.111e-05 -0.000753944 0 0 0 0
930003500 0.059224924 0.18116808 -0.000174197 -0.000893356 0 0 0 0
940003000 0.075463176 0.168566848 0.000705357 0.000234894 0 0 0 0
950002500 0.091291792 0.156594448 -0.000278046 -0.000213525 0 0 0 0
960002000 0.109358664 0.139105328 -0.001164322 -0.000621304 0 0 0 0
970001500 0.11843536 0.123674184 -0.001119776 -5.2703e-05 0 0 0 0
980001000 0.130536352 0.10520772 -0.000939225 -0.000909653 0 0 0 0
990000500 0.1409772 0.086883648 -0.000154757 -0.000587153 0 0 0 0
1000000000 0.148718592 0.064803704 -0.000903242 -0.000233664 0 0 0 0
