# HZ S RI R 50
30000 0.985649728 -0.005984729 4.3806e-05 -0.000134793 0 0 0 0
15029700 0.820488768 -0.487511328 7.2423e-05 2.0762e-05 0 0 0 0
30029400 0.46778288 -0.828073984 -0.000123808 -6.0626e-05 0 0 0 0
45029100 0.002799492 -0.94841568 -7.4375e-05 -0.000207556 0 0 0 0
60028800 -0.45016224 -0.83190784 1.7907e-05 -4.5795e-05 0 0 0 0
75028500 -0.784520128 -0.520905184 -0.000116292 7.344e-06 0 0 0 0
90028200 -0.9332832 -0.096022312 3.3792e-05 -0.000102862 0 0 0 0
105027900 -0.868984384 0.34390576 4.337e-06 -2.9541e-05 0 0 0 0
120027600 -0.607650496 0.706501888 -0.000144954 9.5757e-05 0 0 0 0
135027300 -0.203022224 0.904783808 -6.9369e-05 0.000141669 0 0 0 0
150027000 0.256120176 0.88779936 -5.6357e-05 0.000127297 0 0 0 0
165026700 0.65545568 0.645323008 -4.1069e-05 0.000133752 0 0 0 0
180026400 0.88652736 0.232416112 -0.000124629 7.792e-06 0 0 0 0
195026100 0.882257728 -0.243358928 -0.000123066 0.000104129 0 0 0 0
210025800 0.642003712 -0.650598592 1.5604e-05 0.000219711 0 0 0 0
225025500 0.239029552 -0.880337216 0.000107677 3.2878e-05 0 0 0 0
240025200 -0.214049488 -0.885499712 0.000103835 -2.9924e-05 0 0 0 0
255024900 -0.607474112 -0.677019264 6.6485e-05 4.6706e-05 0 0 0 0
270024600 -0.855001856 -0.309924032 4.1679e-05 -2.3639e-05 0 0 0 0
285024300 -0.90245536 0.121869184 -0.000153675 -3.1176e-05 0 0 0 0
300024000 -0.76695424 0.514857696 6.8136e-05 0.000152674 0 0 0 0
315023700 -0.443847168 0.809936512 -2.8441e-05 0.000120883 0 0 0 0
330023400 -0.007620338 0.91353856 0.000153049 5.5049e-05 0 0 0 0
345023100 0.43136928 0.799443456 -1.822e-06 0.000154932 0 0 0 0
360022800 0.76417184 0.47827264 0.000429119 0.000458165 0 0 0 0
375022500 0.891295616 0.033299766 0.000650851 -5.894e-06 0 0 0 0
390022200 0.78567488 -0.413447808 8.6509e-05 0.000231529 0 0 0 0
405021900 0.475212128 -0.749742336 -0.000114097 2.287e-06 0 0 0 0
420021600 0.049258732 -0.884315392 0.000135449 -0.000203261 0 0 0 0
435021300 -0.376242816 -0.799343616 0.000290184 -0.000110095 0 0 0 0
450021000 -0.704852736 -0.529494944 0.000147679 -0.000287434 0 0 0 0
465020700 -0.865649344 -0.147870928 -0.000186383 -0.000231077 0 0 0 0
480020400 -0.833722304 0.263147408 3.8408e-05 -0.000296389 0 0 0 0
495020100 -0.619726784 0.616153984 0.000150067 0.000108842 0 0 0 0
510019800 -0.256173104 0.8299824 0.00048511 0.000371797 0 0 0 0
525019500 0.170461312 0.851383488 0.000541137 -2.104e-06 0 0 0 0
540019200 0.557190016 0.666539968 0.00086973 -3.4635e-05 0 0 0 0
555018900 0.809794304 0.3143024 0.000698159 0.000126066 0 0 0 0
570018600 0.860052352 -0.115032464 1.7866e-05 -0.000526324 0 0 0 0
585018300 0.68324288 -0.523934368 -2.4162e-05 -0.000307999 0 0 0 0
600018000 0.344104704 -0.771469184 -0.00022394 -0.000421434 0 0 0 0
615017700 -0.074595112 -0.8418176 -8.7241e-05 0.000218429 0 0 0 0
630017400 -0.472263872 -0.706909312 0.000467424 0.00030775 0 0 0 0
645017100 -0.756389184 -0.401762112 -0.000231151 0.000713332 0 0 0 0
660016800 -0.86148224 -0.006560719 0.000166028 0.000845512 0 0 0 0
675016500 -0.780957056 0.389064096 -0.000192001 0.000543236 0 0 0 0
690016200 -0.525352672 0.704778496 6.418e-05 0.000458999 0 0 0 0
705015900 -0.149285456 0.866058368 -0.000376942 0.00035422 0 0 0 0
720015600 0.2573604 0.831098688 -0.000117561 0.00023536 0 0 0 0
735015300 0.601516352 0.601251072 -0.000727204 0.000356977 0 0 0 0
750015000 0.787506432 0.232530864 -0.00060981 -0.000348557 0 0 0 0
765014700 0.777176768 -0.179579248 -0.001422584 0.000144741 0 0 0 0
780014400 0.575364352 -0.508578528 -0.000984453 -0.000924264 0 0 0 0
795014100 0.214987232 -0.762636096 -0.001164624 -0.000480845 0 0 0 0
810013800 -0.196092896 -0.78686816 -0.000188766 -0.000315203 0 0 0 0
825013500 -0.559410496 -0.607841344 -0.001181067 -0.000786713 0 0 0 0
840013200 -0.780242752 -0.281014176 -0.000628301 -0.000618694 0 0 0 0
855012900 -0.812262784 0.112000656 -0.000839817 -0.000257743 0 0 0 0
870012600 -0.73716832 0.4342608 -0.002399614 0.001435181 0 0 0 0
885012300 -0.46841568 0.720987136 -0.000683273 -0.000291812 0 0 0 0
900012000 -0.083397976 0.857665024 -0.00046026 0.000664342 0 0 0 0
915011700 0.32933264 0.768787584 -0.001316412 0.000766464 0 0 0 0
930011400 0.644513344 0.4672816 0.000186767 -0.000779906 0 0 0 0
945011100 0.762674304 0.058807716 0.000128177 0.000103499 0 0 0 0
960010800 0.650965696 -0.3531 0.001035033 0.000590186 0 0 0 0
975010500 0.349526432 -0.654319488 0.001060268 -0.001259399 0 0 0 0
990010200 -0.047203256 -0.768111424 -0.001245556 -0.002600638 0 0 0 0
1005009900 -0.429445984 -0.67834976 -0.000491671 -0.001294293 0 0 0 0
1020009600 -0.713626624 -0.420226176 -0.001734612 -0.002630741 0 0 0 0
1035009300 -0.83348736 -0.06612938 -0.001996673 -0.003072921 0 0 0 0
1050009000 -0.778128576 0.288140352 -0.000779121 0.000366128 0 0 0 0
1065008700 -0.5640672 0.572276416 -0.001534785 -0.001505087 0 0 0 0
1080008400 -0.240629984 0.71566624 -0.000973634 -0.001403092 0 0 0 0
1095008100 0.119879152 0.694392832 -0.000894489 -0.002120785 0 0 0 0
1110007800 0.425449952 0.501085696 -0.002350961 -0.000646017 0 0 0 0
1125007500 0.590654144 0.175744864 0.000993355 -0.002273249 0 0 0 0
1140007200 0.574936448 -0.185979104 -0.002185612 -0.003891546 0 0 0 0
1155006900 0.373068192 -0.509836544 -0.000809746 -0.000282756 0 0 0 0
1170006600 0.039772908 -0.648814848 -0.003742942 -0.004073768 0 0 0 0
1185006300 -0.302876448 -0.645889792 -0.001139916 -0.001657541 0 0 0 0
1200006000 -0.561786304 -0.469020608 -0.00394183 0.000566092 0 0 0 0
1215005700 -0.710813056 -0.201612784 -0.002646034 -0.001042346 0 0 0 0
1230005400 -0.714263552 0.086317744 -0.002317036 -0.000501002 0 0 0 0
1245005100 -0.604980928 0.355767712 -0.000603528 -0.001103416 0 0 0 0
1260004800 -0.325693728 0.504290528 -0.001094005 -0.001849324 0 0 0 0
1275004500 -0.011343474 0.523039584 -0.002333496 0.00055903 0 0 0 0
1290004200 0.2852112 0.419209088 -0.003580395 -0.005576614 0 0 0 0
1305003900 0.523097888 0.108217096 -0.000236321 0.002022184 0 0 0 0
1320003600 0.54697312 -0.220064816 -0.004845632 -0.003386585 0 0 0 0
1335003300 0.37182336 -0.56005312 0.005537811 -0.005722422 0 0 0 0
1350003000 0.084139776 -0.740818048 0.002981744 -0.002645049 0 0 0 0
1365002700 -0.214105584 -0.745418432 0.002037122 -0.005223406 0 0 0 0
1380002400 -0.421311616 -0.621417216 0.003417503 -0.002059646 0 0 0 0
1395002100 -0.5249768 -0.332160384 -0.003201485 -0.000360936 0 0 0 0
1410001800 -0.605920704 -0.127180936 0.003430599 -0.000622435 0 0 0 0
1425001500 -0.495912064 0.124457088 0.001272773 -0.002128585 0 0 0 0
1440001200 -0.236227456 0.352578592 -0.00501226 0.000246392 0 0 0 0
1455000900 -0.35484688 0.409356512 0.005490313 -0.010106167 0 0 0 0
1470000600 0.112658264 0.44071344 0.000420974 -0.014674029 0 0 0 0
1485000300 0.34707776 0.127914144 -0.007560627 -0.005233409 0 0 0 0
1500000000 0.450786816 -0.20682768 -0.008518252 -0.006293697 0 0 0 0
