# HZ S RI R 50
50000 0.983323456 -0.004406159 5.9016e-05 -6.6324e-05 0 0 0 0
10049500 0.94477952 -0.132984488 1.0625e-05 5.2406e-05 0 0 0 0
20049000 0.916947264 -0.254784528 9.1551e-05 0.000166713 0 0 0 0
30048500 0.874312 -0.37159008 0.000137686 -0.000163933 0 0 0 0
40048000 0.816459456 -0.4821664 -6.1757e-05 -5.9603e-05 0 0 0 0
50047500 0.74525184 -0.58448352 -1.7804e-05 9.5525e-05 0 0 0 0
60047000 0.661058304 -0.67619136 4.8293e-05 -7.7711e-05 0 0 0 0
70046500 0.566101248 -0.755425152 -4.02e-05 5.9578e-05 0 0 0 0
80046000 0.461784704 -0.82146496 0.000182932 -4.1508e-05 0 0 0 0
90045500 0.349075616 -0.872374912 0.000115793 -0.000109948 0 0 0 0
100045000 0.230804656 -0.90896864 5.9289e-05 2.6314e-05 0 0 0 0
110044500 0.11058328 -0.930328256 0.000211701 -0.000142219 0 0 0 0
120044000 -0.011571772 -0.93476 4.6386e-05 -4.7543e-05 0 0 0 0
130043500 -0.132741424 -0.923292928 7.1503e-05 -5.5916e-05 0 0 0 0
140043000 -0.250843104 -0.897534208 9.9344e-05 -0.000160888 0 0 0 0
150042500 -0.363417152 -0.856024896 -5.5042e-05 -0.000116232 0 0 0 0
160042000 -0.47007728 -0.801472448 -3.3013e-05 -0.000119765 0 0 0 0
170041500 -0.568439104 -0.733092544 -2.2815e-05 -8.1652e-05 0 0 0 0
180041000 -0.656740992 -0.652929408 2.0441e-05 -3.5998e-05 0 0 0 0
190040500 -0.733519424 -0.561147776 -7.0771e-05 -5.9758e-05 0 0 0 0
200040000 -0.798386304 -0.459901024 2.0102e-05 -0.000182042 0 0 0 0
210039500 -0.849989248 -0.35134624 0.000125755 -5.8774e-05 0 0 0 0
220039000 -0.8873568 -0.237376 0.000140679 1.1296e-05 0 0 0 0
230038500 -0.909638784 -0.120303592 9.1427e-05 -9.86e-06 0 0 0 0
240038000 -0.916753344 -0.002628981 7.3847e-05 3.904e-06 0 0 0 0
250037500 -0.908679936 0.113861288 -8.5693e-05 -3.6261e-05 0 0 0 0
260037000 -0.884970688 0.227374384 -0.00014189 -5.8766e-05 0 0 0 0
270036500 -0.848464192 0.33725504 -0.000104116 8.65e-06 0 0 0 0
280036000 -0.797585984 0.4408504 -0.0001209 -1.1951e-05 0 0 0 0
290035500 -0.746455232 0.51030992 0.000312157 -0.000596036 0 0 0 0
300035000 -0.674999552 0.599734272 -0.000462617 -7.8985e-05 0 0 0 0
310034500 -0.593954944 0.678992 -0.000121205 -0.000420847 0 0 0 0
320034000 -0.502983744 0.749685376 -0.000186098 -5.1126e-05 0 0 0 0
330033500 -0.40373184 0.807904768 0.000355697 -0.000139157 0 0 0 0
340033000 -0.297207712 0.851543872 4.0209e-05 -7.4654e-05 0 0 0 0
350032500 -0.187963072 0.882776896 -0.000226731 -0.000420645 0 0 0 0
360032000 -0.074404096 0.899091968 -5.46e-06 -0.000134036 0 0 0 0
370031500 0.039241336 0.901525248 -0.000339758 -0.000167927 0 0 0 0
380031000 0.151318624 0.889984192 -2.7348e-05 -6.3599e-05 0 0 0 0
390030500 0.26006464 0.86424768 0.000332047 -6.2925e-05 0 0 0 0
400030000 0.366790816 0.82733824 0.000321513 -0.000144451 0 0 0 0
410029500 0.466589632 0.775797696 -5.1253e-05 -0.000183234 0 0 0 0
420029000 0.559735808 0.71386048 0.000312345 -4.8004e-05 0 0 0 0
430028500 0.643448576 0.6409808 -8.7362e-05 -0.000551965 0 0 0 0
440028000 0.71623264 0.557801728 -8.7928e-05 -0.000213436 0 0 0 0
450027500 0.77804448 0.465735808 6.0393e-05 -0.000572147 0 0 0 0
460027000 0.8268352 0.366808128 -0.00018909 -0.000682732 0 0 0 0
470026500 0.862790272 0.257069104 7.3609e-05 -0.000549012 0 0 0 0
480026000 0.883450176 0.145131584 -2.109e-05 -0.000367853 0 0 0 0
490025500 0.891582464 0.03309216 -0.00035526 -0.000460321 0 0 0 0
500025000 0.8846672 -0.078869272 2.6565e-05 -0.000244881 0 0 0 0
510024500 0.862008448 -0.190541152 0.000304423 0.000108691 0 0 0 0
520024000 0.822997184 -0.297837568 0.000162914 1.9864e-05 0 0 0 0
530023500 0.774007232 -0.397874496 0.000233211 -0.000354891 0 0 0 0
540023000 0.71009152 -0.489781184 0.000374968 -0.000510245 0 0 0 0
550022500 0.63550464 -0.575321408 -0.000528424 1.6783e-05 0 0 0 0
560022000 0.549213696 -0.645805504 -9.4064e-05 -0.000304251 0 0 0 0
570021500 0.45596816 -0.708786816 -0.00014178 -0.000390302 0 0 0 0
580021000 0.355737664 -0.758374784 -3.852e-06 -0.000140866 0 0 0 0
590020500 0.248609232 -0.79303712 -0.000117064 -0.000139968 0 0 0 0
600020000 0.140119792 -0.814330624 -0.000153066 -8.5591e-05 0 0 0 0
610019500 0.029813794 -0.825721664 -9.2403e-05 0.000365258 0 0 0 0
620019000 -0.081343016 -0.824567296 0.000140712 -0.000186269 0 0 0 0
630018500 -0.19159848 -0.807993344 1.3397e-05 6.968e-06 0 0 0 0
640018000 -0.296981728 -0.776907072 -0.000203706 0.00012873 0 0 0 0
650017500 -0.410829984 -0.757637248 -0.000630331 0.000264125 0 0 0 0
660017000 -0.492166848 -0.678139776 4.4928e-05 -0.000119881 0 0 0 0
670016500 -0.579655104 -0.612972032 3.3896e-05 -0.000278793 0 0 0 0
680016000 -0.656064704 -0.536282784 5.193e-06 -0.000109629 0 0 0 0
690015500 -0.72059232 -0.450560544 -0.000339458 2.5927e-05 0 0 0 0
700015000 -0.775296576 -0.35876336 0.000147934 -0.000270144 0 0 0 0
710014500 -0.81527936 -0.2591796 -0.000179736 -3.7678e-05 0 0 0 0
720014000 -0.842742336 -0.15553784 -4.7811e-05 -0.000624197 0 0 0 0
730013500 -0.855255552 -0.049447304 8.4187e-05 1.8148e-05 0 0 0 0
740013000 -0.853547008 0.05660272 -6.9676e-05 -3.3988e-05 0 0 0 0
750012500 -0.836818176 0.162121184 -0.000198073 4.0059e-05 0 0 0 0
760012000 -0.80722848 0.263713952 -0.000284482 0.000351925 0 0 0 0
770011500 -0.7656752 0.361735904 -0.000154816 0.000153586 0 0 0 0
780011000 -0.695241152 0.451877728 -0.000322433 0.000591362 0 0 0 0
790010500 -0.648419456 0.532264896 -0.000209398 0.000419063 0 0 0 0
800010000 -0.576964416 0.605059712 7.136e-05 0.000562317 0 0 0 0
810009500 -0.494651072 0.669819264 0.000406741 0.000600208 0 0 0 0
820009000 -0.408181632 0.723297088 0.000476104 0.000745606 0 0 0 0
830008500 -0.316546784 0.766480512 0.000578949 0.000581461 0 0 0 0
840008000 -0.220798592 0.799378176 0.000354461 0.000696667 0 0 0 0
850007500 -0.121524392 0.817470976 -6.9531e-05 0.000552348 0 0 0 0
860007000 -0.021416026 0.827271872 -0.0003057 0.001563031 0 0 0 0
870006500 0.036562004 0.933142016 -0.000666116 0.000772243 0 0 0 0
880006000 0.138108464 0.917812416 -0.000378751 -0.000100323 0 0 0 0
890005500 0.236024512 0.892363264 -0.0012025 0.000290586 0 0 0 0
900005000 0.337867456 0.853415488 -0.001122851 0.000844163 0 0 0 0
910004500 0.439486816 0.810513216 -0.000112471 0.001064089 0 0 0 0
920004000 0.514191456 0.70768672 -0.000532105 0.001666592 0 0 0 0
930003500 0.58955456 0.622532736 -6.51e-07 -0.000509453 0 0 0 0
940003000 0.648161728 0.526259424 0.000426011 0.000774077 0 0 0 0
950002500 0.690864832 0.421967424 0.000706301 0.000177573 0 0 0 0
960002000 0.726236352 0.31814944 8.9941e-05 -7.7467e-05 0 0 0 0
970001500 0.754204544 0.208606928 -0.000378357 0.000847559 0 0 0 0
980001000 0.766917824 0.101908152 0.000200178 0.000559181 0 0 0 0
990000500 0.760654976 -0.005831236 0.0007208 0.001311064 0 0 0 0
1000000000 0.748310208 -0.114423384 0.00029258 0.001752216 0 0 0 0
