# HZ S RI R 50
50000 -0.574674816 0.001824897 0.000231082 -6.5862e-05 0 0 0 0
10049500 -0.566604096 0.0752098 0.000139269 -2.3992e-05 0 0 0 0
20049000 -0.550735488 0.145848912 3.219e-06 -2.8716e-05 0 0 0 0
30048500 -0.526891872 0.213020704 5.696e-05 5.1706e-05 0 0 0 0
40048000 -0.49507968 0.276837504 -0.000125569 -2.1055e-05 0 0 0 0
50047500 -0.455362944 0.335814848 -0.000240073 -7.6498e-05 0 0 0 0
60047000 -0.408884032 0.3895832 8.3104e-05 7.783e-06 0 0 0 0
70046500 -0.356719808 0.436427584 -0.000190108 -0.000102472 0 0 0 0
80046000 -0.29888992 0.476251712 8.8885e-05 8.5145e-05 0 0 0 0
90045500 -0.236642432 0.508255968 2.4086e-05 5.0405e-05 0 0 0 0
100045000 -0.170833088 0.533078208 4.6753e-05 0.000108902 0 0 0 0
110044500 -0.103017568 0.549576704 -3.8284e-05 0.00010485 0 0 0 0
120044000 -0.033326556 0.5575824 -6.383e-06 0.000193872 0 0 0 0
130043500 0.034995184 0.555928064 -1.9847e-05 0.000167313 0 0 0 0
140043000 0.104197752 0.546923392 -8.4658e-05 0.000107501 0 0 0 0
150042500 0.170848368 0.528566176 -3.5109e-05 0.000103407 0 0 0 0
160042000 0.23468208 0.502614496 1.7373e-05 0.000139617 0 0 0 0
170041500 0.294486208 0.468988672 6.29e-05 0.000120868 0 0 0 0
180041000 0.349860896 0.427679328 2.5613e-05 0.000152377 0 0 0 0
190040500 0.399531808 0.379160064 -1.4988e-05 0.000133151 0 0 0 0
200040000 0.44315104 0.324349728 1.1397e-05 0.000137413 0 0 0 0
210039500 0.479344288 0.264398272 -6.6294e-05 7.0484e-05 0 0 0 0
220039000 0.507762432 0.200541344 1.7021e-05 9.0245e-05 0 0 0 0
230038500 0.527785824 0.134017424 -2.3118e-05 -4.2724e-05 0 0 0 0
240038000 0.539030848 0.066192812 -1.4318e-05 -1.7883e-05 0 0 0 0
250037500 0.541635904 -0.002804678 -8.2697e-05 1.4676e-05 0 0 0 0
260037000 0.53533072 -0.0708188 -0.000112069 7.1118e-05 0 0 0 0
270036500 0.520550848 -0.138007216 -1.2254e-05 -4.089e-06 0 0 0 0
280036000 0.496951328 -0.202819984 -7.5276e-05 3.2638e-05 0 0 0 0
290035500 0.471302816 -0.249596688 3.329e-06 -0.000321117 0 0 0 0
300035000 0.432650848 -0.308649632 0.000437757 0.000359832 0 0 0 0
310034500 0.38760576 -0.36080944 -8.5401e-05 2.53e-07 0 0 0 0
320034000 0.337410336 -0.407347264 0.000150395 3.1863e-05 0 0 0 0
330033500 0.280188832 -0.447371488 1.354e-05 -1.9363e-05 0 0 0 0
340033000 0.219466592 -0.47884976 0.000107683 2.1445e-05 0 0 0 0
350032500 0.156425312 -0.501588992 0.000410938 5.444e-06 0 0 0 0
360032000 0.090217032 -0.516544768 0.000120979 0.000286888 0 0 0 0
370031500 0.022426552 -0.524332576 3.0201e-05 6.6208e-05 0 0 0 0
380031000 -0.044920564 -0.522611744 6.1839e-05 -0.000269519 0 0 0 0
390030500 -0.112086312 -0.513245824 0.000322348 3.7871e-05 0 0 0 0
400030000 -0.17719232 -0.495875712 -0.000547868 -0.000553775 0 0 0 0
410029500 -0.237517936 -0.469137472 0.000507794 -1.3318e-05 0 0 0 0
420029000 -0.298219296 -0.436832768 0.00024059 -0.000392923 0 0 0 0
430028500 -0.350872672 -0.397359712 -7.1578e-05 0.000298757 0 0 0 0
440028000 -0.398969344 -0.350558752 4.1137e-05 -5.7404e-05 0 0 0 0
450027500 -0.439493664 -0.298830368 0.000136406 -4.7402e-05 0 0 0 0
460027000 -0.472533024 -0.240545488 4.0526e-05 0.000213924 0 0 0 0
470026500 -0.498961856 -0.178794112 3.9674e-05 -8.627e-05 0 0 0 0
480026000 -0.516540416 -0.113784208 0.000134635 -7.454e-06 0 0 0 0
490025500 -0.52606464 -0.047448496 2.8954e-05 -0.00014055 0 0 0 0
500025000 -0.526891104 0.019168188 0.000164684 0.000187741 0 0 0 0
510024500 -0.51845776 0.085949304 0.000253956 8.4794e-05 0 0 0 0
520024000 -0.502020608 0.151634512 0.000280437 0.000428908 0 0 0 0
530023500 -0.476424544 0.211616368 5.4027e-05 0.000408369 0 0 0 0
540023000 -0.444269824 0.269738272 0.000455928 0.000415312 0 0 0 0
550022500 -0.404357504 0.322369952 0.000460845 0.000396815 0 0 0 0
560022000 -0.356686208 0.368944544 0.000451861 0.00046419 0 0 0 0
570021500 -0.304369024 0.409276032 0.000689884 0.000445049 0 0 0 0
580021000 -0.24803784 0.443207648 0.00111364 0.000117011 0 0 0 0
590020500 -0.185825952 0.469693184 0.000459851 5.2491e-05 0 0 0 0
600020000 -0.124573592 0.488030304 0.000546027 0.000272956 0 0 0 0
610019500 -0.059113984 0.499680608 0.000533598 -0.00029091 0 0 0 0
620019000 0.00638369 0.50218432 0.000667845 -2.149e-05 0 0 0 0
630018500 0.071201648 0.49714784 0.000782926 0.000405828 0 0 0 0
640018000 0.135077168 0.483742432 0.000361755 0.000144127 0 0 0 0
650017500 0.233408304 0.503948736 0.000515568 8.631e-06 0 0 0 0
660017000 0.252607376 0.434556544 0.000350349 0.000372418 0 0 0 0
670016500 0.304458688 0.39932992 0.000206791 5.9924e-05 0 0 0 0
680016000 0.351658432 0.357128512 0.000101121 0.000414368 0 0 0 0
690015500 0.393477376 0.308932704 0.000114591 0.000285899 0 0 0 0
700015000 0.426949696 0.256139152 0.000427013 0.000520578 0 0 0 0
710014500 0.45429568 0.19908984 0.000417946 -1.6422e-05 0 0 0 0
720014000 0.472681312 0.138278944 -0.00023088 0.000650821 0 0 0 0
730013500 0.483920544 0.076364592 -2.1037e-05 0.00012798 0 0 0 0
740013000 0.484924288 0.01278837 -0.000119573 0.000223333 0 0 0 0
750012500 0.478871328 -0.051467132 -0.000228419 0.000390686 0 0 0 0
760012000 0.464157504 -0.114237248 9.4348e-05 0.000239642 0 0 0 0
770011500 0.439831936 -0.173655456 2.165e-06 0.000361879 0 0 0 0
780011000 0.415609408 -0.236161744 -0.000548669 0.000240553 0 0 0 0
790010500 0.368510112 -0.284733888 -0.000657501 -0.000166934 0 0 0 0
800010000 0.321922176 -0.332029248 -6.6576e-05 0.000121402 0 0 0 0
810009500 0.266466416 -0.372159168 -0.000210133 4.1628e-05 0 0 0 0
820009000 0.210224656 -0.405518976 -0.000476725 5.2848e-05 0 0 0 0
830008500 0.145170816 -0.430214432 -0.000281606 2.7877e-05 0 0 0 0
840008000 0.080490896 -0.446119872 -0.00050497 -0.000314283 0 0 0 0
850007500 0.010820206 -0.451629952 -0.00058604 -6.336e-05 0 0 0 0
860007000 -0.059239864 -0.44953072 -0.000273782 -0.000235561 0 0 0 0
870006500 -0.124749104 -0.500983232 0.000174658 1.6729e-05 0 0 0 0
880006000 -0.19416768 -0.479864672 -0.001204749 0.000493658 0 0 0 0
890005500 -0.260954944 -0.448628512 -0.001254303 0.000497094 0 0 0 0
900005000 -0.321014688 -0.409160064 -0.00131932 -0.001399638 0 0 0 0
910004500 -0.408235264 -0.318605632 -6.403e-05 -0.000341954 0 0 0 0
920004000 -0.431274464 -0.282090496 -0.000613032 -0.000790013 0 0 0 0
930003500 -0.466660096 -0.211188752 -0.001528527 -0.002054195 0 0 0 0
940003000 -0.490506112 -0.132230792 0.000503534 -0.000595349 0 0 0 0
950002500 -0.498170464 -0.052858964 -3.1428e-05 -0.001195792 0 0 0 0
960002000 -0.498280672 0.026989362 -0.000370042 -7.0358e-05 0 0 0 0
970001500 -0.482619616 0.106411376 -0.000193294 -0.000876693 0 0 0 0
980001000 -0.458909824 0.174265408 0.000423662 -0.000121153 0 0 0 0
990000500 -0.421814208 0.238448544 -0.000649468 0.000364257 0 0 0 0
1000000000 -0.374679616 0.298644864 -0.000554356 -0.000801485 0 0 0 0
