# HZ S RI R 50
50000 1.014831305 -0.005681998 0.000102152 -0.000177436 0 0 0 0
12049500 0.705001024 -0.793218304 7.7991e-05 -0.000242516 0 0 0 0
24049000 -0.072714704 -1.135957712 -0.000232433 -2.0348e-05 0 0 0 0
36048500 -0.862535232 -0.864848064 -0.000103206 5.9057e-05 0 0 0 0
48048000 -1.33478512 -0.200299888 -0.000260311 -7.114e-05 0 0 0 0
60047500 -1.279863232 0.58665472 -0.00016736 0.000124219 0 0 0 0
72047000 -0.79617568 1.113652232 -4.4083e-05 -0.00012016 0 0 0 0
84046500 -0.1923708 1.308370816 4.554e-05 0.000115697 0 0 0 0
96046000 0.316141728 1.184223888 7.7296e-05 4.1454e-05 0 0 0 0
108045500 0.624167168 0.910177664 0.000131077 0.000167325 0 0 0 0
120045000 0.707699712 0.612716608 0.000123601 0.000104685 0 0 0 0
132044500 0.875317312 0.35602816 6.6832e-05 4.281e-05 0 0 0 0
144044000 0.853243712 0.08503672 9.7617e-05 3.5772e-05 0 0 0 0
156043500 0.808584512 -0.170355888 6.665e-05 4.3728e-05 0 0 0 0
168043000 0.69859584 -0.422371712 0.000137053 -4.2559e-05 0 0 0 0
180042500 0.519022464 -0.668515072 0.000239101 -9.4129e-05 0 0 0 0
192042000 0.289124096 -0.946985664 -0.000142279 -0.000113221 0 0 0 0
204041500 -0.06716272 -1.168568848 -6.8189e-05 -0.000181051 0 0 0 0
216041000 -0.59273792 -1.240122432 -0.000113243 -8.347e-05 0 0 0 0
228040500 -1.301378624 -0.90808288 -0.000176981 -8.7755e-05 0 0 0 0
240040000 -1.690982208 -0.267980672 -9.8791e-05 -8.159e-05 0 0 0 0
252039500 -1.617243776 0.431929888 -0.000287149 -0.000164583 0 0 0 0
264039000 -1.303647872 0.95463264 -0.000139066 7.6756e-05 0 0 0 0
276038500 -0.882128 1.183618784 6.4418e-05 -1.9389e-05 0 0 0 0
288038000 -0.493098624 1.179801584 0.000301463 8.3142e-05 0 0 0 0
300037500 -0.261962288 1.11911488 -0.000389358 -9.8862e-05 0 0 0 0
312037000 0.04019966 0.978042304 0.000113638 -0.000192946 0 0 0 0
324036500 0.30914624 0.756349568 0.000237878 5.2905e-05 0 0 0 0
336036000 0.581214016 0.484956864 7.862e-05 0.000208127 0 0 0 0
348035500 0.805474048 0.102409224 0.001241014 0.000141292 0 0 0 0
360035000 0.878156224 -0.386266432 0.000495753 2.9028e-05 0 0 0 0
372034500 0.714648896 -0.972026432 0.000219273 -0.000331436 0 0 0 0
384034000 0.195830352 -1.398186816 9.2107e-05 -0.00035607 0 0 0 0
396033500 -0.467810592 -1.397106304 -3.451e-05 0.000476222 0 0 0 0
408033000 -1.000680447 -1.112149 -1.3542e-05 -4.7054e-05 0 0 0 0
420032500 -1.303211584 -0.64010336 -0.000373957 -0.000710771 0 0 0 0
432032000 -1.3773328 -0.095518976 0.000348135 -0.000630348 0 0 0 0
444031500 -1.2691312 0.456331488 -8.9294e-05 0.000132512 0 0 0 0
456031000 -0.821936832 0.8765392 -0.000422076 0.000853573 0 0 0 0
468030500 -0.160084128 0.963210944 -0.0001333 0.000813833 0 0 0 0
480030000 0.48806576 0.738281984 -0.000449551 -0.000501547 0 0 0 0
492029500 0.933650816 0.293404128 0.000483957 -0.000637477 0 0 0 0
504029000 1.087156896 -0.19437592 0.000349713 -0.000473363 0 0 0 0
516028500 1.05241418 -0.614617344 0.000426234 -0.000323855 0 0 0 0
528028000 0.851956672 -0.899053888 -4.5956e-05 -0.000439826 0 0 0 0
540027500 0.55900288 -1.054532768 0.000331337 -0.000701701 0 0 0 0
552027000 0.251234656 -1.16101408 -0.000267157 -0.00049456 0 0 0 0
564026500 -0.118553744 -1.214013696 6.463e-06 -0.000454152 0 0 0 0
576026000 -0.556845824 -1.20587432 -0.000778575 0.000474872 0 0 0 0
588025500 -0.928776896 -0.9819872 -0.00036026 0.000528741 0 0 0 0
600025000 -1.560401088 -0.563436352 -0.001041108 0.000229653 0 0 0 0
612024500 -1.626593024 0.305953888 -0.000908228 0.000305698 0 0 0 0
624024000 -1.232827904 1.014662743 -0.000252052 0.000147994 0 0 0 0
636023500 -0.68364544 1.287752384 0.00060326 7.8813e-05 0 0 0 0
648023000 -0.21941352 1.299225088 0.000712165 0.000399965 0 0 0 0
660022500 0.347865792 1.124233368 0.000798398 -0.000286027 0 0 0 0
672022000 0.608369984 0.970844352 0.000991227 -0.000187275 0 0 0 0
684021500 0.749875392 0.758788992 0.00089497 0.000674829 0 0 0 0
696021000 0.818590528 0.581662912 0.000619434 -0.000841616 0 0 0 0
708020500 0.79708672 0.345910656 -0.000608494 0.000197745 0 0 0 0
720020000 0.724635072 0.016152192 -0.001406405 -0.001183597 0 0 0 0
732019500 0.666891776 -0.419951008 -0.000689844 -0.000985318 0 0 0 0
744019000 0.488414112 -0.955872064 -0.001267857 -0.001802843 0 0 0 0
756018500 0.04377978 -1.395577664 -0.001181017 -0.001725453 0 0 0 0
768018000 -0.593247936 -1.491987456 0.000201872 -0.001691482 0 0 0 0
780017500 -1.126993896 -1.02723527 0.001712556 -0.001630707 0 0 0 0
792017000 -1.293852576 -0.54671712 0.001333991 0.001362216 0 0 0 0
804016500 -1.31205808 0.015784143 0.001658433 -0.00030809 0 0 0 0
816016000 -1.062531712 0.50430464 0.000836835 0.000605068 0 0 0 0
828015500 -0.569188416 0.791454272 0.000611009 0.000786094 0 0 0 0
840015000 0.044235428 0.784306304 0.000844361 0.000708188 0 0 0 0
852014500 0.58163232 0.335808992 0.000138286 -0.000292307 0 0 0 0
864014000 0.786971648 -0.46052368 0.00136298 -0.000180134 0 0 0 0
876013500 0.55770144 -1.271596544 -0.001958725 0.000746874 0 0 0 0
888013000 0.12724516 -1.789128064 -0.004046194 -0.000173072 0 0 0 0
900012500 -0.257745408 -1.840727936 -0.001246295 -0.000105722 0 0 0 0
912012000 -1.364680544 -1.432063456 -0.001166548 0.002122861 0 0 0 0
924011500 -1.69943168 -0.08016196 0.001425766 0.000173126 0 0 0 0
936011000 -0.627442624 0.872503296 0.001820505 -0.000189903 0 0 0 0
948010500 0.471522752 0.47826288 0.001439993 -0.003925197 0 0 0 0
960010000 0.740214208 -0.378742272 -0.002454674 -0.000576002 0 0 0 0
972009500 0.29754432 -1.102237944 -0.002326801 -0.002098472 0 0 0 0
984009000 -0.788196032 -1.272169952 -0.000646071 -0.00069233 0 0 0 0
996008500 -1.618842368 0.135547136 -0.000363153 -0.002089343 0 0 0 0
1008008000 -0.144304864 1.246156448 0.001817949 -0.005545939 0 0 0 0
1020007500 0.952929664 0.476448192 -0.000247799 -0.003174935 0 0 0 0
1032007000 1.0748744 -0.404209664 -0.001181635 -0.006622139 0 0 0 0
1044006500 0.758721856 -1.018048882 -0.00099379 -0.006738456 0 0 0 0
1056006000 0.23107184 -1.369705312 -0.003997003 -0.005118185 0 0 0 0
1068005500 -0.470834912 -1.365861408 -0.004616562 -0.002263126 0 0 0 0
1080005000 -1.08506072 -0.7974368 2.4507e-05 -0.00725109 0 0 0 0
1092004500 -0.909010176 0.197711744 -0.001558882 -0.004850168 0 0 0 0
1104004000 -0.024852934 0.445695296 -0.000947024 -0.002281425 0 0 0 0
1116003500 0.598732096 -0.05674022 -0.002971808 -0.009454238 0 0 0 0
1128003000 0.587310208 -0.797798784 -0.008248505 -0.006344486 0 0 0 0
1140002500 -0.040834564 -1.281437152 0.000724344 -0.006881554 0 0 0 0
1152002000 -1.003568649 -0.958517056 -0.001901167 -0.007256987 0 0 0 0
1164001500 -1.044109584 0.463492224 0.001178505 -0.008010112 0 0 0 0
1176001000 0.232629808 0.869947648 -0.003106074 -0.006111338 0 0 0 0
1188000500 0.96644448 0.32617264 -0.000907842 -0.008931778 0 0 0 0
1200000000 1.103867416 -0.355597888 -0.003433679 -0.007940625 0 0 0 0
