# HZ S RI R 50
50000 0.998796032 -0.009940083 -7.0314e-05 -0.000103609 0 0 0 0
12049500 0.048481344 -0.894831616 -6.4659e-05 -0.000151689 0 0 0 0
24049000 -0.74344416 -0.244929968 5.1633e-05 -0.000178969 0 0 0 0
36048500 -0.470042144 0.5407504 0.000152973 3.3158e-05 0 0 0 0
48048000 0.285880736 0.646043904 2.9676e-05 1.4231e-05 0 0 0 0
60047500 0.74895712 0.029449728 2.0229e-05 1.4155e-05 0 0 0 0
72047000 0.428455488 -0.704043776 4.827e-06 5.18e-05 0 0 0 0
84046500 -0.378156384 -0.803496768 3.809e-06 7.8663e-05 0 0 0 0
96046000 -0.898132352 -0.19159064 1.4894e-05 -0.000100225 0 0 0 0
108045500 -0.711109696 0.566175744 -9.3625e-05 -6.6205e-05 0 0 0 0
120045000 -0.019529808 0.869237312 -3.995e-05 9.9249e-05 0 0 0 0
132044500 0.616452736 0.528282688 3.1519e-05 0.000103042 0 0 0 0
144044000 0.74199584 -0.14025176 1.7769e-05 0.000102831 0 0 0 0
156043500 0.340576704 -0.6256192 -1.1547e-05 -2.5955e-05 0 0 0 0
168043000 -0.247349344 -0.64500384 -5.09e-05 4.6143e-05 0 0 0 0
180042500 -0.644484928 -0.238606032 -0.000164459 -6.4095e-05 0 0 0 0
192042000 -0.610632768 0.344671808 -6.4115e-05 -9.2036e-05 0 0 0 0
204041500 -0.111178976 0.717454464 -0.000122784 0.000110576 0 0 0 0
216041000 0.557818752 0.53270704 -0.000114712 7.5377e-05 0 0 0 0
228040500 0.804592384 -0.185652816 -1.5704e-05 6.2697e-05 0 0 0 0
240040000 0.324798688 -0.80562112 6.5215e-05 0.000104866 0 0 0 0
252039500 -0.429923296 -0.76708224 7.9663e-05 0.000161031 0 0 0 0
264039000 -0.841600704 -0.191778736 5.4683e-05 0.000119128 0 0 0 0
276038500 -0.695370816 0.44695072 1.1086e-05 -2.3018e-05 0 0 0 0
288038000 -0.157243952 0.753959552 -0.000233745 -3.9741e-05 0 0 0 0
300037500 0.396747584 0.572719296 -5.7584e-05 9.6144e-05 0 0 0 0
312037000 0.643856896 0.041937688 -0.000238704 8.9083e-05 0 0 0 0
324036500 0.382478688 -0.48526384 -6.9902e-05 0.000201447 0 0 0 0
336036000 -0.216145568 -0.592281472 -6.6319e-05 0.00026443 0 0 0 0
348035500 -0.670936576 -0.126071616 0.000127019 5.3208e-05 0 0 0 0
360035000 -0.49121504 0.554592256 0.00041202 -1.6107e-05 0 0 0 0
372034500 0.271688704 0.728443776 -0.000140496 9.7854e-05 0 0 0 0
384034000 0.784115584 0.1043108 -1.6548e-05 -2.0641e-05 0 0 0 0
396033500 0.493572064 -0.59323904 1.931e-05 -6.3976e-05 0 0 0 0
408033000 -0.172732528 -0.716668992 -0.000431992 4.8638e-05 0 0 0 0
420032500 -0.619357056 -0.30807824 0.000258924 -0.000138321 0 0 0 0
432032000 -0.589718208 0.265664784 0.000502292 -0.000112529 0 0 0 0
444031500 -0.121749064 0.59495648 0.000178619 -0.000336273 0 0 0 0
456031000 0.450886432 0.366277024 5.085e-05 3.7318e-05 0 0 0 0
468030500 0.511644672 -0.308328128 -3.2226e-05 1.2601e-05 0 0 0 0
480030000 -0.14638792 -0.657564864 -0.000221677 -0.000274727 0 0 0 0
492029500 -0.74643776 -0.1822376 0.000246254 0.000230021 0 0 0 0
504029000 -0.605997056 0.53695424 0.000206975 -0.000437659 0 0 0 0
516028500 0.02181422 0.796098624 0.000389151 6.3648e-05 0 0 0 0
528028000 0.565160128 0.496056096 0.000450729 0.000171237 0 0 0 0
540027500 0.696258304 -0.063354256 0.000230797 0.000265179 0 0 0 0
552027000 0.394327936 -0.511066784 -0.000101147 8.171e-06 0 0 0 0
564026500 -0.1166582 -0.600150592 2.6e-05 0.000310725 0 0 0 0
576026000 -0.532441856 -0.286619808 0.00012164 0.000222473 0 0 0 0
588025500 -0.543466304 0.25075096 0.000358223 0.000274198 0 0 0 0
600025000 -0.057136756 0.601983616 0.000537279 9.6342e-05 0 0 0 0
612024500 0.569186304 0.331566976 0.000257845 -0.000169941 0 0 0 0
624024000 0.6264432 -0.398424256 0.000174273 -0.000137393 0 0 0 0
636023500 0.033709996 -0.801121088 -0.000331678 0.000243214 0 0 0 0
648023000 -0.58519936 -0.5665344 -0.000209707 0.000182114 0 0 0 0
660022500 -0.788546624 -0.000787253 1.177e-06 0.000543941 0 0 0 0
672022000 -0.559520512 0.500562304 -2.3807e-05 6.985e-05 0 0 0 0
684021500 -0.080725656 0.703560512 0.000168149 0.000636635 0 0 0 0
696021000 0.38387136 0.5408848 0.000315641 0.000251647 0 0 0 0
708020500 0.595234688 0.096305992 -0.000356783 0.000237741 0 0 0 0
720020000 0.404426816 -0.372005184 -0.000806099 -0.00019374 0 0 0 0
732019500 -0.113556704 -0.529551136 -0.00089581 -0.000465643 0 0 0 0
744019000 -0.574305088 -0.144044224 -0.001103203 -0.000625458 0 0 0 0
756018500 -0.41283232 0.5288552 -0.001406743 0.000338692 0 0 0 0
768018000 0.328089024 0.653357376 -0.001166508 0.00054538 0 0 0 0
780017500 0.669212928 0.025210762 -0.000765656 9.3775e-05 0 0 0 0
792017000 0.408224224 -0.613179712 -0.001463597 -0.000628745 0 0 0 0
804016500 -0.210283008 -0.6975072 -0.000633453 -0.000756406 0 0 0 0
816016000 -0.60140512 -0.308629216 -0.000638774 6.8386e-05 0 0 0 0
828015500 -0.545913664 0.21594192 -0.000591191 0.000512434 0 0 0 0
840015000 -0.0768126 0.485528352 -0.000871484 0.000379085 0 0 0 0
852014500 0.430004448 0.137181584 -0.000402405 0.000876251 0 0 0 0
864014000 0.150490032 -0.538127488 -0.000881728 0.000501156 0 0 0 0
876013500 -0.624963904 -0.250508512 -0.000730323 0.002143295 0 0 0 0
888013000 -0.614326016 0.50451584 -0.001774751 -0.000174376 0 0 0 0
900012500 -0.013088473 0.804898496 -0.000919561 0.000687599 0 0 0 0
912012000 0.537370432 0.518006208 0.000333332 0.000265887 0 0 0 0
924011500 0.667985408 -0.027031616 -0.000399071 -0.000850502 0 0 0 0
936011000 0.371213152 -0.483484832 0.000702233 -0.000319504 0 0 0 0
948010500 -0.134423984 -0.575891712 0.001717568 -0.00133178 0 0 0 0
960010000 -0.508456544 -0.20675872 0.000309198 -0.000804446 0 0 0 0
972009500 -0.360467136 0.33805168 -0.000935408 -0.000445275 0 0 0 0
984009000 0.256993776 0.464898304 -0.000662263 0.000504851 0 0 0 0
996008500 0.654592064 -0.103735376 0.00028094 -0.002100543 0 0 0 0
1008008000 0.291373536 -0.71373216 0.000292089 -0.001830964 0 0 0 0
1020007500 -0.36132176 -0.72290176 -0.001240751 -0.002373625 0 0 0 0
1032007000 -0.726863552 -0.286465088 -0.003323016 -0.002612973 0 0 0 0
1044006500 -0.672557696 0.212765456 -0.002264632 -0.002024626 0 0 0 0
1056006000 -0.329643808 0.510317856 -0.003527108 -0.001750953 0 0 0 0
1068005500 0.090728232 0.509883168 -0.003589327 -0.00295148 0 0 0 0
1080005000 0.394533984 0.238043728 0.000606228 -0.001423123 0 0 0 0
1092004500 0.396694496 -0.156717264 0.001940766 -0.002637212 0 0 0 0
1104004000 0.078412376 -0.442533728 -0.001643997 -0.003246644 0 0 0 0
1116003500 -0.351448896 -0.332563008 -1.1476e-05 -0.002771876 0 0 0 0
1128003000 -0.511167776 0.100969224 -0.002124214 -0.002438712 0 0 0 0
1140002500 -0.167101808 0.482917472 2.7081e-05 -0.00259561 0 0 0 0
1152002000 0.354952736 0.305312224 -0.001298132 -0.001315386 0 0 0 0
1164001500 0.463411008 -0.289130208 -0.002296595 -0.003063121 0 0 0 0
1176001000 0.062047928 -0.678537088 -0.003459424 -0.000544148 0 0 0 0
1188000500 -0.414219744 -0.653352704 -0.002047587 -0.003818117 0 0 0 0
1200000000 -0.719298752 -0.329410656 -0.003634937 -0.002959008 0 0 0 0
