# HZ S RI R 50
135700 1.003454566 0.00258937 7.5982e-05 2.826e-06 0 0 0 0
135721 1.003440738 0.002626429 0.00013858 -1.4621e-05 0 0 0 0
135742 1.003513456 0.002693161 -5.2724e-05 2.296e-05 0 0 0 0
135763 1.003245354 0.002648882 6.3559e-05 -1.4981e-05 0 0 0 0
135784 1.003402829 0.002644118 6.6949e-05 6.9536e-05 0 0 0 0
135805 1.00332737 0.002725555 7.9732e-05 6.414e-06 0 0 0 0
135826 1.003507495 0.002676933 0.000112602 0.000111542 0 0 0 0
135847 1.003460765 0.002617574 -6.9578e-05 1.432e-05 0 0 0 0
135868 1.00331521 0.002675104 0.000110115 7.0824e-05 0 0 0 0
135889 1.003585816 0.00262408 4.3267e-05 -7.738e-06 0 0 0 0
135910 1.003372908 0.002569881 3.399e-05 -9.446e-06 0 0 0 0
135931 1.003249765 0.002512638 4.4063e-05 2.046e-06 0 0 0 0
135952 1.00343132 0.00250058 0.000134226 2.2625e-05 0 0 0 0
135973 1.00347352 0.002570235 1.3972e-05 0.000112123 0 0 0 0
135994 1.003565908 0.002489067 -2.5498e-05 -2.2719e-05 0 0 0 0
136015 1.003468752 0.002767932 2.3769e-05 -4.0563e-05 0 0 0 0
136036 1.003324509 0.002806593 -8.5157e-05 3.4823e-05 0 0 0 0
136057 1.003531098 0.002630376 9.247e-05 3.1821e-05 0 0 0 0
136078 1.003302336 0.002539902 4.5824e-05 1.5422e-05 0 0 0 0
136099 1.00367713 0.002546701 3.2065e-05 -1.1433e-05 0 0 0 0
136120 1.003424168 0.002617363 -2.357e-06 5.8709e-05 0 0 0 0
136141 1.003348351 0.002533851 5.7853e-05 7.0204e-05 0 0 0 0
136162 1.003831148 0.002481812 -5.7568e-05 2.6931e-05 0 0 0 0
136183 1.003438711 0.002542332 7.1618e-05 -1.952e-06 0 0 0 0
136204 1.003272295 0.002545396 3.9086e-05 -0.000101428 0 0 0 0
136225 1.003206968 0.002592395 0.000107294 3.7168e-05 0 0 0 0
136246 1.003566623 0.002564274 7.032e-06 6.376e-06 0 0 0 0
136267 1.003459811 0.002425 5.0378e-05 -1.8534e-05 0 0 0 0
136288 1.003303528 0.002585565 5.3689e-05 0.000123967 0 0 0 0
136309 1.003647447 0.00262963 1.5675e-05 3.6431e-05 0 0 0 0
136330 1.003305674 0.002511513 5.826e-05 -8.9831e-05 0 0 0 0
136351 1.003322721 0.002623601 0.000107305 -0.000107809 0 0 0 0
136372 1.003226519 0.002655827 4.1101e-05 1.8025e-05 0 0 0 0
136393 1.00331831 0.002633909 1.9607e-05 7.0524e-05 0 0 0 0
136414 1.003476262 0.002396065 -1.8097e-05 4.2037e-05 0 0 0 0
136435 1.003520608 0.002512262 -7.2429e-05 -3.851e-05 0 0 0 0
136456 1.003457546 0.002366524 -8.29e-07 -8.9409e-05 0 0 0 0
136477 1.003394723 0.002676468 8.4354e-05 -1.4525e-05 0 0 0 0
136498 1.003525972 0.002296069 8.2561e-05 -2.8331e-05 0 0 0 0
136519 1.003435493 0.002582221 4.0314e-05 -6.8903e-05 0 0 0 0
136540 1.003520489 0.00269434 2.5258e-05 1.3125e-05 0 0 0 0
136561 1.003471971 0.002710349 1.5945e-05 -5.468e-05 0 0 0 0
136582 1.003500581 0.002587269 6.2653e-05 2.362e-06 0 0 0 0
136603 1.003409505 0.002431626 7.45e-06 5.129e-06 0 0 0 0
136624 1.00359118 0.002368848 -7.6762e-05 -3.7497e-05 0 0 0 0
136645 1.003469229 0.002531255 1.0017e-05 4.5307e-05 0 0 0 0
136666 1.00318408 0.002709766 1.4787e-05 1.7888e-05 0 0 0 0
136687 1.003452301 0.002607107 7.8297e-05 -1.0888e-05 0 0 0 0
136708 1.003430367 0.002641485 6.105e-06 -6.1441e-05 0 0 0 0
136729 1.003557086 0.002663961 9.478e-06 -2.4082e-05 0 0 0 0
136750 1.00352335 0.002506299 2.3797e-05 -3.571e-06 0 0 0 0
136771 1.003310204 0.002471471 -8.413e-06 -6.7722e-05 0 0 0 0
136792 1.003415704 0.002636127 8.7747e-05 -3.723e-06 0 0 0 0
136813 1.003429413 0.00268134 -3.0118e-05 1.628e-05 0 0 0 0
136834 1.003379583 0.002468976 -4.6672e-05 2.1642e-05 0 0 0 0
136855 1.003373385 0.002553827 5.3357e-05 0.000134521 0 0 0 0
136876 1.003456235 0.002703013 8.933e-05 2.0491e-05 0 0 0 0
136897 1.00337708 0.002514154 -6.7162e-05 -5.7312e-05 0 0 0 0
136918 1.003338456 0.002554122 3.5002e-05 -5.4719e-05 0 0 0 0
136939 1.003212333 0.002503597 -3.3637e-05 7.366e-05 0 0 0 0
136960 1.003268957 0.002573233 -3.2099e-05 6.9344e-05 0 0 0 0
136981 1.003341079 0.00269773 -7.431e-05 -9.3782e-05 0 0 0 0
137002 1.003549934 0.00252661 1.6773e-05 -0.000122165 0 0 0 0
137023 1.00367415 0.002425396 0.000122769 -1.485e-06 0 0 0 0
137044 1.003283739 0.002626732 0.000131335 4.0971e-05 0 0 0 0
137065 1.003276348 0.002395024 0.000125332 6.1335e-05 0 0 0 0
137086 1.003330231 0.002676335 5.0124e-05 -5.8616e-05 0 0 0 0
137107 1.003518462 0.002676197 2.0603e-05 -7.5728e-05 0 0 0 0
137128 1.003430724 0.002489373 4.167e-06 -3.628e-06 0 0 0 0
137149 1.003675461 0.002585995 3.53e-06 6.45e-05 0 0 0 0
137170 1.003480315 0.002686492 0.000129901 -5.7883e-05 0 0 0 0
137191 1.003546476 0.002582432 4.8885e-05 -1.7816e-05 0 0 0 0
137212 1.003732324 0.002752943 3.6014e-05 -6.145e-06 0 0 0 0
137233 1.003536582 0.002513297 8.7381e-05 -6.1792e-05 0 0 0 0
137254 1.003408075 0.002589884 -2.7615e-05 -0.000134731 0 0 0 0
137275 1.003289104 0.002554385 7.9989e-05 -4.4305e-05 0 0 0 0
137296 1.003359795 0.002753704 -2.7319e-05 -4.8362e-05 0 0 0 0
137317 1.003408432 0.002383975 3.8236e-05 -8.3873e-05 0 0 0 0
137338 1.003524423 0.002395247 -8.9315e-05 2.3373e-05 0 0 0 0
137359 1.003561854 0.002338753 5.3542e-05 -0.000128196 0 0 0 0
137380 1.003341198 0.002688967 -3.2e-08 -2.161e-05 0 0 0 0
137401 1.00371325 0.002674372 6.8867e-05 7.603e-06 0 0 0 0
137422 1.003347755 0.002443708 -0.000101986 -3.2035e-05 0 0 0 0
137443 1.003458142 0.002533022 -7.318e-06 -2.0132e-05 0 0 0 0
137464 1.003490925 0.002772661 1.533e-05 -8.114e-05 0 0 0 0
137485 1.003589273 0.00270386 4.5034e-05 2.4774e-05 0 0 0 0
137506 1.003697872 0.002625855 8.6152e-05 -1.366e-05 0 0 0 0
137527 1.003533244 0.002657104 -8.8066e-05 -5.2313e-05 0 0 0 0
137548 1.003562212 0.002517386 5.3002e-05 -9.2879e-05 0 0 0 0
137569 1.003331781 0.002710831 -4.6796e-05 -6.6503e-05 0 0 0 0
137590 1.003560424 0.00257957 0.000126838 -6.7519e-05 0 0 0 0
137611 1.003685832 0.002400326 9.0617e-05 3.7145e-05 0 0 0 0
137632 1.003579855 0.002796767 -2.3522e-05 -7.156e-05 0 0 0 0
137653 1.003505826 0.002559493 -1.6342e-05 5.6285e-05 0 0 0 0
137674 1.003606796 0.002625213 1.9936e-05 7.8656e-05 0 0 0 0
137695 1.003574133 0.002510518 2.006e-05 4.188e-05 0 0 0 0
137716 1.003677249 0.002621981 -1.7496e-05 1.9542e-05 0 0 0 0
137737 1.003371954 0.002676738 4.3782e-05 6.269e-06 0 0 0 0
137758 1.003550172 0.002612414 0.000100693 -6.0843e-05 0 0 0 0
137779 1.00365305 0.002462283 4.3573e-05 7.7335e-05 0 0 0 0
137800 1.003624916 0.002531791 9.6783e-05 5.8505e-05 0 0 0 0
