# HZ S RI R 50
30000 0.1834269338891796 -0.0546191708600766 0.748344832 0.014209086 0 0 0 0
15029700 0.17396400348445698 -0.012102337383087148 0.695136384 -0.2548748 0 0 0 0
30029400 0.166904640378237 -0.020710917353856835 0.569133696 -0.481942624 0 0 0 0
45029100 0.15727609398743755 -0.0248637880179867 0.36758208 -0.65767296 0 0 0 0
60028800 0.15030089201301874 -0.02329104240494885 0.110959752 -0.74988576 0 0 0 0
75028500 0.14755924667768094 -0.018332944784408348 -0.166537008 -0.742500672 0 0 0 0
90028200 0.14918031193937584 -0.01433281290412509 -0.423891168 -0.634073088 0 0 0 0
105027900 0.1553090208010198 -0.013795200528444454 -0.618290176 -0.436985664 0 0 0 0
120027600 0.16166451957848782 -0.017916150560652662 -0.733475072 -0.188211408 0 0 0 0
135027300 0.16595643098498483 -0.026832503614577605 -0.73651936 0.081260048 0 0 0 0
150027000 0.16585588623175804 -0.03803959810421269 -0.652778752 0.325833408 0 0 0 0
165026700 0.16047314681804367 -0.048753013964406525 -0.49915088 0.523746144 0 0 0 0
180026400 0.15150600508886788 -0.05543545470863013 -0.292773888 0.660297984 0 0 0 0
195026100 0.14139152763640184 -0.05705813098387065 -0.051258676 0.722490112 0 0 0 0
210025800 0.13285373505543988 -0.0541010216967678 0.20220168 0.700583232 0 0 0 0
225025500 0.12873864461526385 -0.048911049612013785 0.438187616 0.590356992 0 0 0 0
240025200 0.12936438978656759 -0.043744283546618135 0.621611776 0.399711776 0 0 0 0
255024900 0.13348910679457032 -0.041339566724981104 0.726240832 0.151246144 0 0 0 0
270024600 0.13968724933710336 -0.043627589536059025 0.732160768 -0.121212552 0 0 0 0
285024300 0.14402014524860673 -0.04945131712666713 0.6331152 -0.372373216 0 0 0 0
300024000 0.14487406729738778 -0.059147885054917845 0.460924224 -0.573528064 0 0 0 0
315023700 0.14025934264791026 -0.06900311795459858 0.234847568 -0.684222976 0 0 0 0
330023400 0.13055137874986072 -0.0775497723798895 -0.007597708 -0.7122736 0 0 0 0
345023100 0.11860564446069372 -0.08091224232444062 -0.244158848 -0.661108672 0 0 0 0
360022800 0.1080642813757732 -0.07924420440086564 -0.45211712 -0.539216704 0 0 0 0
375022500 0.0984799752456984 -0.07496644227380363 -0.60902336 -0.356390912 0 0 0 0
390022200 0.095792649437983 -0.06609974059731323 -0.696684288 -0.125689432 0 0 0 0
405021900 0.09542984182974917 -0.05830228357628841 -0.704418112 0.127789888 0 0 0 0
420021600 0.10030418936957337 -0.05416708547106794 -0.612513472 0.37142688 0 0 0 0
435021300 0.10801579164361262 -0.05285316190555632 -0.432173696 0.568847936 0 0 0 0
450021000 0.11297215781477725 -0.05823662253362644 -0.189465936 0.682391168 0 0 0 0
465020700 0.11634663267240963 -0.0662797788156742 0.07324516 0.692579008 0 0 0 0
480020400 0.11154050382883347 -0.07780978126131287 0.308697984 0.609015104 0 0 0 0
495020100 0.10258928915035882 -0.08799137376053319 0.492289472 0.45511824 0 0 0 0
510019800 0.09036479622930946 -0.09328628962096876 0.608695168 0.257548 0 0 0 0
525019500 0.078106925248377 -0.09214596593478808 0.656942848 0.039894788 0 0 0 0
540019200 0.0668983258745099 -0.08264171000962983 0.637285568 -0.181006224 0 0 0 0
555018900 0.05949309980466207 -0.07036423752832204 0.546673472 -0.3867448 0 0 0 0
570018600 0.05728836638728007 -0.05700755543305284 0.391586976 -0.554815616 0 0 0 0
585018300 0.06062043130501819 -0.04687593539112048 0.179035296 -0.66638464 0 0 0 0
600018000 0.06660401780333071 -0.043242540689635206 -0.054204488 -0.689220352 0 0 0 0
615017700 0.07564927461379096 -0.04241718436717804 -0.303186656 -0.628655168 0 0 0 0
630017400 0.08375620353442079 -0.050815276317417904 -0.516398304 -0.47813824 0 0 0 0
645017100 0.08740841317418135 -0.06017366948411287 -0.659180672 -0.252818288 0 0 0 0
660016800 0.08485615461888457 -0.06713605111088304 -0.702874944 -5.91e-07 0 0 0 0
675016500 0.07533789158052946 -0.07588700325471809 -0.657312832 0.250800944 0 0 0 0
690016200 0.061697993107042805 -0.07743509405794075 -0.529208256 0.456000512 0 0 0 0
705015900 0.04606539487737444 -0.07057515885628853 -0.345960512 0.608704448 0 0 0 0
720015600 0.03172544003424191 -0.05462557873251053 -0.122846976 0.684416832 0 0 0 0
735015300 0.02208513340606259 -0.0358513398969404 0.10722032 0.683098624 0 0 0 0
750015000 0.021534404330636428 -0.020863470613380668 0.322916576 0.603614592 0 0 0 0
765014700 0.02958237833372942 -0.0061283430940322625 0.501950848 0.457121824 0 0 0 0
780014400 0.04873072081065941 0.02752559554108445 0.606473856 0.24048072 0 0 0 0
795014100 0.05659137431428221 -0.001319421853128868 0.669819264 0.010567469 0 0 0 0
810013800 0.06967076292120677 -0.005843152674031577 0.628524352 -0.242744992 0 0 0 0
825013500 0.07450459093138521 -0.01813916433172013 0.495186976 -0.46269776 0 0 0 0
840013200 0.07740426988962949 -0.027187108594278385 0.2962536 -0.613374464 0 0 0 0
855012900 0.07034899397518868 -0.04368278429140114 0.064799108 -0.681854272 0 0 0 0
870012600 0.058790586411873236 -0.042756665242029535 -0.096219088 -0.642191552 0 0 0 0
885012300 0.03835331514010026 -0.04361353367779208 -0.294879328 -0.541630784 0 0 0 0
900012000 0.023200101677953576 -0.02959213498107629 -0.456798784 -0.398679552 0 0 0 0
915011700 0.020877131192287297 -0.005692930492808496 -0.587281792 -0.109498648 0 0 0 0
930011400 0.01923777709574654 0.014967122598188744 -0.55695968 0.2018856 0 0 0 0
945011100 0.026810304543249626 0.02706758806696932 -0.3855728 0.459553536 0 0 0 0
960010800 0.04047653427462525 0.032708645580113035 -0.105248616 0.6015696 0 0 0 0
975010500 0.0625726971552578 0.02927035868575065 0.214608304 0.5796576 0 0 0 0
990010200 0.06895949624278035 0.027475809337571863 0.498006592 0.391388224 0 0 0 0
1005009900 0.08380991216525092 0.011737456988030968 0.636815232 0.07243712 0 0 0 0
1020009600 0.0932544508566823 -0.0021779780744228504 0.58264 -0.26821312 0 0 0 0
1035009300 0.09724871115153969 -0.011481814636032766 0.360232832 -0.527754656 0 0 0 0
1050009000 0.08835986967224456 -0.02031716046026133 0.043566388 -0.637367296 0 0 0 0
1065008700 0.07833601160170696 -0.004958368510779764 -0.265544032 -0.577027968 0 0 0 0
1080008400 0.06617394989902114 -0.002087449549820166 -0.50597264 -0.377424704 0 0 0 0
1095008100 0.06581206675574258 0.012858459302995565 -0.614950272 -0.098660608 0 0 0 0
1110007800 0.07348949605123929 0.03729844606784805 -0.584127104 0.184965152 0 0 0 0
1125007500 0.09162852288103782 0.046150823147853556 -0.423896832 0.41607424 0 0 0 0
1140007200 0.10100608520899486 0.04817874472338192 -0.176447664 0.546758016 0 0 0 0
1155006900 0.11290314303249506 0.0766028352982995 0.10467496 0.542006464 0 0 0 0
1170006600 0.12749607557383308 0.055665139957124216 0.35865728 0.385802368 0 0 0 0
1185006300 0.13919344704613934 0.057424876833911356 0.49400416 0.113399256 0 0 0 0
1200006000 0.1341784687507853 0.03043895831854467 0.448831776 -0.193006752 0 0 0 0
1215005700 0.12966746686640607 -0.0052892210783466054 0.259455056 -0.421748704 0 0 0 0
1230005400 0.12197165407906777 -0.008940223649185201 -0.01756566 -0.517379808 0 0 0 0
1245005100 0.11088788155939194 0.0026017699233920268 -0.288319136 -0.462425504 0 0 0 0
1260004800 0.13325945757420835 -0.0021952506580026486 -0.507308608 -0.278467168 0 0 0 0
1275004500 0.12604224378054968 0.006075397908780192 -0.60372832 -0.01834009 0 0 0 0
1290004200 0.11998164864054242 0.011239029875328604 -0.564950144 0.244794992 0 0 0 0
1305003900 0.14894723939970883 0.040163278841941825 -0.420356 0.464520512 0 0 0 0
1320003600 0.1549413576142443 0.07587334068157121 -0.189328512 0.578765056 0 0 0 0
1335003300 0.18829881725058065 0.04046210519414105 0.115189912 0.581667584 0 0 0 0
1350003000 0.21276096119306423 0.03923635466371978 0.365247264 0.439220032 0 0 0 0
1365002700 0.2177555890812701 0.026445302397376316 0.494980096 0.194882864 0 0 0 0
1380002400 0.24695633733194092 0.017248892583216175 0.488005888 -0.101243616 0 0 0 0
1395002100 0.23357828359573612 0.0014794943622016884 0.365707264 -0.331402496 0 0 0 0
1410001800 0.2109065419564988 -0.020461373364806443 0.119850336 -0.4126872 0 0 0 0
1425001500 0.23851537774602424 -0.03493915239574443 -0.106319656 -0.372149184 0 0 0 0
1440001200 0.21900062915160087 -0.0369232462447204 -0.266767744 -0.212421296 0 0 0 0
1455000900 0.19801918971968688 -0.011892932124652596 -0.69370464 -0.07971 0 0 0 0
1470000600 0.179169368089084 -0.005566164088875589 -0.688715264 0.26320872 0 0 0 0
1485000300 0.18929820524223404 -0.015130316349945189 -0.520217536 0.537498432 0 0 0 0
1500000000 0.19479065542381724 0.006279989000293704 -0.241617904 0.664569664 0 0 0 0
