# HZ S RI R 50
50000 0.203154704 -0.02579964 0.751460928 -0.017333568 0 0 0 0
10049500 0.187368816 -0.030052046 0.738560256 -0.023816922 0 0 0 0
20049000 0.180461712 -0.056460188 0.736829312 -0.044495952 0 0 0 0
30048500 0.169651936 -0.081297536 0.735196672 -0.066020668 0 0 0 0
40048000 0.155441184 -0.10485172 0.73329696 -0.088188376 0 0 0 0
50047500 0.13827096 -0.125306904 0.731265856 -0.110085432 0 0 0 0
60047000 0.118513608 -0.142993568 0.729149312 -0.132876712 0 0 0 0
70046500 0.096658992 -0.157283776 0.726231616 -0.155958992 0 0 0 0
80046000 0.073529872 -0.168281328 0.722847936 -0.178993216 0 0 0 0
90045500 0.04957614 -0.17608776 0.719065664 -0.202610944 0 0 0 0
100045000 0.024982104 -0.18090152 0.7140816 -0.225884096 0 0 0 0
110044500 0.000432387 -0.1828392 0.708186432 -0.249577104 0 0 0 0
120044000 -0.023592402 -0.181774608 0.709351872 -0.276397664 0 0 0 0
130043500 -0.047935664 -0.17755472 0.694555968 -0.298672736 0 0 0 0
140043000 -0.071255496 -0.171010512 0.68739552 -0.324113824 0 0 0 0
150042500 -0.093894176 -0.161477216 0.677060928 -0.348417472 0 0 0 0
160042000 -0.115603128 -0.148982608 0.666483392 -0.373413728 0 0 0 0
170041500 -0.135872064 -0.133729312 0.65428352 -0.398161216 0 0 0 0
180041000 -0.15457824 -0.115596712 0.64010528 -0.4222392 0 0 0 0
190040500 -0.170926896 -0.094542984 0.623614976 -0.44574736 0 0 0 0
200040000 -0.184707072 -0.070779112 0.60558752 -0.468480352 0 0 0 0
210039500 -0.195295712 -0.044706132 0.586369728 -0.490433248 0 0 0 0
220039000 -0.202362816 -0.016981176 0.566052736 -0.510819744 0 0 0 0
230038500 -0.205230192 0.01210336 0.545131072 -0.52970512 0 0 0 0
240038000 -0.20368688 0.041579896 0.523097408 -0.546803136 0 0 0 0
250037500 -0.197622992 0.070860608 0.5005176 -0.561942976 0 0 0 0
260037000 -0.186851696 0.09869204 0.477623936 -0.575262528 0 0 0 0
270036500 -0.171696576 0.124847096 0.453633632 -0.587072768 0 0 0 0
280036000 -0.152497008 0.148323184 0.429869504 -0.59696192 0 0 0 0
290035500 -0.133256856 0.163806944 0.417743392 -0.61286944 0 0 0 0
300035000 -0.10833344 0.180726768 0.392845952 -0.616218368 0 0 0 0
310034500 -0.081290536 0.193688688 0.371923904 -0.624532224 0 0 0 0
320034000 -0.052640772 0.201955104 0.351678976 -0.629793152 0 0 0 0
330033500 -0.023916906 0.205305552 0.33249632 -0.634652352 0 0 0 0
340033000 0.00400502 0.20444848 0.313530208 -0.64088448 0 0 0 0
350032500 0.031206728 0.199620352 0.29392688 -0.64652832 0 0 0 0
360032000 0.05633622 0.190527904 0.276098912 -0.651586752 0 0 0 0
370031500 0.078998 0.178446048 0.258912832 -0.656704576 0 0 0 0
380031000 0.099448136 0.164118896 0.239968864 -0.662167168 0 0 0 0
390030500 0.116193712 0.14739304 0.222392016 -0.667763328 0 0 0 0
400030000 0.130301032 0.129597056 0.204511248 -0.674289792 0 0 0 0
410029500 0.141780208 0.109719072 0.186511712 -0.675777216 0 0 0 0
420029000 0.149822816 0.091724624 0.165243136 -0.680189376 0 0 0 0
430028500 0.155571424 0.073071096 0.14624616 -0.683204992 0 0 0 0
440028000 0.158660112 0.05427518 0.125597776 -0.68644128 0 0 0 0
450027500 0.159270704 0.03644396 0.10533812 -0.68875232 0 0 0 0
460027000 0.158125728 0.019881826 0.083436832 -0.690294656 0 0 0 0
470026500 0.155727184 0.002703202 0.063634576 -0.690857792 0 0 0 0
480026000 0.152811472 -0.01316695 0.041737012 -0.690991936 0 0 0 0
490025500 0.148201936 -0.028597 0.021723594 -0.690938432 0 0 0 0
500025000 0.14287936 -0.044035036 0.002309674 -0.690121152 0 0 0 0
510024500 0.13522888 -0.060076644 -0.017949306 -0.687787328 0 0 0 0
520024000 0.126748936 -0.074401592 -0.036231316 -0.686696 0 0 0 0
530023500 0.114016544 -0.088256432 -0.054388632 -0.68507904 0 0 0 0
540023000 0.101770528 -0.099439904 -0.073492328 -0.684883776 0 0 0 0
550022500 0.089348312 -0.110665792 -0.093845888 -0.685362368 0 0 0 0
560022000 0.075158264 -0.120684216 -0.115009952 -0.683403008 0 0 0 0
570021500 0.060646 -0.129647568 -0.136468128 -0.68216448 0 0 0 0
580021000 0.043609908 -0.137994544 -0.160168 -0.680790592 0 0 0 0
590020500 0.02511024 -0.144765088 -0.181185584 -0.68150304 0 0 0 0
600020000 0.004702804 -0.149020352 -0.203319872 -0.674817408 0 0 0 0
610019500 -0.016328512 -0.150812288 -0.230901728 -0.670468864 0 0 0 0
620019000 -0.039092416 -0.150670544 -0.256289536 -0.666102592 0 0 0 0
630018500 -0.061756152 -0.14797368 -0.281674432 -0.656607296 0 0 0 0
640018000 -0.08484264 -0.139042144 -0.30957104 -0.647677056 0 0 0 0
650017500 -0.108812144 -0.16936624 -0.272951136 -0.659902144 0 0 0 0
660017000 -0.12733032 -0.115168968 -0.364470944 -0.626247872 0 0 0 0
670016500 -0.145598336 -0.098400416 -0.389799488 -0.610410816 0 0 0 0
680016000 -0.16068712 -0.078305648 -0.414624192 -0.595453184 0 0 0 0
690015500 -0.172672416 -0.056130036 -0.437661152 -0.578281792 0 0 0 0
700015000 -0.181251392 -0.033189468 -0.45972448 -0.560934464 0 0 0 0
710014500 -0.184854992 -0.008900483 -0.479674976 -0.542097024 0 0 0 0
720014000 -0.186055232 0.016268591 -0.497969728 -0.523589664 0 0 0 0
730013500 -0.181726496 0.039641944 -0.513751872 -0.503516544 0 0 0 0
740013000 -0.174996176 0.062977904 -0.528453888 -0.484658432 0 0 0 0
750012500 -0.164531152 0.083285448 -0.540628416 -0.46618608 0 0 0 0
760012000 -0.150390608 0.101122944 -0.549737152 -0.445710048 0 0 0 0
770011500 -0.135508704 0.117041696 -0.55851808 -0.428636896 0 0 0 0
780011000 -0.118392736 0.129008296 -0.585905472 -0.410701504 0 0 0 0
790010500 -0.101869024 0.137744368 -0.570239872 -0.394786176 0 0 0 0
800010000 -0.085223872 0.145093296 -0.57543776 -0.37855216 0 0 0 0
810009500 -0.06845968 0.148360464 -0.57978368 -0.361741312 0 0 0 0
820009000 -0.053030908 0.151122784 -0.582669056 -0.347350848 0 0 0 0
830008500 -0.04044376 0.151380448 -0.584277696 -0.331557728 0 0 0 0
840008000 -0.02893048 0.15029152 -0.5870592 -0.316568096 0 0 0 0
850007500 -0.017501828 0.149318448 -0.589953216 -0.301131232 0 0 0 0
860007000 -0.008413002 0.149508112 -0.592662592 -0.28618624 0 0 0 0
870006500 -0.006878814 0.16568776 -0.6326656 -0.281742112 0 0 0 0
880006000 -0.002835084 0.16567152 -0.63591392 -0.268866272 0 0 0 0
890005500 0.005042527 0.168050432 -0.641487744 -0.257903872 0 0 0 0
900005000 0.011564975 0.172396464 -0.646247616 -0.247119024 0 0 0 0
910004500 0.011238479 0.172464096 -0.689489472 -0.150380368 0 0 0 0
920004000 0.030732566 0.169074672 -0.676640704 -0.059313212 0 0 0 0
930003500 0.045441192 0.166412384 -0.678489792 0.031930314 0 0 0 0
940003000 0.061671352 0.164666816 -0.660229376 0.121001632 0 0 0 0
950002500 0.075710312 0.162004464 -0.631761536 0.20531064 0 0 0 0
960002000 0.09214956 0.155187872 -0.593965824 0.285644608 0 0 0 0
970001500 0.112310488 0.14447032 -0.546219776 0.357570656 0 0 0 0
980001000 0.13136852 0.13183808 -0.491403392 0.423121248 0 0 0 0
990000500 0.148860608 0.11278792 -0.42558592 0.477394624 0 0 0 0
1000000000 0.167317216 0.094123728 -0.357538528 0.53049856 0 0 0 0
