# HZ S RI R 50
50000 0.12417752 -0.031986602 0.854058624 -0.014556194 0 0 0 0
9049500 0.078894856 -0.079010912 0.737531456 -0.400117216 0 0 0 0
18049000 0.005582305 -0.102631344 0.461898144 -0.702027648 0 0 0 0
27048500 -0.047122704 -0.0698068 0.071515328 -0.837049664 0 0 0 0
36048000 -0.04971672 -0.025582616 -0.333340672 -0.766382848 0 0 0 0
45047500 -0.02308425 -0.012749482 -0.6512672 -0.515105376 0 0 0 0
54047000 -0.008221122 -0.03516734 -0.81439264 -0.1505596 0 0 0 0
63046500 -0.027233602 -0.063200692 -0.792576896 0.250016032 0 0 0 0
72046000 -0.068586808 -0.068096776 -0.583638848 0.598210624 0 0 0 0
81045500 -0.108189176 -0.041725768 -0.228066336 0.80677952 0 0 0 0
90045000 -0.126531304 0.006835462 0.186956592 0.816733056 0 0 0 0
99044500 -0.113803328 0.06094328 0.54998304 0.624404864 0 0 0 0
108044000 -0.069135768 0.099921384 0.77107168 0.28514736 0 0 0 0
117043500 -0.008130774 0.101735472 0.804655488 -0.108590624 0 0 0 0
126043000 0.035392056 0.062138652 0.658255616 -0.46719488 0 0 0 0
135042500 0.032820762 0.008522501 0.367846272 -0.719259264 0 0 0 0
144042000 -0.009612964 -0.013820137 -0.010402382 -0.813021248 0 0 0 0
153041500 -0.046798404 0.017466532 -0.39624992 -0.716141184 0 0 0 0
162041000 -0.03186262 0.07399928 -0.688851776 -0.439450688 0 0 0 0
171040500 0.037755044 0.095719744 -0.808165696 -0.059284468 0 0 0 0
180040000 0.108985808 0.047862804 -0.736018368 0.323483776 0 0 0 0
189039500 0.121750984 -0.043781932 -0.500546624 0.626736576 0 0 0 0
198039000 0.065870396 -0.114983616 -0.150477536 0.79042208 0 0 0 0
207038500 -0.014514904 -0.124831624 0.2411376 0.770500224 0 0 0 0
216038000 -0.066103572 -0.084445112 0.576946816 0.56290624 0 0 0 0
225037500 -0.069598592 -0.037165672 0.77234688 0.222612176 0 0 0 0
234037000 -0.04493786 -0.020817118 0.78411904 -0.164901392 0 0 0 0
243036500 -0.029027682 -0.037482672 0.61778432 -0.513462912 0 0 0 0
252036000 -0.04516902 -0.066055188 0.306004736 -0.746684672 0 0 0 0
261035500 -0.092223776 -0.075926424 -0.087064896 -0.80465632 0 0 0 0
270035000 -0.148846992 -0.046238976 -0.466864096 -0.663689344 0 0 0 0
279034500 -0.182640672 0.025454222 -0.725309568 -0.353125408 0 0 0 0
288034000 -0.163425504 0.11566596 -0.79059552 0.036605536 0 0 0 0
297033500 -0.087695992 0.178466672 -0.670667776 0.399190848 0 0 0 0
306033000 0.016308064 0.177701792 -0.407573248 0.650148736 0 0 0 0
315032500 0.090338944 0.111467552 -0.07043516 0.75663328 0 0 0 0
324032000 0.092558736 0.020284794 0.279379392 0.709915968 0 0 0 0
333031500 0.033182462 -0.029142842 0.586831296 0.510628704 0 0 0 0
342031000 -0.030938282 -0.002314448 0.767465472 0.173173184 0 0 0 0
351030500 -0.031940412 0.069392632 0.757629056 -0.218127616 0 0 0 0
360030000 0.043537164 0.110151504 0.560680192 -0.547268224 0 0 0 0
369029500 0.136547568 0.068373792 0.23869072 -0.738651136 0 0 0 0
378029000 0.171663632 -0.039795456 -0.127870488 -0.765051072 0 0 0 0
387028500 0.120608232 -0.14177648 -0.470646304 -0.622543296 0 0 0 0
396028000 0.020939844 -0.181727424 -0.712843328 -0.32997616 0 0 0 0
405027500 -0.068770272 -0.152545872 -0.78339104 0.047540024 0 0 0 0
414027000 -0.107620232 -0.087529968 -0.663969344 0.412391872 0 0 0 0
423026500 -0.094401784 -0.03465632 -0.389090816 0.67441792 0 0 0 0
432026000 -0.060994996 -0.023319704 -0.022063164 0.777902336 0 0 0 0
441025500 -0.046957148 -0.05096974 0.35318432 0.696524736 0 0 0 0
450025000 -0.080629912 -0.089298208 0.6482496 0.44533856 0 0 0 0
459024500 -0.15781072 -0.089446224 0.77399072 0.068420504 0 0 0 0
468024000 -0.236638 -0.019842062 0.68671232 -0.319571648 0 0 0 0
477023500 -0.256761344 0.105832328 0.4227712 -0.597672768 0 0 0 0
486023000 -0.181239488 0.228863568 0.084868144 -0.705094912 0 0 0 0
495022500 -0.037890696 0.27735776 -0.23644544 -0.65437536 0 0 0 0
504022000 0.101165016 0.2231976 -0.500287584 -0.484229824 0 0 0 0
513021500 0.162115984 0.098613672 -0.66970112 -0.229643888 0 0 0 0
522021000 0.11858104 -0.014400515 -0.72273696 0.09547516 0 0 0 0
531020500 0.019603882 -0.038224484 -0.605443264 0.431761088 0 0 0 0
540020000 -0.0375236 0.033180148 -0.321357152 0.673025216 0 0 0 0
549019500 0.010113786 0.120002184 0.042338412 0.73208448 0 0 0 0
558019000 0.128125232 0.122650432 0.378864832 0.616759488 0 0 0 0
567018500 0.21530776 0.020115684 0.620264832 0.36952784 0 0 0 0
576018000 0.200284768 -0.120892112 0.72952864 0.039637272 0 0 0 0
585017500 0.097992288 -0.214571616 0.67513248 -0.306792128 0 0 0 0
594017000 -0.030951562 -0.219119984 0.45385088 -0.598233984 0 0 0 0
603016500 -0.11302136 -0.155987408 0.124705624 -0.734012736 0 0 0 0
612016000 -0.133016392 -0.07729916 -0.232397552 -0.700382144 0 0 0 0
621015500 -0.104020048 -0.030455376 -0.538157568 -0.50841136 0 0 0 0
630015000 -0.069298824 -0.036667576 -0.725504192 -0.190676928 0 0 0 0
639014500 -0.075519976 -0.078452256 -0.742764864 0.19090304 0 0 0 0
648014000 -0.142282 -0.107437456 -0.56219104 0.543087808 0 0 0 0
657013500 -0.242136736 -0.07000468 -0.21890984 0.74455616 0 0 0 0
666013000 -0.308568672 0.049025684 0.167013696 0.730937984 0 0 0 0
675012500 -0.27941984 0.205599248 0.463264064 0.5400896 0 0 0 0
684012000 -0.147570928 0.320795168 0.621196608 0.267781552 0 0 0 0
693011500 0.027025142 0.33156784 0.654027328 -0.021957928 0 0 0 0
702011000 0.16461864 0.233868016 0.585072896 -0.307194208 0 0 0 0
711010500 0.196369056 0.084878088 0.394971584 -0.554792576 0 0 0 0
720010000 0.119684784 -0.022288496 0.0854188 -0.713025152 0 0 0 0
729009500 0.011613847 -0.01719893 -0.290999616 -0.691887488 0 0 0 0
738009000 -0.019893712 0.075381312 -0.6015552 -0.46714016 0 0 0 0
747008500 0.063709564 0.14846232 -0.745710848 -0.131698832 0 0 0 0
756008000 0.191593008 0.112640016 -0.714076352 0.222159104 0 0 0 0
765007500 0.253139232 -0.02478893 -0.524305536 0.517997568 0 0 0 0
774007000 0.20034464 -0.172663456 -0.214263184 0.699828672 0 0 0 0
783006500 0.070140608 -0.248379152 0.149082992 0.712024448 0 0 0 0
792006000 -0.064239944 -0.230331488 0.47411664 0.547579328 0 0 0 0
801005500 -0.145021824 -0.147163184 0.681249024 0.258928864 0 0 0 0
810005000 -0.150661376 -0.056448852 0.733130432 -0.08318488 0 0 0 0
819004500 -0.10232204 -0.006955348 0.627006208 -0.410330752 0 0 0 0
828004000 -0.05450674 -0.025134274 0.375472352 -0.657279808 0 0 0 0
837003500 -0.062629976 -0.0861922 0.016942668 -0.757984832 0 0 0 0
846003000 -0.151968 -0.12456848 -0.35399584 -0.652539968 0 0 0 0
855002500 -0.27084736 -0.064476932 -0.605519168 -0.362952832 0 0 0 0
864002000 -0.328033408 0.091028416 -0.661148992 -0.0144561 0 0 0 0
873001500 -0.284380896 0.27129392 -0.533396192 0.260836064 0 0 0 0
882001000 -0.109555168 0.378840096 -0.35943152 0.466030816 0 0 0 0
891000500 0.087474272 0.353349024 -0.139460416 0.593657536 0 0 0 0
900000000 0.221201728 0.2170356 0.125396568 0.645415872 0 0 0 0
