#  HZ   S   DB   R     50.0 
! Rohde & Schwarz ZVL13 2Ports - Version 3.20 - 1303.6509k13 SN: 100953
! Date: 2024-10-09 08:15:34
! Data & Calibration Information:
! Trc1:S11(Cal Off) Trc4:S21(Cal Off) Trc2:S12(Cal Off) Trc3:S22(Cal Off)
! 
! 
! 
 9.000000000000000E3    -1.912124088709515E1  -1.339495683929288E1  -1.163693429028912  -1.263132263907948E-3  -1.149367880925806  -3.536155045920971E-1  -1.858470207792499E1  -1.039379535275544E1  
 3.000895500000000E7    -2.855781632979640E1   1.657649691180950E2  -1.891564812293738   1.783182229890426E2  -1.859798707472109   1.782537554417932E2  -2.982930211125962E1   1.729442004477384E2  
 6.000891000000000E7    -1.943968139986942E1   1.332252468997847E2  -2.058042895281150  -2.703099755967307  -1.953917766892613  -2.641145819715779  -1.963520961395707E1   1.366178883956045E2  
 9.000886500000000E7    -1.663797489829439E1  -3.831958521758617E1  -2.282342254586545   1.779237942611914E2  -2.317856139659309   1.777843997057765E2  -1.759626991646495E1  -3.926256065174983E1  
 1.200088200000000E8    -3.044479395941990E1   1.522590505744152E2  -2.519137257207149  -1.045902075013239  -2.550833741369339  -1.239899121916830  -3.651721799203467E1   1.632422229742178E2  
 1.500087750000000E8    -2.355325532800725E1  -1.758341732775796E2  -2.572793498522798  -1.799554102945202E2  -2.551134571383730   1.796469272750612E2  -2.212201972180500E1   1.744197159857367E2  
 1.800087300000000E8    -2.535621611148910E1   3.968488835111821E1  -2.627744293550899   1.259432759631561E-1  -2.603084692733193  -1.071217662458993E-1  -1.988290098437691E1   4.097318735129159  
 2.100086850000000E8    -1.908560876825321E1  -5.713881689559916E1  -2.781557390508986  -1.795059204639329E2  -2.858118567553421  -1.791760122990754E2  -2.270877645409916E1  -6.123477885153630E1  
 2.400086400000000E8    -1.163462972900550E1   1.222156801507152E2  -3.202896640265140   3.076176955479333E-1  -3.305696699630047   5.824361453747740E-2  -1.358609303314410E1   1.180249548252216E2  
 2.700085950000000E8    -1.377384140741356E1  -4.960966944887881E1  -3.651909757030473  -1.765862419811579E2  -3.602040165896431  -1.766385112550209E2  -1.813857059738454E1  -5.044282897166477E1  
 3.000085500000000E8    -2.638648765753488E1  -1.371480550632347E2  -3.586658219652009   5.297585201498720  -3.580792957730725   4.898172320960432  -2.125035148500639E1  -6.637873744022373E1  
 3.300085050000000E8    -3.871653754814074E1  -1.656509501593713E2  -3.717982103796864  -1.738482313273887E2  -3.645346908156615  -1.737626209937254E2  -1.617213170540779E1   1.558129320835956E2  
 3.600084600000000E8    -1.935809642030636E1   1.184051618979437E2  -3.664169438883749   7.114696456827399  -3.644570229751540   7.231181616100433  -2.474206136773583E1   9.181076942215256  
 3.900084150000000E8    -1.050677023259663E1  -4.452128970183566E1  -3.996530057040587  -1.741620377042977E2  -3.953320406988902  -1.741935589171675E2  -1.658663210593760E1  -7.310808736044322E1  
 4.200083700000000E8    -9.893177488119454   1.283528462291592E2  -4.739798435930694   7.686303918714638  -4.778651950842790   7.547819812611349  -1.533791917459491E1   1.306364240540647E2  
 4.500083250000000E8    -1.478330698469617E1  -1.197937418149224E1  -4.774237495941422  -1.674835234413803E2  -4.728693424836179  -1.676405685728752E2  -2.706701014771609E1   5.544263938257291E1  
 4.800082800000000E8    -1.935056073471835E1  -1.118192401472982E2  -4.986117775613640   1.460333302583585E1  -4.957382264346625   1.409508201092463E1  -1.189706763790280E1  -5.802232951884003E1  
 5.100082350000000E8    -2.544450511605707E1  -8.016078342826594E1  -4.751365484069451  -1.628209262238509E2  -4.789839754240877  -1.632324941661252E2  -1.576017006909727E1   1.524148382592648E2  
 5.400081900000000E8    -1.094260759930362E1   1.386676061070658E2  -4.924421428696689   1.708536678856110E1  -4.978379654777581   1.713012471655436E1  -2.245689893948841E1   6.200972821994618E1  
 5.700081450000000E8    -8.548696410076165  -4.445205421050265E1  -5.503259642257613  -1.634087971796326E2  -5.545476004005453  -1.629799399669342E2  -1.587293325096029E1  -3.234985768136773E1  
 6.000081000000000E8    -1.076882687910301E1   1.507066512280721E2  -6.050042528621824   2.233236891561425E1  -6.036953074076784   2.289520534237362E1  -1.994862723909953E1   1.765148111280396E2  
 6.300080550000000E8    -1.580695933192090E1   1.097356868443853E1  -5.942088505777984  -1.531193696828808E2  -6.024553714303406  -1.528173566767371E2  -1.455961274338833E1   1.046197316062108E2  
 6.600080100000000E8    -1.899041231042071E1  -5.662342096413793E1  -5.808649588168026   3.089917874771206E1  -5.815225635032552   3.156941094470024E1  -1.108955741416838E1  -4.282343293457419E1  
 6.900079650000000E8    -1.683570786692312E1  -5.980993287951155E1  -5.364515072571646  -1.470732825541276E2  -5.411908811267656  -1.475584864094109E2  -1.793343183838391E1  -1.712364409385234E2  
 7.200079200000000E8    -8.479824435719689   1.405398721377827E2  -5.651792479387641   3.103366958212294E1  -5.630729595234224   3.088492474463106E1  -1.336929736181494E1   1.417918007061186E2  
 7.500078750000000E8    -1.002683728372643E1  -2.285694173506753E1  -6.053371025215160  -1.447562444073057E2  -6.091164259926321  -1.454297943789561E2  -1.429837801456989E1  -8.856914564734101  
 7.800078300000000E8    -1.449434070061827E1   1.670929935948567E2  -5.923264097509478   3.995240139134498E1  -5.941534395513296   3.986886063031312E1  -1.895548105450233E1  -1.290639438826183E2  
 8.100077850000000E8    -1.723833034154999E1   1.092727550449783E2  -5.710989947598049  -1.392031710625930E2  -5.651475418707393  -1.392235795241907E2  -1.210797611074407E1   1.489971200853633E2  
 8.400077400000000E8    -1.978864359925088E1  -3.323724543141868E1  -5.508981741310478   4.306938920856761E1  -5.519329534380193   4.321438717403784E1  -1.306623098709912E1  -1.179755770192829E1  
 8.700076950000000E8    -1.054397986854713E1  -4.355197619843858E1  -5.284224661935266  -1.400692099738633E2  -5.270466613578658  -1.401175233061643E2  -1.519861849757462E1  -6.633457857283958E1  
 9.000076500000000E8    -8.196036240418083   1.669105197452752E2  -6.125052155562075   4.303249757501217E1  -6.133540857810716   4.286013919791122E1  -1.121570060544245E1   1.519392153551062E2  
 9.300076050000000E8    -1.245974607753053E1  -8.367014470654893E-1  -6.159774593878496  -1.321996159324134E2  -6.141792600914396  -1.330118230303165E2  -1.461799176445146E1   8.417760451705059  
 9.600075600000000E8    -2.013580933078667E1  -9.579327978567768E1  -5.706520870246459   4.782184206404312E1  -5.791748188847555   4.804463232242925E1  -1.611417822297426E1  -3.420708150795772E1  
 9.900075150000000E8    -1.420776050692952E1   1.220281311273417E2  -6.164016744161211  -1.310126209035240E2  -6.106790448083077  -1.309161900773969E2  -1.146929956810542E1   1.713124717383033E2  
 1.020007470000000E9    -3.291241401166442E1   1.718462879137238E2  -5.613259062867384   5.186676172142750E1  -5.613391183911131   5.202287837310364E1  -1.876757754014427E1   3.495047958703871E1  
 1.050007425000000E9    -8.951815300211546  -1.695429764156849E1  -6.074479894726542  -1.318285743293257E2  -6.085980409605373  -1.312282583442116E2  -1.254362641557909E1  -3.322805457423338E1  
 1.080007380000000E9    -9.123845150924126  -1.693296866739380E2  -6.883138706708007   5.158071911186073E1  -6.887371033139792   5.102011314458653E1  -1.188987974556104E1  -1.758297316229407E2  
 1.110007335000000E9    -1.716395713416686E1   7.904471761546905E1  -6.785250467839577  -1.240941526629825E2  -6.736388998445285  -1.237301928943233E2  -1.665654847079067E1   1.094443352524742E2  
 1.140007290000000E9    -1.662611937235034E1  -6.505632471346530E1  -6.979283364688755   5.672414512786801E1  -6.901136695293815   5.689674690952715E1  -1.341588811845325E1  -9.017118985770845  
 1.170007245000000E9    -1.579424028148758E1   1.280837901464834E2  -7.163568627495590  -1.168312280119651E2  -7.130171029777971  -1.170148627332978E2  -1.290913623679441E1  -1.755023604604004E2  
 1.200007200000000E9    -1.513225487873028E1  -1.726604186515400E2  -6.316922919600064   6.210003096900794E1  -6.263914161858070   6.213401819512345E1  -2.073829527380778E1   1.509665547166971E2  
 1.230007155000000E9    -8.668478502825838   1.272585295687839E1  -7.243574693081909  -1.212982279202532E2  -7.244265348387692  -1.216725590100093E2  -1.198116806281166E1   6.793901522873379  
 1.260007110000000E9    -1.219117330143251E1  -1.247647941554547E2  -7.879310460420404   6.644685702538338E1  -7.919759121661062   6.638877305914907E1  -1.389583107503516E1  -1.158386795261996E2  
 1.290007065000000E9    -1.658876824332513E1   1.133230231649375E2  -7.671933645920730  -1.092982473354244E2  -7.707629110514029  -1.095638871648744E2  -1.606461499782401E1   1.536819384562520E2  
 1.320007020000000E9    -1.856772060561382E1  -4.340154327047550E1  -7.692425791222989   7.524525218154163E1  -7.770051948978917   7.458075873439778E1  -1.518093678645331E1   1.247308093856103E1  
 1.350006975000000E9    -1.758764311457381E1   9.247319741907181E1  -7.111568588037713  -1.004401195244668E2  -7.181751311434153  -1.002699827746200E2  -1.970928693103983E1  -1.255146043746581E2  
 1.380006930000000E9    -1.343354046968260E1  -1.526813123168118E2  -6.536432793481480   7.443619356751115E1  -6.484738089645865   7.446254984168758E1  -1.359421704006321E1  -1.588908179490664E2  
 1.410006885000000E9    -1.054516542204207E1   4.344132017666346E1  -7.618040444718162  -1.031962147783128E2  -7.535316547053757  -1.032886420224875E2  -1.365346494532166E1   4.167368834307293E1  
 1.440006840000000E9    -1.607535485421288E1  -7.429119827853889E1  -7.495853507809886   8.092664906112455E1  -7.409641922643242   8.062035572258807E1  -2.036631261827369E1  -5.304402576646677E1  
 1.470006795000000E9    -1.895230900186300E1   1.711503330539336E2  -7.146150686050452  -9.670390675291522E1  -7.120794544642322  -9.733679087282332E1  -1.517793411921809E1  -1.448916863651306E2  
 1.500006750000000E9    -1.960236702583454E1  -7.942958660773186E1  -7.475852507661368   8.579495289684029E1  -7.486572316024349   8.598602751730590E1  -1.508237187535663E1   7.211949286202766E1  
 1.530006705000000E9    -1.498963930469009E1   9.968251078827224E1  -6.841407440635478  -9.112288786403921E1  -6.801774712050360  -9.129707707929987E1  -2.863653495060169E1   4.714699383754938  
 1.560006660000000E9    -1.245463776600255E1  -1.190705983068501E2  -6.731150734181270   8.460402907477213E1  -6.741104973949565   8.479269529592830E1  -1.673891153895433E1  -1.363257750585669E2  
 1.590006615000000E9    -1.583018219423403E1   9.022469616290147E1  -7.400833181195847  -9.344542685607445E1  -7.308394585851974  -9.425706838032363E1  -2.283121019224933E1   8.132888506403103E1  
 1.620006570000000E9    -1.757864123920703E1  -1.389313054022906E1  -7.317914083388190   8.816542221277585E1  -7.307615651053309   8.800555949156458E1  -1.807947486112560E1   5.305511498201825E1  
 1.650006525000000E9    -3.160443027719014E1   1.279413570456857E2  -7.612379140821511  -9.162872111565156E1  -7.716810946954557  -9.190137043723964E1  -1.515426184437582E1  -1.002454932672005E2  
 1.680006480000000E9    -1.538847804868463E1  -6.742168840908229E1  -7.791092002432127   9.291678368159798E1  -7.810021478387221   9.272380211439749E1  -2.169014932802380E1   1.366713335481088E2  
 1.710006435000000E9    -1.184621425917555E1   1.144103837258624E2  -7.297021165618910  -8.365425861712338E1  -7.270648705002492  -8.391864616861263E1  -1.869588726608057E1   1.192976450789721E2  
 1.740006390000000E9    -1.917580751684044E1  -6.353885326175334E1  -7.291607603335056   9.181863106488838E1  -7.262374624537420   9.151851949813621E1  -1.878317779949223E1  -1.063609457385071E2  
 1.770006345000000E9    -2.013212545104365E1   1.371178042088118E2  -7.858794660057616  -8.720606123401898E1  -7.849433033544589  -8.727887979858916E1  -2.735011356098917E1  -1.194641117641394E2  
 1.800006300000000E9    -2.295513690188706E1   9.347839600067050E1  -8.209726154167612   9.338652739104137E1  -8.194056136784900   9.379485892445590E1  -1.703027562794007E1   1.320847707134362E2  
 1.830006255000000E9    -1.986851275130673E1   8.385359405345965E1  -8.743557890789687  -8.459309476543271E1  -8.706550927810824  -8.437308863061938E1  -1.783871703264945E1  -1.911930394528489E1  
 1.860006210000000E9    -9.950308848058189  -5.632522101028941E1  -9.052524127437204   1.029714968199658E2  -9.077457894953795   1.030496633804329E2  -1.768992473987859E1  -6.961063308192354E1  
 1.890006165000000E9    -1.137269345233177E1   1.653348080699928E2  -8.142549007651606  -7.502786074719512E1  -8.130409658451573  -7.549278302135770E1  -1.736308856810970E1   1.335188451483759E2  
 1.920006120000000E9    -2.011408343270002E1  -1.676649263777292E1  -8.406512886163183   1.003626604255755E2  -8.409500791931263   1.005758615491185E2  -4.137425005795966E1  -1.254728483069997E2  
 1.950006075000000E9    -2.002897733355780E1  -2.472900125830774E1  -9.182382720286162  -7.639836409195443E1  -9.029491962183052  -7.630810219796209E1  -1.389255255887046E1  -1.229978357798669E1  
 1.980006030000000E9    -2.018279315292354E1  -1.668925115707464E2  -9.292952336031949   1.069978859203039E2  -9.237178557768123   1.060895894223138E2  -1.340461727083151E1   1.781357804703584E2  
 2.010005985000000E9    -1.050918661373079E1   9.741316627463500E1  -9.720227693135737  -7.075780011298814E1  -9.631082885288027  -7.088768786960688E1  -1.626598997644958E1   7.229220935656538E1  
 2.040005940000000E9    -8.148825725164768  -1.280928697113329E1  -9.509500463429431   1.177817702503526E2  -9.532988319970862   1.170528758364333E2  -1.375816701935787E1  -9.383468494215350  
 2.070005895000000E9    -1.135921669869846E1  -1.687252505826788E2  -8.091952500434328  -6.355818212775147E1  -8.026493624486655  -6.384983608455471E1  -1.451603146797965E1  -1.782264720169946E2  
 2.100005850000000E9    -1.401970418381692E1   1.632657608608994E2  -9.152925269559423   1.099675391338111E2  -9.072847446650686   1.095646358326286E2  -1.234880342162169E1   1.536527383846625E2  
 2.130005805000000E9    -1.436146209208951E1   3.667200970655823  -9.386688474540568  -6.405115052703719E1  -9.354934817134136  -6.417439641159207E1  -1.038429822298619E1   8.718551483917086  
 2.160005760000000E9    -1.239233558400917E1  -1.199697147999040E2  -8.959938924011958   1.142574817975404E2  -8.970293636997342   1.136753265919097E2  -1.240222766696046E1  -1.355343819509619E2  
 2.190005715000000E9    -9.072097197269281   1.486953819211373E2  -1.043692667718741E1  -6.426734257074398E1  -1.046368620500961E1  -6.481767601962550E1  -1.044749575247964E1   1.701434145695371E2  
 2.220005670000000E9    -5.929212786012609   1.132423180324986E1  -9.868902178344612   1.296314301481116E2  -9.979913041757087   1.285258610485983E2  -8.852223139286913   2.071855918197684E1  
 2.250005625000000E9    -1.354870293391615E1  -6.104690474945757E1  -8.353401299967514  -6.260463079532065E1  -8.398757903540082  -6.256094020565907E1  -1.600494188356032E1  -7.728305155350211E1  
 2.280005580000000E9    -1.001411730997747E1   1.766836953069929E2  -1.020556932545686E1   1.197249620382074E2  -1.021831593077272E1   1.197061222665276E2  -9.247551834756166  -1.704514114032029E2  
 2.310005535000000E9    -9.228918844074473   3.711523780937701E1  -9.089648597999961  -5.606931053731854E1  -9.054761965504900  -5.589563887479785E1  -9.354398191437728   2.768794653594332E1  
 2.340005490000000E9    -1.248520559630666E1  -4.563258003676786E1  -1.027642456405116E1   1.101723378658464E2  -1.021722108653649E1   1.099682010611697E2  -1.083738393114466E1  -3.514567166620457E1  
 2.370005445000000E9    -5.356759630699706   1.728769804463013E2  -1.265940237288488E1  -5.528007987505210E1  -1.266349148443502E1  -5.491269410622076E1  -7.281552798015049  -1.585861584458981E2  
 2.400005400000000E9    -7.427364238862501   5.751595927069731E1  -9.458893056695578   1.374010190565863E2  -9.452893263454298   1.371450321837562E2  -7.302599580486138   5.639439166625976E1  
 2.430005355000000E9    -7.545711393530572  -1.804867711397309E1  -1.138514862114011E1  -6.151197634926938E1  -1.139330771222319E1  -6.166794784482286E1  -7.951198519956447   3.360572403993219E-2  
 2.460005310000000E9    -5.454495876375792  -1.394804420117322E2  -1.162468549522752E1   1.390903373241735E2  -1.171918640355962E1   1.391382222204868E2  -6.793590723425247  -1.473769894277228E2  
 2.490005265000000E9    -1.687386523058258E1   1.089851656882307E2  -8.813353932106264  -5.850036890381046E1  -8.835393821392657  -5.885355595723261E1  -1.224598087750568E1   1.024331437502440E2  
 2.520005220000000E9    -6.310885171723268  -1.649467612362663E1  -1.315196873773870E1   1.189530536204188E2  -1.317586813767184E1   1.188589005988045E2  -7.085796994789930   1.402428892121507E1  
 2.550005175000000E9    -5.495879775560673  -1.458778370711898E2  -1.285166477016843E1  -3.803217306611861E1  -1.283744199945908E1  -3.869093362271204E1  -5.607391844358348  -1.312303087836170E2  
 2.580005130000000E9    -9.256915461726500   1.172036616096075E2  -1.102520965548018E1   1.185752145887136E2  -1.102508705319696E1   1.174650034894656E2  -9.001138953982158   1.463065373886531E2  
 2.610005085000000E9    -3.934269059228877   2.404887141405135E1  -1.527699842159290E1  -4.465235271838285E1  -1.535159546594106E1  -4.500743234006863E1  -6.010308360850024   2.703559523284470E1  
 2.640005040000000E9    -6.773984369666321  -1.023782284938877E2  -1.153070576877074E1   1.527660166174809E2  -1.154422759750602E1   1.524620602670265E2  -5.870677300157200  -1.130724790965790E2  
 2.670004995000000E9    -7.175507433385659   1.655849678451587E2  -1.311090030599150E1  -5.509664917417813E1  -1.324683085058551E1  -5.582152247391556E1  -6.709151932143281  -1.779356314558771E2  
 2.700004950000000E9    -5.891106824059301   3.243451404137853E1  -1.453217866366129E1   1.433343236785950E2  -1.471409407530769E1   1.429321956143944E2  -6.345592570921662   4.280942197204598E1  
 2.730004905000000E9    -8.784370381786092  -1.235666758421507E2  -1.119700114353570E1  -4.122598221056112E1  -1.118182593735378E1  -4.136725864213387E1  -6.944656143326463  -8.444254602318407E1  
 2.760004860000000E9    -4.420144389566504   1.736572765276443E2  -1.731703871637676E1   1.235625739206251E2  -1.713523435696375E1   1.219190332042601E2  -5.436073721919242  -1.624528677937745E2  
 2.790004815000000E9    -4.466042333094244   5.918862616516848E1  -1.801619914868922E1  -2.027625392711054E1  -1.805342171213284E1  -2.070788121296891E1  -5.191995205268133   6.220755050249971E1  
 2.820004770000000E9    -6.789856722863650  -5.152434274243929E1  -1.230051222975477E1   1.578313747580029E2  -1.252479033160779E1   1.590218272024751E2  -7.575537016034692  -4.267866023076905E1  
 2.850004725000000E9    -5.025798544805067  -1.391843624590762E2  -1.601090477124372E1  -3.119153415983345E1  -1.611851724857873E1  -3.012960472424790E1  -6.150838358252398  -1.388034182353458E2  
 2.880004680000000E9    -7.097924751679719   6.249178747920551E1  -1.450135162226883E1   1.666391570199323E2  -1.437192747923416E1   1.655873240380610E2  -5.049374369980937   8.443045080789418E1  
 2.910004635000000E9    -6.446402218047928  -2.511372167334033E1  -1.484712402800015E1  -5.447653202685920E1  -1.489990297551206E1  -5.417751777698517E1  -6.096090836715635   1.068203416309600  
 2.940004590000000E9    -5.471839145117003  -1.559529924968125E2  -2.122643464023140E1   1.447950809991035E2  -2.086469252495033E1   1.450547193905308E2  -6.396696428531858  -1.315661825977342E2  
 2.970004545000000E9    -3.778836499483176   9.430960024010764E1  -1.863411528591972E1   7.783683221314289  -1.871398083214206E1   6.259673226496144  -4.093928455773158   1.132983766759199E2  
