#  HZ   S   DB   R     50.0 
! Rohde & Schwarz ZVL13 2Ports - Version 3.20 - 1303.6509k13 SN: 100953
! Date: 2024-10-09 08:15:14
! Data & Calibration Information:
! Trc1:S11(TOSM) Trc4:S21(TOSM) Trc2:S12(TOSM) Trc3:S22(TOSM)
! 
! 
! 
 9.000000000000000E3     5.601696062085867   1.787285065512532E2   2.564306631085664   1.775177884335164E2   2.918428194458569   1.768105586787671E2   1.013949100184911E1   1.786145182953291E2  
 3.000895500000000E7     1.774347135282700E-1  -1.727422275859359E2  -2.669839087524223  -9.990799281154665E1  -2.538902075585320  -9.393241356016344E1   4.902924105967095  -1.716018561194387E2  
 6.000891000000000E7     2.220901505154993   1.661953852006866E2  -2.315007860985765  -5.480863302915602E1  -2.576706858906411  -5.890231672554710E1   6.674636315078559   1.727624276435423E2  
 9.000886500000000E7     4.848042067972490  -1.726559142019907E2   8.797765874200543E-1   2.580459306275387E1   1.362982873804597   1.835226289223688E1   9.137413783882190  -1.662030738383514E2  
 1.200088200000000E8     5.955439576671314E-1  -1.735865339774984E2  -3.920855264684367   8.367744176057266E1  -2.339260161524007   7.833874534059081E1   4.657264358901240  -1.653184289882168E2  
 1.500087750000000E8     3.610403560016210   1.602375636153331E2   1.315241211434213   1.362174089675036E2   3.909538040522608E-1   1.409784934570608E2   8.263299901652083   1.716218896448294E2  
 1.800087300000000E8     3.218640089093432  -1.649304941202222E2   1.130161594228563  -1.276170626878440E2   3.528605519890508E-1  -1.210948314480987E2   7.914432227314475  -1.499109171962905E2  
 2.100086850000000E8     5.145647111518652E-1   1.732611412632186E2  -3.136604840574024  -7.275414875446953E1  -3.530486562331939  -8.661669310064926E1   5.575080809372145  -1.719782496772289E2  
 2.400086400000000E8     4.800624708974512   1.484382330984142E2   2.898571511860798  -4.757851253710325E1   4.996162381533263  -4.603355599583254E1   9.225332410080796   1.681075060192638E2  
 2.700085950000000E8     2.909892235361415  -1.660466122658992E2  -8.849523648078902E-1   6.341223750024371E1   7.291390988413908E-1   5.240314762852486E1   7.310875255939186  -1.468161347005988E2  
 3.000085500000000E8     5.408610198207668E-1   1.666838777588048E2  -9.383780144307257E-1   1.042056904110222E2  -4.281215888637736   1.100181545904389E2   4.891286906783053  -1.764561179281101E2  
 3.300085050000000E8     5.764572739165490   1.655096178207322E2   4.031668268078548   1.724813100186268E2   2.970871775032835   1.630023876282637E2   1.073041847489017E1  -1.702529012413959E2  
 3.600084600000000E8     1.356528843989213  -1.732807588733691E2  -1.313060511528677  -9.492199559405569E1  -1.495143450418571  -1.090060989575461E2   6.031656938703844  -1.455793724803234E2  
 3.900084150000000E8     4.371238584179519E-1   1.492481967521286E2  -1.827855899708064  -7.426993472504644E1   1.689626765373902  -6.117330101413349E1   4.945831982088068  -1.753693245045762E2  
 4.200083700000000E8     8.812236719532455   1.795005341016532E2   6.760451650149076   2.904021875928623E1   7.925115307663893   8.927345097906978   1.209093707722391E1  -1.460265484244367E2  
 4.500083250000000E8     7.725749631243507E-1  -1.743955075804608E2  -8.595986841542241E-1   8.841782228545281E1  -3.622605766819786   7.335628545736628E1   4.718920728581494  -1.441516008294898E2  
 4.800082800000000E8     8.840163878199379E-1   1.495414267830981E2   2.868864809715073E-1   1.204085522943171E2   2.183123031974960E-1   1.007845681766719E2   5.241623155289165   1.797950805804597E2  
 5.100082350000000E8     5.681237383735225  -1.716600152194848E2   4.560185889740109  -1.398475022773574E2   3.716234124674416  -1.371556384630099E2   1.096633850691109E1  -1.344955662696034E2  
 5.400081900000000E8    -9.890079457919928E-1   1.708130071224053E2  -2.858712943796157  -8.754794369563015E1  -2.358803124671310E-1  -6.796864885974848E1   3.952476581211751  -1.455123925663126E2  
 5.700081450000000E8     2.508373299166635   1.215121912852827E2   3.130288664927896  -5.545470591382466E1   4.309016116999862  -7.620831649002948E1   6.635636619279671   1.769742472426187E2  
 6.000081000000000E8     6.850301422602144  -1.670412586267908E2   4.514700037593100   6.178757162412427E1   5.509021900667437   4.117199139866674E1   9.486590124660342  -1.203447406113099E2  
 6.300080550000000E8    -1.325357627750240   1.744485576369703E2  -1.626085205233457   1.073322586242673E2  -1.369916718761725   8.690841399780825E1   2.095194789542243  -1.439250550523750E2  
 6.600080100000000E8     2.845447936690072   1.411640793849619E2   2.737178491597747   1.224124440078716E2   4.294265034459504E-1   1.263385415120422E2   6.833472147859123  -1.720190796999779E2  
 6.900079650000000E8     3.052493583684712  -1.681342321271919E2   1.339451051381563  -1.089905471139811E2   8.910506997714083E-1  -1.018740924950438E2   7.485911840862208  -1.166221277641457E2  
 7.200079200000000E8    -2.870926412352375   1.554333159314211E2  -7.395551149730765E-1  -6.702950249754721E1   5.531467154570421E-1  -7.815057761161746E1   2.401793392444113  -1.432397855209045E2  
 7.500078750000000E8     7.712808819005963   1.277573788239603E2   6.079165775527621  -3.120621569469992E1   8.869435913942789  -4.479651120438381E1   1.081740280064606E1  -1.669182371892781E2  
 7.800078300000000E8     3.276150723027600  -1.658134004632766E2   9.534754509847524E-1   9.232336738991629E1   1.077818929342003   6.825992129432423E1   5.431557875293962  -1.079003673615817E2  
 8.100077850000000E8    -5.362991790154739E-1   1.618494709854570E2  -1.019635156185370   1.111869581582397E2  -1.969621339076499   9.702413977138581E1   3.386171881187262  -1.383660706163088E2  
 8.400077400000000E8     8.425363805476710   1.398410445157783E2   8.160881697108593   1.629346542862026E2   7.743288810902139   1.520853149215906E2   1.232972588477891E1  -1.574231269605009E2  
 8.700076950000000E8    -2.238159058759314E-1  -1.771214116894327E2  -5.085375283256307E-1  -7.969633097699169E1  -1.974071836140896E-1  -7.742885109603472E1   3.866973709704830  -1.079558340970488E2  
 9.000076500000000E8     4.495411804759925E-1   1.318176242376078E2  -4.838570002769660E-2  -6.332441469129342E1   2.210508231132975  -6.623635920847512E1   4.338725223312198  -1.493747314515388E2  
 9.300076050000000E8     1.352831221500943E1   1.483963237770637E2   1.152739272887801E1   1.380159145561515E1   1.374628299396602E1  -6.255045025563039   1.506512944578864E1  -1.326310614708002E2  
 9.600075600000000E8     1.173762576719443  -1.761889507341006E2  -7.480220738609238E-1   1.037731165958533E2   1.048017823451501E-1   8.038531486206433E1   4.204484608587456  -1.072072790080710E2  
 9.900075150000000E8     6.903706203702614E-1   1.210851883262126E2   2.546301412979158   1.189045991585015E2   2.440642588783966   1.075855941090676E2   4.395802600959064  -1.554361698992339E2  
 1.020007470000000E9     7.476955923370626   1.750831270253846E2   5.283278515769548  -1.273044550374966E2   4.595396100406463  -1.397701281541589E2   1.044487325042385E1  -1.031410698704846E2  
 1.050007425000000E9    -4.535041837338136E-1   1.592293574892925E2  -1.139897861135961  -6.714324305187182E1  -6.632164841586548E-1  -6.995927850475476E1   3.320441418918111  -1.130819751644681E2  
 1.080007380000000E9     2.760056835518761   9.578089204247918E1   3.267276712396394  -6.480114741744744E1   6.138549132561379  -7.115675590463525E1   5.076694142224358  -1.615125280926226E2  
 1.110007335000000E9     7.072770731411286  -1.628792938257109E2   4.676455860398966   9.026053159631476E1   6.845767157422464   6.657864034934022E1   8.968722802728223  -7.962787060426345E1  
 1.140007290000000E9    -2.404120525776542   1.629526769241023E2   3.787556482597387E-1   1.122528951267850E2  -4.197646863232742E-1   9.331068571887478E1   2.103901574734673  -1.121861726576627E2  
 1.170007245000000E9     1.461451079347097   1.030668799572825E2   2.539973401250111   1.229913860325149E2   4.911696000859136   9.840847909505054E1   5.052248220292370  -1.523086496368538E2  
 1.200007200000000E9     4.367738752408094  -1.741981034273793E2   3.001871350165888  -8.422684145712273E1   1.876929357070322  -9.705191960206339E1   7.032613643315465  -7.876028232742267E1  
 1.230007155000000E9    -7.921877410068756E-1   1.283263819894886E2   3.428720659344757E-1  -6.770775130074040E1   1.601046201339823  -5.988243351549040E1   1.237294914543281  -1.207206117464524E2  
 1.260007110000000E9     1.005425709952269E1   9.978835467054840E1   8.144047058673197  -3.446688600811407E1   1.120290720845188E1  -5.595644164545264E1   1.048953684821518E1  -1.560326392626769E2  
 1.290007065000000E9     3.161478325989036  -1.561980218890958E2   3.083390809881004   1.117932871780635E2   3.652244349960897   8.967086903271594E1   5.702166232963148  -6.635041007044381E1  
 1.320007020000000E9    -3.736410341361732   1.409228567927703E2  -1.841522213023834   1.164439085792704E2   2.511126949269654   9.827224788278829E1   1.350221667633371  -1.057080024652219E2  
 1.350006975000000E9     9.291426597571279   9.759302859321761E1   1.026114474850891E1   1.543559764600748E2   8.531832325824432   1.215034895142120E2   1.142093257180912E1  -1.421286327076554E2  
 1.380006930000000E9     1.776089007241788   1.695146107314995E2   1.375166171512088  -7.326948640178637E1  -5.302102858011712E-1  -7.443703260615477E1   4.473619491153916  -7.390790011688023E1  
 1.410006885000000E9     3.236606866694770E-1   1.094166661583372E2   3.808412599366710E-1  -5.424026586084540E1   3.287758523978613  -7.664747755411156E1   1.469447792543130  -1.151673236580514E2  
 1.440006840000000E9     1.817856251082833E1   1.423160595389354E2   1.661002245355023E1   2.419490228901425E1   1.765908806265293E1   1.224385200110752E1   1.827014701162710E1  -1.021446541991544E2  
 1.470006795000000E9    -1.294975721640288E-1   1.748639191560760E2  -6.735578614066902E-1   1.149306548077590E2   2.784445946132461   9.938681343556252E1   3.586887219750486  -7.171611140061049E1  
 1.500006750000000E9    -2.383613020517120   9.990882090546485E1   2.984607485117981   1.286871552221309E2   1.458701875495251   8.700273381417706E1   2.230430998195921  -1.069565336053679E2  
 1.530006705000000E9     1.210431731758148E1   1.543588837871713E2   1.021599744388706E1  -1.266453298111399E2   9.973607701036199  -1.525062847237378E2   1.333987535058172E1  -7.884136324713694E1  
 1.560006660000000E9    -5.025840238404118E-1   1.489051654209252E2  -3.402950608517065E-1  -5.590710162104093E1   9.745899367529449E-1  -7.396411419302399E1   2.654850691283431  -7.334648918288427E1  
 1.590006615000000E9     5.025650077846338   9.880455652596389E1   3.941564121009350  -5.065517576112606E1   4.040084271335615  -4.887625961910951E1   5.357035800958845  -1.169628876001576E2  
 1.620006570000000E9     7.561283969409277  -1.722804068543937E2   5.201065044138726   1.009962042428115E2   7.328483113616032   8.152397153708745E1   8.762656757773211  -5.122779543294751E1  
 1.650006525000000E9    -3.401025902978246   1.488509789605301E2   1.373210142222009   1.289521653526601E2   1.475642972005138   9.558952835322442E1   2.684313827764140  -6.614225237365032E1  
 1.680006480000000E9     8.943825402174795   7.979480255452236E1   8.150204735107412   1.475720355673940E2   9.224891197327464   1.175314893126147E2   9.138703517287446  -1.250534482935648E2  
 1.710006435000000E9     6.025852141028121   1.761951391516289E2   5.427831977609689  -7.069594402670175E1   3.604151362406942  -9.588598536230623E1   7.780080334707671  -4.162718802092437E1  
 1.740006390000000E9     8.805233059631964E-1   1.188171278639197E2   1.196455485878436  -5.732148031106520E1  -1.089352756216400  -6.625784601034052E1   3.704112451479724  -7.840569565304895E1  
 1.770006345000000E9     1.415304746677355E1   6.385695533382566E1   1.274330512892015E1  -5.060515772560877E1   1.415748226157857E1  -6.480421955456394E1   1.254184597723639E1  -1.537995215886695E2  
 1.800006300000000E9     3.036236428446666  -1.720033726218352E2   3.921525031635342   1.179273149717318E2   4.687372974869567   9.874920474556448E1   6.417407425769775  -4.114894049242216E1  
 1.830006255000000E9     4.679666106148175E-1   8.255736444051357E1   2.966367616156050   1.305823845560853E2   3.106085049214853   9.999991997286865E1   2.549876920881501  -8.956848719011636E1  
 1.860006210000000E9     1.337323574278222E1   4.403139583240229E1   1.341377797996211E1   1.304243288775390E2   1.240920955562087E1   9.800885962117664E1   1.142062120144191E1  -1.468822404852813E2  
 1.890006165000000E9     3.341207441560955   1.522376905607271E2   3.876620704207533  -5.959829184784530E1   3.374404635712993E-1  -9.101796453507251E1   5.452341064206449  -4.022256798380781E1  
 1.920006120000000E9     2.543533623262901   6.720741293272901E1   3.220081765399918  -6.624157202608429E1   2.311970065504439  -7.283977113843469E1  -1.527192433733047E-1  -8.984358001535502E1  
 1.950006075000000E9     3.727251128703529E1   4.660813146955490   3.594979248929916E1  -9.089938520500115E1   3.638272027760345E1  -1.034576446926143E2   3.485862565941432E1   1.623366211199720E2  
 1.980006030000000E9    -1.480476266171060   1.548516052413765E2   1.940056278539190   1.267378791816815E2   2.123079755503824   1.016569119618218E2   4.060568157055180  -4.490439916282940E1  
 2.010005985000000E9     1.463325175831610   5.565246257060539E1   3.914001994353325   1.283924400070789E2   3.152330974307155   9.724465939392466E1   2.100177240151569  -8.515208932730189E1  
 2.040005940000000E9     2.079831535930477E1   1.424979002665298E2   2.121694078284687E1  -1.102239626108221E2   1.821535022259239E1  -1.448059813142075E2   2.042996429006396E1  -4.156993617450668E1  
 2.070005895000000E9    -6.024253012296316E-1   1.156399696287370E2   2.439100339413049  -5.916254508140326E1  -1.201459532236601  -7.018801285417386E1   4.152000976777133  -4.402860609330224E1  
 2.100005850000000E9     5.934931828476421   4.959455143809624E1   5.320849296115838  -5.944717803640838E1   4.375004921379405  -7.335763996614523E1   2.021106312672030  -9.490486489706291E1  
 2.130005805000000E9     1.407258331058024E1  -1.769183074894269E2   1.347529059279502E1   1.085917047263991E2   1.276720056515854E1   9.235431406364972E1   1.352402072185333E1  -6.824113941125389  
 2.160005760000000E9    -2.173471955375687   9.461436726970536E1   1.766743613898247   1.251472114364242E2   7.522680135811381E-2   1.077344143572674E2   3.475480475799053  -4.614428899591979E1  
 2.190005715000000E9     6.064829732325936   3.730175859270176E1   7.284754583137405   1.196529434710996E2   4.665355943875214   9.834568416355013E1   3.302760459275984  -1.071737194468352E2  
 2.220005670000000E9     8.938873518745327   1.535296311528922E2   9.539311257599596  -8.070663097948341E1   5.577108814590924  -1.048918410800190E2   1.053455734059412E1  -1.956711676033467E1  
 2.250005625000000E9     1.407955270673170E-1   7.300652885266071E1   2.693679464286754  -5.348290670339732E1  -1.992733155488089E-1  -6.318156482608249E1   3.357675962382344  -4.831309593063555E1  
 2.280005580000000E9     9.571358639207050   2.755170468692592E1   9.421988462045905  -5.976279469747983E1   7.163169486995235  -7.371669123427004E1   6.192078311645719  -1.080095672066513E2  
 2.310005535000000E9     1.790403290994721   1.367003849066078E2   4.680229887330588   1.096722880430407E2   1.083594921573866   9.620237716472398E1   7.291698278038693  -1.809053148962170E1  
 2.340005490000000E9     7.828017949716002E-1   4.995233784587746E1   3.115259735988463   1.204451921707794E2   3.512330572069136E-1   1.096132667587164E2   2.281554932461924  -5.356340491069638E1  
 2.370005445000000E9     1.112062804095470E1   1.997546393803403E1   1.149398060162785E1   1.163367087321783E2   7.997497212702678   1.035476398015822E2   7.262080019627352  -1.167978927870286E2  
 2.400005400000000E9     6.347547213625552E-1   1.203913043535697E2   3.579656511175500  -6.589621504139790E1  -1.360425431448061  -7.457441891712459E1   6.262254746596907  -2.149485531045104E1  
 2.430005355000000E9     2.218255853822488   4.319610380425262E1   3.426881917457651  -5.797308274539265E1  -1.151653642159694E-1  -6.248604553195478E1   2.208736551178455  -5.409221467784531E1  
 2.460005310000000E9     1.760543392276257E1   5.968714071705873E1   1.757526328678155E1  -1.122992404541513E1   1.471712267663826E1  -2.104563694142038E1   1.661779561979248E1  -7.751577831849875E1  
 2.490005265000000E9    -1.582458764187065   8.397976434647872E1   2.279872702423973   1.222970556511458E2  -1.423664053318170   1.202448881976548E2   4.245238313952620  -2.213036178072698E1  
 2.520005220000000E9     3.169804614610366   2.544417166230235E1   3.428106592975463   1.096319282887058E2   3.642626302465844E-2   1.111255440805673E2   7.910159270221140E-1  -5.065357884105822E1  
 2.550005175000000E9     1.640659521665413E1   1.119569770232505E2   1.697272630848007E1  -1.285983747010619E2   1.262556249796175E1  -1.390494163261326E2   1.635959942481067E1  -2.509093352457032E1  
 2.580005130000000E9    -1.674291664875445   6.091888518648744E1   2.712799356668264  -6.099814791731967E1  -2.384505735293395  -6.002850481201408E1   3.694579469091691  -2.687024337941524E1  
 2.610005085000000E9     3.989858420543008   2.026865722195316E1   3.890625916688415  -6.346288196821439E1   7.173423838509604E-1  -6.620079851480855E1   2.323510533700847  -5.466641564833760E1  
 2.640005040000000E9     8.356938099352062   1.375131533118823E2   1.076885398177308E1   9.919847927400360E1   5.700310161297267   9.449761097085005E1   1.112104100023795E1   1.109916784474385E1  
 2.670004995000000E9    -1.550532926279596   4.156778098147828E1   1.034121481725661   1.201941291029426E2  -2.392662385451229   1.336820059895572E2   2.559409288521231  -2.111157882776638E1  
 2.700004950000000E9     5.595703857957273   1.464688223256886E1   4.958291356031777   1.155687999000990E2   2.268339259888090   1.212787411074712E2   3.580191187156495  -5.831318893290270E1  
 2.730004905000000E9     8.713604145504876E-1   1.189374680850443E2   4.685888104875207  -7.244752608317231E1  -1.120773789640210E-1  -6.497046755259532E1   6.677813801874448  -6.506453771743425E-1  
 2.760004860000000E9     1.213433580766798E-1   2.471920576631144E1   7.396557892282515E-1  -6.319112296475730E1  -2.719802419883043  -5.255594680878724E1   1.709448320374596  -2.231460721275882E1  
 2.790004815000000E9     5.625582914549889   7.605074317533674   5.256809935183355  -6.743013679105094E1   1.760785545782293  -6.024817540442206E1   3.046341597010734  -6.295351592706945E1  
 2.820004770000000E9    -3.686333013536221   1.092772148423282E2   3.456891326197511   1.229278080042737E2  -1.065800085255878   1.338115730919717E2   5.467776494528528   1.355674940859809E1  
 2.850004725000000E9    -4.263128307192278E-3   2.293591215317484E1   3.477949482614819E-1   1.191567395204852E2  -2.396524108958704   1.325668715715064E2   2.221182340068940  -1.767229027868924E1  
 2.880004680000000E9     1.329243566455624E1   2.166139472243674E1   1.394404717274623E1   1.398436673145812E2   1.018754874032616E1   1.500520316097910E2   1.296721772476997E1  -6.443318755925785E1  
 2.910004635000000E9    -2.838314551362356   4.688263779479502E1  -7.184962532845802E-1  -5.680889489054427E1  -3.200575409019615  -4.168419532003903E1   2.575135452330637   2.102307269984510  
 2.940004590000000E9     1.824975816756650   1.087138601238744E1  -3.182500808085754E-1  -6.075261764847515E1  -3.933335699800120  -5.056978030086238E1   1.346772215313239  -1.987179327967968E1  
 2.970004545000000E9     1.437180062111601E1  -5.254958560419139   1.538458512869197E1  -7.367481326984309E1   1.118326256933713E1  -5.732177331146881E1   1.208437506084925E1  -9.868765962379766E1  
