#  HZ   S   DB   R     50.0 
! Rohde & Schwarz ZVL13 2Ports - Version 3.20 - 1303.6509k13 SN: 100953
! Date: 2024-10-09 07:54:20
! Data & Calibration Information:
! Trc1:S11(Cal Off) Trc4:S21(Cal Off) Trc2:S12(Cal Off) Trc3:S22(Cal Off)
! 
! 
! 
 9.000000000000000E3    -1.418951680658018E-2  -7.200382528160069E-1  -6.928974356856925E1  -1.571330119849210E2  -7.045080628796423E1   1.358840512907731E2  -2.023580213892414E-2  -6.669678410374637E-1  
 3.000895500000000E7    -1.342042357718553  -1.779309059118978E2  -5.586981642980198E1   2.716526228098191E1  -6.655209966709312E1  -2.133800685485585E1  -1.401781655087536  -1.761453507795117E2  
 6.000891000000000E7    -2.480222443120165   1.295903235344277E1  -4.880147244262850E1   1.600797854551195E2  -5.043348682387511E1   1.629001276160439E2  -2.594779201367830   1.315516191118954E1  
 9.000886500000000E7    -3.685761480149510  -1.583846442022441E2  -3.556104677870108E1  -9.959211871355375E1  -3.569266273839205E1  -1.031517251781465E2  -3.620611422729590  -1.573190265516318E2  
 1.200088200000000E8    -3.263665919994546   2.364331818594143E1  -3.762951455869446E1  -5.097888479503399E1  -3.761015680774392E1  -4.892729492334742E1  -3.099392247470393   2.431511988667397E1  
 1.500087750000000E8    -2.053773685493581  -1.517229182207713E2  -4.277256142043654E1   7.272073171251418E1  -4.277286324139143E1   7.511867368178247E1  -2.007423739566312  -1.505350318304341E2  
 1.800087300000000E8    -1.360530744292941   3.509831402299724E1  -4.626468896957218E1  -1.765094482080041E2  -4.628148908094479E1   1.693406993653970E2  -1.482261573483719   3.332688500073978E1  
 2.100086850000000E8    -2.478554251552129  -1.411622540279956E2  -4.279545372202583E1  -6.821519097034108E1  -4.239232248453220E1  -6.996749603312291E1  -2.334538584934748  -1.386527766101802E2  
 2.400086400000000E8    -3.690323920538204   5.686081585623269E1  -3.855155598609181E1   5.658980549414272E1  -3.835483797369379E1   5.689739712007980E1  -3.593824556857628   5.994717263393195E1  
 2.700085950000000E8    -4.474078122802135  -1.060631021184753E2  -3.607227427153167E1  -1.755704734697665E2  -3.633003459050266E1  -1.778534861798508E2  -4.502313413627452  -1.055652046343797E2  
 3.000085500000000E8    -4.906375218553232   7.062437786289951E1  -3.500254776351230E1  -3.800984915095911E1  -3.468414085343232E1  -3.677912315873993E1  -4.608744321118622   7.205257675434690E1  
 3.300085050000000E8    -2.968679898230333  -1.117755938905571E2  -3.456835932289556E1   1.062757150695524E2  -3.462970244367205E1   1.057481094705715E2  -3.256984923217211  -1.148232982410907E2  
 3.600084600000000E8    -2.341298828387334   7.179920144779334E1  -3.532994119381054E1  -1.096527523592846E2  -3.536811053404161E1  -1.128510025622556E2  -2.729101141338400   7.284149973539870E1  
 3.900084150000000E8    -3.111806657211718  -9.503766880808843E1  -3.726552889938763E1   3.752191246837452E1  -3.737307289525586E1   4.015133326259945E1  -3.207113476104350  -9.430889288620504E1  
 4.200083700000000E8    -4.027413435680089   9.974757104893689E1  -4.030281000576346E1  -1.512938194096618E2  -4.008546113981348E1  -1.549426970197153E2  -4.785804389517709   1.095349115712373E2  
 4.500083250000000E8    -5.220805029218783  -5.657384231147569E1  -3.949776272658856E1   5.007753400196003  -4.006688169724705E1   4.569530321391197  -5.412188954869103  -5.207580063820667E1  
 4.800082800000000E8    -6.397755379974866   1.168241941011898E2  -3.951064469433045E1   1.418279769228253E2  -4.023664940794322E1   1.334360578143224E2  -6.616790987072780   1.253632909391192E2  
 5.100082350000000E8    -4.303915928618258  -8.007678732450395E1  -4.338057944907826E1  -1.114232365625552E2  -4.444725183021367E1  -1.108855000396757E2  -4.311168520799931  -6.966683626570784E1  
 5.400081900000000E8    -3.006375916049490   1.141321535025625E2  -4.699713658522428E1  -3.480482870523223E1  -4.779442934469920E1  -2.398928748138895E1  -3.190703231705716   1.130600851016975E2  
 5.700081450000000E8    -3.723166325361104  -5.537513376807361E1  -4.667968201282722E1   1.001331753232954E2  -4.691418015293451E1   1.209094856986659E2  -3.580083131381529  -4.709670248759434E1  
 6.000081000000000E8    -4.932830151283956   1.470319323474435E2  -5.062422841260094E1  -9.494364927476036E1  -4.593162528050459E1  -9.655879403382230E1  -4.793542759745566   1.538509159191395E2  
 6.300080550000000E8    -5.124215336763517  -1.183235629203399E1  -4.561342827867159E1   6.782136926068945E1  -4.596283195293484E1   6.682365530619485E1  -5.997349214599974  -4.452809081536422E-1  
 6.600080100000000E8    -7.451824671281925   1.638440050722819E2  -4.153416895725845E1  -1.340799731812150E2  -4.194132888438521E1  -1.405654521087146E2  -7.180365549495763   1.682059335223201E2  
 6.900079650000000E8    -4.508140078054307  -4.626182871457291E1  -3.848588040822381E1  -8.054720095247928  -3.957157405122284E1  -3.237984898212368  -5.376473628183008  -3.883013768078594E1  
 7.200079200000000E8    -3.533194386256015   1.423737111775843E2  -3.914159532309062E1   1.364806183917527E2  -3.946849362851391E1   1.305871058891788E2  -3.547759528582545   1.496695632588236E2  
 7.500078750000000E8    -4.946256034838835  -1.422368103864788E1  -4.007692863266497E1  -7.439965088118730E1  -3.995749637030527E1  -7.849447806309169E1  -4.453447173582738  -8.182659847870294  
 7.800078300000000E8    -5.906652295691646  -1.777073129547530E2  -4.081884838556789E1   8.546220723577096E1  -4.172314168134037E1   8.227760444072419E1  -5.466369809278328  -1.600333964208444E2  
 8.100077850000000E8    -7.492617215534845   2.573828406213428E1  -4.045978039085461E1  -1.104850373921770E2  -4.028915610332870E1  -1.120590648930893E2  -7.883590966470999   3.364908727206031E1  
 8.400077400000000E8    -8.870601353369374  -1.777489269166518E2  -3.764686686140401E1   4.119484233614140E1  -3.869843476025714E1   4.469753285568988E1  -9.151147062758319  -1.681541456317803E2  
 8.700076950000000E8    -5.412732421857873  -3.533109648333709E1  -4.118575773011443E1   1.672135751948690E2  -4.139144448830330E1   1.709659277592600E2  -5.937743239847489  -2.328445060745803E1  
 9.000076500000000E8    -4.904929005810899   1.730873034050713E2  -4.454349992604529E1  -2.140035022579972E1  -4.405110895500803E1  -2.597361184025211E1  -5.077548648378087   1.788077786619884E2  
 9.300076050000000E8    -7.360201681154056   7.792806273949801  -4.521799220846550E1   1.155730490351660E2  -4.756499041896454E1   8.596683255113867E1  -6.214312732418112   2.615003191367927E1  
 9.600075600000000E8    -1.215188752439064E1  -1.537406472445985E2  -4.878174891942010E1  -1.475899539028857E2  -4.743042824582497E1  -1.116396776040841E2  -9.373297007765501  -1.200820554406442E2  
 9.900075150000000E8    -1.878703604199315E1   5.446581499748566E1  -4.918181165900036E1   3.132324758993543E1  -4.866837480155611E1   2.403799879435922E1  -1.527807658628774E1   6.619739284394167E1  
 1.020007470000000E9    -1.796604696272374E1   9.851150698605146E1  -4.846051948258560E1   1.310572554073958E2  -4.724838655900579E1   1.076813465409034E2  -1.607837209080086E1   1.569297220765349E2  
 1.050007425000000E9    -1.207875938874783E1  -2.091032180947422E1  -5.791865741709265E1  -5.806533782498870E1  -5.495732552371418E1  -8.370722519938973E1  -9.687428418449729  -7.171413644790301  
 1.080007380000000E9    -1.049084190980176E1  -1.514416376838929E2  -5.706791201661157E1   1.246372731620493E2  -5.444320052418470E1   1.628195063716265E2  -8.600766933792658  -1.539271119744066E2  
 1.110007335000000E9    -1.273766111021285E1   8.704715664558168E1  -5.719153168065324E1  -1.388378762097358E2  -6.523519900226141E1  -1.555458393771479E2  -1.082260507342720E1   7.916874541380588E1  
 1.140007290000000E9    -1.806121589200432E1  -7.372059375881136E1  -5.701333446404752E1  -5.397731271765006E1  -5.771748896950319E1  -9.473728420318658E1  -1.725091198393698E1  -5.638945087849996E1  
 1.170007245000000E9    -2.070104736162313E1   1.714664743982650E2  -5.124465837002440E1   4.717681874203965E1  -5.033796494940732E1   4.500298143282718E1  -1.885349700400666E1  -1.415536689562567E2  
 1.200007200000000E9    -1.887920473972465E1   1.020071633778834E2  -4.945171408282756E1  -1.541312442755358E2  -5.155268925761551E1  -1.731103088928372E2  -1.453388784819027E1   1.307914916183360E2  
 1.230007155000000E9    -1.419970854878555E1   2.914560932014906  -5.609671877617019E1   2.390857069834402E1  -5.117982129055111E1   2.400195456475855E1  -1.305799529488486E1   3.557151391301790  
 1.260007110000000E9    -1.430795551038060E1  -1.021040921108993E2  -5.600527426080429E1   7.208521441696614E1  -5.471489576997018E1   1.447728957850845E2  -1.337035187425152E1  -1.162480325118287E2  
 1.290007065000000E9    -1.797025046384447E1   1.478137589395520E2  -4.953071626742364E1   1.728684663823241E2  -5.164103636705058E1  -1.554445302584354E2  -1.708016835745880E1   1.497067481876888E2  
 1.320007020000000E9    -2.127061048149806E1   3.677874727575990E1  -4.796102066220435E1   4.073298872829860E1  -4.563142030283305E1   4.795478566920605E1  -1.721894128695933E1   5.031684834456193E1  
 1.350006975000000E9    -2.106367790829264E1  -9.529739505886958E1  -4.931169192842624E1   1.454447176099638E2  -4.516336890033589E1   1.634408207835297E2  -1.365694245305588E1  -7.512614536151534E1  
 1.380006930000000E9    -1.580131781830106E1   1.246508275196226E2  -4.777688547975923E1  -2.197230634860212E1  -4.846435076974390E1  -2.804185517298638E1  -1.288033354100706E1   1.584292504438351E2  
 1.410006885000000E9    -1.625908679186415E1   2.265221818308561E1  -4.576063212629088E1   1.236127857909505E2  -4.639285776361434E1   1.340719745853113E2  -1.479722996573612E1   2.869613343053252E1  
 1.440006840000000E9    -2.486714754622088E1  -5.973822427420084E1  -6.066381986133668E1  -5.070073906466759E1  -5.560016160844415E1  -3.738772823099095E1  -2.140763914261791E1  -6.944534582305114E1  
 1.470006795000000E9    -1.848073449050878E1  -1.057398765468259E2  -4.702512551059100E1   1.214081837359292E2  -4.443337898885994E1   1.425001027821362E2  -1.881099739500101E1  -1.140129499390352E2  
 1.500006750000000E9    -1.539636267572992E1   1.389316328502827E2  -6.073478590839326E1   1.683295550953272E2  -6.328382585737688E1  -7.902940001506704E1  -1.338275891510333E1   1.184202876424785E2  
 1.530006705000000E9    -2.002362166645967E1  -3.233291029347570E1  -4.464021264295841E1   1.100176717460391E2  -4.850775846284395E1   1.131795383191642E2  -1.304929460672263E1  -1.879912952396550E1  
 1.560006660000000E9    -1.674078711264735E1   1.699804629846435E2  -5.052145143000645E1  -9.885933985634216E1  -4.788583946414674E1  -1.088905712414548E2  -1.422062013427706E1  -1.727283710504079E2  
 1.590006615000000E9    -2.047755954633804E1   2.331044611410584E1  -4.863973015686949E1   7.758163991779583E1  -4.739321944935147E1   6.246917887740793E1  -1.789932743589339E1   6.263357170070059E1  
 1.620006570000000E9    -2.606406847274775E1   9.555493467953072E1  -5.119297876950132E1  -7.847557804656354E1  -5.408503962568774E1  -7.293702707946315E1  -2.711905919466898E1   1.511818229526787E2  
 1.650006525000000E9    -1.351835405843400E1  -2.818323551548162E1  -5.070421149470944E1   1.421143440169902E1  -5.043138576519873E1  -2.530675780603545E1  -1.742534323593099E1  -3.450532227600527E1  
 1.680006480000000E9    -1.523981060164612E1  -1.694224225010234E2  -5.310438546562796E1  -1.590580438210129E2  -5.543305303205761E1  -1.397816848388381E2  -1.229932449216545E1  -1.791580820372456E2  
 1.710006435000000E9    -1.861075483692903E1   3.432142009449974E1  -5.790502107164279E1  -1.574655621020563E1  -5.668929851665059E1   1.554120415914880E1  -1.608632304508300E1   3.610507210484632E1  
 1.740006390000000E9    -2.104058271489424E1   1.639493859209421E2  -5.551361297073809E1  -1.244499047999879E2  -5.382506300517893E1   1.767708473329227E2  -1.675239465546436E1  -1.346027182009568E2  
 1.770006345000000E9    -2.491837971286694E1   3.059047207758965E1  -5.332682842551434E1  -1.763086442450685E2  -6.056249051284845E1   1.591342915944410E2  -2.939109092298489E1   4.073949272724701E1  
 1.800006300000000E9    -1.519804086456059E1   1.626747825433719E2  -5.889726643684812E1  -1.023296935658103E2  -5.419499297421135E1  -1.682510758402287E2  -1.811590817369776E1  -1.658660013563746E2  
 1.830006255000000E9    -1.271659962829306E1   3.215228055526838E1  -5.253494324199871E1  -5.330764748769614E1  -6.076026797256952E1  -1.122303940650453E2  -1.424839917835785E1   3.566631103253242E1  
 1.860006210000000E9    -1.090139892629708E1  -9.916085204047595E1  -5.136262615748436E1  -1.759837411497068E2  -5.255087608896246E1  -1.161434713096194E2  -1.198235416925257E1  -9.857074873268972E1  
 1.890006165000000E9    -2.155155583418713E1   1.450487362607421E2  -5.663698993854282E1  -1.574562945631308E2  -5.633458907700672E1   1.127273542987540E2  -1.712824871999868E1   9.922222439057852E1  
 1.920006120000000E9    -3.673529211292030E1   1.658286087762374E2  -4.843829556628030E1  -9.381534655569654E1  -5.533813005087305E1  -1.104738370928417E2  -2.458545262213350E1  -4.447241459754176E1  
 1.950006075000000E9    -1.501906913789050E1   5.663380166105136  -5.431644679722813E1   4.379761269569638E1  -5.219622194494571E1   3.504590767672492E1  -1.893816589646118E1   3.212819290379179E1  
 1.980006030000000E9    -1.400186821715692E1  -1.454266596884636E2  -5.045004606595844E1  -1.464777284384441E2  -5.206073453862482E1  -1.206430560446341E2  -1.511137478576257E1  -1.255857694419398E2  
 2.010005985000000E9    -8.088503014321805   8.123187863184157E1  -4.781721751592850E1   3.138113903738802E1  -5.239407145371381E1   1.841065955369358E1  -1.020175897200697E1   9.734473262684141E1  
 2.040005940000000E9    -1.044787642372527E1  -3.349628655102112E1  -4.758723478226049E1  -1.407732618554373E2  -4.578672354874293E1  -1.373665281035484E2  -1.176962024624465E1  -3.137232673730578E1  
 2.070005895000000E9    -1.490430240398765E1  -1.608697726454140E2  -4.242186514084751E1   6.269267973668555  -4.364692749280998E1   1.184388574570976E1  -1.356691405389615E1  -1.749545573640131E2  
 2.100005850000000E9    -1.495388008596818E1   1.628502739319216E2  -5.085707324482004E1  -1.576621930409610E2  -5.581471023877461E1  -1.628743101251245E2  -1.785060123483449E1   1.312625803991120E2  
 2.130005805000000E9    -1.546656662359622E1   3.686000765707379E1  -4.842108931469563E1  -1.331703899038501E1  -5.031100621297424E1  -2.721216822008078E1  -1.500384692365833E1   5.142444785800972E1  
 2.160005760000000E9    -9.121966978672488  -1.062817276914197E2  -5.019849397701508E1   1.589885455821369E2  -4.654820960328794E1   1.516871519376806E2  -9.885479830365973  -9.206649145799196E1  
 2.190005715000000E9    -9.237441358773689   1.324611151754074E2  -4.815539526334555E1  -5.550815635819478E1  -4.638922183501342E1  -4.117215842592974E1  -8.556131254100986   1.539674250301699E2  
 2.220005670000000E9    -7.752881747251838   9.375990454679375  -4.495173484510973E1   1.382150648076635E2  -4.903537165015774E1   1.377759416067283E2  -1.085926454483543E1   2.165284228640262E1  
 2.250005625000000E9    -1.052540664151242E1  -7.449792065307008E1  -4.795485845767414E1  -4.045803302934178E1  -4.506834476769967E1  -4.741193811498644E1  -1.071712903077919E1  -8.408150919984031E1  
 2.280005580000000E9    -1.383812603755209E1   1.734825461453158E2  -4.506902604672354E1   8.789314502177078E1  -4.666108910838836E1   5.940341382832742E1  -1.332217574495420E1  -1.738523380898770E2  
 2.310005535000000E9    -9.393064259225133   6.454915884450077E1  -4.685630704806176E1  -6.662804575607754E1  -4.690240385120622E1  -9.748311690676776E1  -1.131717273773653E1   6.381562107575545E1  
 2.340005490000000E9    -1.050500618816903E1  -6.166296904123689E1  -4.813035903208880E1   1.051192684074060E2  -5.287209660973392E1   9.200131755952253E1  -8.115702987897240  -4.109208298607240E1  
 2.370005445000000E9    -6.778399054620385   1.703944109677410E2  -4.844133880122768E1  -6.659459379481679E1  -5.187708720802454E1  -8.229903674134893E1  -8.531652488071602  -1.600458790434049E2  
 2.400005400000000E9    -6.951102622133205   7.485517731383762E1  -4.838971424005737E1   8.377130704749392E1  -5.019560598807527E1   7.194545677529330E1  -7.123647850596785   8.106332419282288E1  
 2.430005355000000E9    -7.834440208368402  -4.017350989796938E1  -4.602995471964569E1  -8.774539368857001E1  -4.564649842614537E1  -7.791209466140948E1  -8.004813551139014  -1.979471143999892E1  
 2.460005310000000E9    -7.778996441157275  -1.338276088353532E2  -4.712013318570872E1   6.391248552439983E1  -4.432949458917246E1   6.442308666367569E1  -1.005747264097773E1  -1.426554408120694E2  
 2.490005265000000E9    -1.082486560581734E1   1.125633975123894E2  -4.460727485710120E1  -1.525485327033861E2  -4.844301876922364E1  -1.132475556190615E2  -8.031051384440302   1.137916157883759E2  
 2.520005220000000E9    -7.579112196578818  -2.296761101305410E1  -4.649859079572786E1   1.225635823408136E1  -4.782459885048281E1   1.617894782290157E1  -8.157280262806012   9.865755004746989  
 2.550005175000000E9    -7.271344984890745  -1.301064431246901E2  -5.016211836634702E1   1.669695146727263E2  -4.459046885441133E1  -1.702193873130971E2  -6.956310110308738  -1.184042876769191E2  
 2.580005130000000E9    -6.077793803409520   1.091454514002175E2  -4.900869017752773E1  -1.772618093171178E1  -5.195334941185443E1   3.164127782386720E1  -5.688304409198041   1.405557062576770E2  
 2.610005085000000E9    -5.236412685395632   1.784466596337626E1  -5.466065506068748E1  -1.719744150034709E2  -4.922070975706837E1   1.797166352276495E2  -7.100209627855772   2.528771253667717E1  
 2.640005040000000E9    -7.421250432771445  -9.009662865515738E1  -4.362296781099959E1   2.531082562779945E1  -4.783988233518601E1   3.010639782310890E1  -6.360997320259547  -9.591492335862880E1  
 2.670004995000000E9    -7.497873075320673   1.518696257914504E2  -5.817700225088323E1   1.439768097765299E2  -5.440372531803529E1   1.046239568744553E2  -6.449543783093533   1.692131655188150E2  
 2.700004950000000E9    -8.092208615924911   4.258415585112096E1  -4.370395915198558E1  -6.502782672963257E1  -4.444162849015945E1  -6.597170715094862E1  -8.308306195150061   4.845037838432825E1  
 2.730004905000000E9    -7.021590240498549  -9.522537273504308E1  -4.870869293276304E1   9.062652061921872E1  -4.882699186577914E1   9.383717686716713E1  -5.410526590146980  -6.409904866611318E1  
 2.760004860000000E9    -4.912889255144398   1.681026952236954E2  -5.082071019855108E1  -2.641944725215820E1  -5.187622896191002E1  -2.973198292590355E1  -5.504361566323065  -1.659611172642386E2  
 2.790004815000000E9    -5.641871840324510   6.149506323488085E1  -5.883789910266976E1   1.571721271778901E2  -5.833681413660393E1   1.225183476919567E2  -5.964027110221097   6.894143346658274E1  
 2.820004770000000E9    -5.064383688295520  -4.822518227421753E1  -5.289406102104116E1  -3.443576795890105E1  -6.090508488151732E1  -1.303002882221637E2  -4.461914032465798  -3.520948220157201E1  
 2.850004725000000E9    -6.337530565430078  -1.457750669146812E2  -4.753766488859409E1   9.666851087733411E1  -4.915232167514461E1   1.311035201376190E2  -6.971031668055450  -1.469547534117897E2  
 2.880004680000000E9    -8.732103879692419   8.006816279142380E1  -4.741181960155782E1  -9.523550298938221E1  -4.531899581588748E1  -9.293131289706234E1  -6.242084158252932   9.362704994447267E1  
 2.910004635000000E9    -5.847829217824276  -3.209163888078638E1  -4.977828373994466E1   9.317332363761865E1  -5.787437461464155E1   1.254530094848531E2  -4.943867504722027  -1.656613807485264  
