#  HZ   S   DB   R     50.0 
! Rohde & Schwarz ZVL13 2Ports - Version 3.20 - 1303.6509k13 SN: 100953
! Date: 2024-10-09 07:53:59
! Data & Calibration Information:
! Trc1:S11(TOSM) Trc4:S21(TOSM) Trc2:S12(TOSM) Trc3:S22(TOSM)
! 
! 
! 
 9.000000000000000E3     1.373564597208473E-1  -5.384179324330328E-2  -5.549649146774805E1   3.276660682929884E1  -6.011883266415804E1  -1.279787367559816E2   1.581172883178403E-1  -6.784306611319310E-2  
 3.000895500000000E7     5.686186842740489E-1  -5.661047557986382E1  -5.114905146960756E1   1.199718180700561E2  -3.944328019011868E1   1.565422988915484E2   5.390737099177484E-1  -6.141223986389286E1  
 6.000891000000000E7     1.464389626905229  -1.138436997610312E2  -3.731663870543338E1   2.068412922984641  -3.676219383200439E1  -2.336952842273169E1   1.396147405046225  -1.173126056412519E2  
 9.000886500000000E7     1.395191083798762  -1.742237408594398E2  -2.952976387137702E1  -1.163932334840990E2  -3.739657132746954E1  -1.531160051573527E2   1.880172014897177  -1.750049281093984E2  
 1.200088200000000E8     9.547707991325648E-1   1.266774267880546E2  -2.756672255155140E1   8.462840161634721E1  -2.759021060882478E1   1.015299085325074E2   1.704571067253184   1.319451612864350E2  
 1.500087750000000E8     1.253866986859182E-1   6.556758618770043E1  -2.654771668977210E1  -5.035272125756463E1  -2.521061336011597E1  -4.973611939433868E1   6.785241242680428E-1   6.739138253134514E1  
 1.800087300000000E8    -4.299540383313034E-1   6.730333135873930  -3.441164121377656E1   1.292900305807255E2  -3.077955817753027E1   1.521475932847013E2  -2.509215565492932E-1   6.912891625182434  
 2.100086850000000E8    -3.677327561125356E-2  -4.973301158596951E1  -2.598253295751355E1   8.821055736963523  -2.617317995202449E1  -1.037631146677708E1  -4.872538999016525E-1  -5.170620494928496E1  
 2.400086400000000E8     5.768336549564447E-1  -1.011467360981989E2  -2.653749790185071E1  -1.259428759651288E2  -2.345832577224851E1  -1.314809004173356E2   2.280783122430251E-1  -1.033756074521225E2  
 2.700085950000000E8     7.959141669906187E-1  -1.563213173155010E2  -2.753928827239908E1   1.263892297798019E2  -2.930174303678535E1   7.927864836021220E1   1.270539166813338  -1.547646045470204E2  
 3.000085500000000E8     6.120586373570187E-1   1.430804504323997E2  -2.365654700693760E1   6.437781987488330E1  -2.664081961523271E1   8.565514097880434E1   1.351027642053950   1.441446256926858E2  
 3.300085050000000E8    -5.497851745343041E-1   7.540023993198919E1  -2.166054144223406E1  -6.321507470274321E1  -2.045046023723257E1  -3.104715527262548E1   3.562908133689364E-1   7.963631018857073E1  
 3.600084600000000E8    -7.164694137495257E-1   1.416832283798400E1  -1.874242329154849E1  -1.578381080575308E2  -1.963545896792613E1  -1.753010751180148E2  -8.863223549175758E-1   1.465118028974912E1  
 3.900084150000000E8    -3.991288761462433E-1  -4.037648386653650E1  -2.418246907612463E1   8.907629828216001E1  -2.078545319068827E1   9.771536597525289E1  -1.298722264384652  -4.162843127003221E1  
 4.200083700000000E8     3.743681982534150E-1  -8.800154368530529E1  -2.535112712170038E1   1.203927691176182E1  -2.502609695566206E1  -1.858957713533190E1  -1.342498467006237  -8.931453272524644E1  
 4.500083250000000E8     7.548394504755396E-1  -1.418653309618181E2  -3.020912225554052E1  -8.250432943333081E1  -2.763666067538281E1  -1.178771279502357E2  -1.075197401725753E-1  -1.368627577137708E2  
 4.800082800000000E8    -4.391665000873728E-2   1.547129016653141E2  -3.007844358780445E1  -1.545737608252607E2  -3.547317703009678E1  -1.493326166214359E2   7.168465204956851E-1   1.650271689592677E2  
 5.100082350000000E8    -1.580542922485888   8.445534987060184E1  -3.084687312807328E1   6.661539510551413E1  -3.072393558770474E1   6.178092249318161E1   1.161878969242798E-1   9.326809955577579E1  
 5.400081900000000E8    -1.476464598431984   2.071281714822673E1  -3.135323874083678E1  -1.255972976955072E2  -2.783803314485149E1  -1.027588035701863E2  -8.301338972446535E-1   2.469453954908415E1  
 5.700081450000000E8    -7.350172507518439E-1  -3.117850107770714E1  -3.217640247581839E1   1.281722854582899E2  -3.125299545747537E1   9.199254359447612E1  -1.446656762921727  -3.002663171741145E1  
 6.000081000000000E8     2.808523519371942E-1  -7.909475985620431E1  -3.443729317664580E1   1.594542307649387E1  -3.039276375987254E1   1.408538360673398E1  -1.016870262232114  -7.601801743019436E1  
 6.300080550000000E8     1.069246104333748  -1.268328760596182E2  -3.519880084243363E1  -2.921095502437256E1  -3.492153747535797E1  -8.482374760455144E1  -7.446012991386984E-1  -1.232889958631446E2  
 6.600080100000000E8     3.341559162854226E-1   1.656705392025567E2  -3.213770510845004E1  -1.004530179734850E2  -4.147453347446405E1  -1.191101871070379E2   3.271289147852393E-1   1.759641485134689E2  
 6.900079650000000E8    -1.724159802087503   8.459743934983631E1  -2.286670278812136E1   1.299850931527361E2  -2.400120384640211E1   1.522807337405694E2  -6.716131558833943E-2   9.849193129593307E1  
 7.200079200000000E8    -1.892743548785651   1.623143139424704E1  -2.416706366408553E1   1.915444413609312E1  -2.304539048683717E1   1.915449432992583E1  -1.407587794242017   2.334091456953005E1  
 7.500078750000000E8    -1.206967941363725  -3.236650747738943E1  -2.566960075775561E1  -9.582694845931960E1  -2.203954134864168E1  -8.864440198535962E1  -2.000865469661605  -2.697913764688262E1  
 7.800078300000000E8    -1.616351270819569E-2  -7.469744438427753E1  -2.941610434233174E1   1.771024245284215E2  -2.607968719867622E1   1.588652682407866E2  -2.032084340102131  -7.253184504777873E1  
 8.100077850000000E8     1.610887222340320E-1  -1.271180818236924E2  -2.985708068704177E1   1.107785829263327E2  -2.638780292728485E1   7.402412059451785E1  -1.672570103288286  -1.195045375043772E2  
 8.400077400000000E8    -1.634902471088278   1.606889130187043E2  -2.570978171224168E1   4.694015178511370E1  -3.272120983782263E1   3.612105227091151E1  -1.184360993722944   1.720722918521034E2  
 8.700076950000000E8    -3.365500888193903   6.730565065420348E1  -2.682292894801531E1  -7.486294722828664E1  -2.551958748783748E1  -6.624892245590236E1  -2.048218336388260   8.052460920458105E1  
 9.000076500000000E8    -2.860333784216379  -3.141318843577217  -2.794670064186951E1   1.748141954493619E2  -2.718648247824416E1   1.771354870772372E2  -2.970914023624213   1.134919089999888E1  
 9.300076050000000E8    -1.759997376867344  -5.095055205784603E1  -3.311272015928081E1   5.635580091777301E1  -3.314696118119459E1   3.963051471361465E1  -3.595632627164541  -3.560003493471192E1  
 9.600075600000000E8    -2.891824118968473  -9.542503889492801E1  -3.433407586019638E1  -4.846271344096807E1  -3.347367099846788E1  -7.396650105193145E1  -4.301227491819722  -7.191615332405434E1  
 9.900075150000000E8    -8.054534964606219  -1.287287082733336E2  -3.662131662987577E1  -1.597109726435954E2  -3.569583781227885E1  -1.793397946265253E2  -6.728232665903459  -1.225509407205881E2  
 1.020007470000000E9    -2.170537394375887E1  -1.401101988378727E2  -3.687564478025160E1   7.830590980703910E1  -3.463920788644701E1   7.618028015988581E1  -1.141665078181723E1   1.508934700863808E2  
 1.050007425000000E9    -1.576287335085773E1  -3.926986465428655  -4.215405656193585E1   3.158144876712057E1  -3.907724999989684E1  -2.213192283741240  -9.025660192765761   4.762937524926174E1  
 1.080007380000000E9    -9.073911512113945  -2.701871676044113E1  -4.213376191601194E1  -1.176717561624750E2  -4.433520260059476E1  -1.066846203323781E2  -7.100795051376813  -5.616697180128781  
 1.110007335000000E9    -6.807795174023421  -4.865305903480232E1  -4.496964638749212E1  -1.037050536707009E2  -4.505673254786720E1  -1.561713853960681E2  -7.539362130954890  -3.772604860872924E1  
 1.140007290000000E9    -6.332160645497219  -7.012105169326263E1  -4.150239709314096E1  -1.483710826092201E2  -4.353271812953628E1  -6.281742479402710E1  -9.654213262410590  -5.910489721548299E1  
 1.170007245000000E9    -9.036366022029830  -8.154868179422427E1  -3.591365084911258E1  -1.276889056149356E2  -3.677317540853095E1  -1.607443310087047E2  -1.479167785972852E1  -6.621997393320062E1  
 1.200007200000000E9    -1.225097225407960E1  -7.430354738743399E1  -3.745303934151123E1   1.276347598745761E2  -3.567452595085538E1   9.839634656093686E1  -1.507310993134717E1  -2.389495131369657E1  
 1.230007155000000E9    -1.214248351460191E1  -5.113395191752499E1  -4.087227555500373E1   3.429180936185196E1  -3.764529197404351E1   6.985978026185585E1  -1.090866153648582E1  -1.585234919390043E1  
 1.260007110000000E9    -9.787943723724725  -4.836782628910522E1  -3.985363967170184E1  -1.262543275098171E2  -4.763628960487819E1  -9.399367626038466E1  -1.018053720983883E1  -3.168079993990767E1  
 1.290007065000000E9    -8.519059230563894  -5.322663875742357E1  -3.538500063060687E1   8.590697245528408E1  -4.005049245828812E1   8.736058690478157E1  -1.178521092070259E1  -4.031499038879238E1  
 1.320007020000000E9    -8.733723349304587  -5.706188183499670E1  -3.357881275905995E1   7.741874055708489E1  -3.080900768018521E1   4.171442165487895E1  -1.346596289250167E1  -2.273840305243719E1  
 1.350006975000000E9    -9.194690700499610  -5.086877726866035E1  -2.958043582975225E1  -6.718517190502935E1  -3.116814853853945E1  -8.832380357247452E1  -1.049812754825451E1  -2.444750128394952  
 1.380006930000000E9    -7.179613866941492  -4.559752127071683E1  -3.347403243539404E1  -1.381871265015233E2  -3.155312625547938E1  -1.453547126443554E2  -7.245523155505580  -1.320967170525984E1  
 1.410006885000000E9    -5.902118922566901  -5.554936528369289E1  -3.274716289857034E1   1.445211073407117E2  -3.106289482077559E1   1.130526783298677E2  -7.265268832649979  -2.671697286715653E1  
 1.440006840000000E9    -6.262777122261498  -6.869099628319511E1  -4.133635649031285E1   5.607517534383172E1  -4.121798922558691E1   6.205055716904619E1  -9.031262169825183  -4.197017904503370E1  
 1.470006795000000E9    -9.448633201184977  -7.647156891829467E1  -3.176571807152351E1   3.381394151717722E1  -3.182132341022669E1   2.614677481932622  -1.259184049886944E1  -3.999169541829271E1  
 1.500006750000000E9    -1.226746902434319E1  -4.694586236768081E1  -5.719023116274037E1   2.214509115115624E1  -5.004136184660052E1   6.515663502337125E1  -1.089797991826703E1   5.320709849716616  
 1.530006705000000E9    -8.118531779010969  -2.789931131726701E1  -2.990036416340496E1  -1.442591730057268E2  -2.880417789681635E1  -1.470393763322758E2  -6.405538165557724   2.822759669504910  
 1.560006660000000E9    -5.294237084381197  -3.398729203777901E1  -3.350627689480088E1   1.323826229139428E2  -3.131995493572297E1   9.905639614161208E1  -5.137248750327772  -1.158792205028485E1  
 1.590006615000000E9    -3.985976709245453  -4.913319126361918E1  -3.299066358956328E1   5.737057140901109E1  -3.293291140372393E1   5.692462305572954E1  -5.023932743270023  -2.761395565931661E1  
 1.620006570000000E9    -4.446934483668298  -7.191170313797008E1  -3.659060106598736E1  -1.546974299176566  -3.397850333622169E1  -7.031734329920845E1  -6.844403863303302  -4.153492158673355E1  
 1.650006525000000E9    -8.421973629080492  -8.275773796768462E1  -3.279465316138258E1  -1.299523586805412E2  -3.477020439778413E1  -1.239056598184349E2  -1.101593978117818E1  -3.870307420992204E1  
 1.680006480000000E9    -1.228892447090995E1  -3.830822948088429E1  -3.622440415448123E1   1.621592529044370E2  -4.074610981293573E1   1.349963904489315E2  -1.039793734532009E1   9.380729906377686  
 1.710006435000000E9    -6.544201732592498  -1.884953688900051E1  -3.916195742871172E1   6.101087301696866E1  -4.041693031390435E1   6.538529792260465E1  -5.385029893131802   4.532245358763402  
 1.740006390000000E9    -3.967907004053967  -2.999292242981509E1  -3.406776911864388E1   4.723931217476705E1  -3.902259257448736E1  -5.890528226367053E1  -4.093336867489724  -9.969611090839774  
 1.770006345000000E9    -3.020340591656381  -4.271741182942176E1  -4.291543171629894E1   1.463393029769665E1  -4.153364596349667E1   1.295432294296288E2  -4.045499506104016  -2.378851593807959E1  
 1.800006300000000E9    -3.506209469814013  -6.093193804339045E1  -4.397774208140953E1  -6.790535707977894E1  -3.817394854435571E1  -1.725548369630805E2  -4.928470577599719  -3.382258082245686E1  
 1.830006255000000E9    -5.382784294523296  -7.621813404533532E1  -4.615837604500344E1  -4.848290031675651E1  -4.599683455168796E1   8.239086304368579  -8.046653169464364  -3.334481685582455E1  
 1.860006210000000E9    -1.225871980611674E1  -5.480187532068361E1  -3.472260433422630E1   1.538410565063024E2  -3.690973907975484E1   1.034664660239210E2  -1.041578739393738E1  -2.986870378199593  
 1.890006165000000E9    -7.002959220747080  -1.444338741596851E1  -4.809530369618662E1   1.244571602175713E2  -4.380853591548596E1   4.390632101546701E1  -5.293929946155104   1.118007143893539E1  
 1.920006120000000E9    -3.640958603017999  -2.146991435793774E1  -3.534753782112128E1   7.534373222242660E1  -4.210094566662351E1   5.807723017865089E1  -3.304721498741932  -9.365436841939018E-1  
 1.950006075000000E9    -2.096033065444262  -3.169796115141906E1  -3.614528111919316E1   9.224116795681193  -4.132104130643788E1  -6.183187820892104E1  -2.867711212446654  -1.410713852865734E1  
 1.980006030000000E9    -2.138917390644836  -4.954880795732106E1  -3.429910003909764E1  -2.469317830193341E1  -3.960243135318209E1  -1.071141420653526E2  -3.727067456417968  -2.445937706920843E1  
 2.010005985000000E9    -3.596334064041376  -7.094382171362040E1  -3.388374684671833E1  -1.619417292543736E2  -3.476869798052971E1  -1.508506937875547E2  -5.613171804349864  -2.752713161647174E1  
 2.040005940000000E9    -9.950581720792927  -6.528139512902453E1  -3.046650441350161E1   1.733838828889898E2  -3.256147548606083E1   1.144494782031134E2  -9.045804574150917  -1.151566707621620E1  
 2.070005895000000E9    -7.172759024486870  -1.603768242582670E1  -2.693909194106960E1   4.492573742515862E1  -2.712488279390026E1   1.114062459609924E1  -5.648029197473084   8.213970531849180  
 2.100005850000000E9    -3.567629748548546  -1.572434877625344E1  -3.192587529808337E1  -3.262006936290362  -3.482827359556155E1  -2.511485509662306E1  -3.085079552731121   2.424179587511949  
 2.130005805000000E9    -1.954821584497131  -2.740231982738798E1  -3.090908872557376E1  -1.101034349292130E2  -3.140827727930522E1  -1.468158097280282E2  -2.490338181494487  -8.413696075562090  
 2.160005760000000E9    -1.423945682926629  -4.018272119352927E1  -3.014799920102558E1   1.588942288046662E2  -2.766946058250192E1   1.759907148866524E2  -2.789328884801332  -1.802022907451748E1  
 2.190005715000000E9    -3.009739430273031  -5.750962093797509E1  -2.592831284400945E1   8.951969516299339E1  -2.932058737364648E1   9.284250180603767E1  -4.342523778622546  -2.215357239912931E1  
 2.220005670000000E9    -6.720154380135218  -5.834850961507482E1  -2.317348978491079E1   1.354638379692388E1  -3.065217949491926E1  -5.563060762252778  -5.819612762541233  -9.978118267526538  
 2.250005625000000E9    -6.276158689610308  -2.422875061621875E1  -2.552743447882169E1  -7.075344118256183E1  -3.044010139275811E1  -7.128144202072534E1  -4.663800071037055   1.274232206616708  
 2.280005580000000E9    -3.638011227035055  -1.849676073281776E1  -2.750586800173775E1  -1.776005709148373E2  -3.130078975066773E1   1.649151863520559E2  -3.263855020045805   1.940240429666521  
 2.310005535000000E9    -2.572373047809335  -2.268054810871787E1  -3.191080961452728E1   1.491907769164168E2  -3.339766239586707E1   1.490083772108376E2  -2.430031435719875  -3.322471378030381  
 2.340005490000000E9    -1.882396726451203  -3.153405564944533E1  -2.823283941534084E1   6.554263747362469E1  -3.309403589996466E1   6.932496658917482E1  -2.632225302635807  -7.222787367729909  
 2.370005445000000E9    -2.652498564794567  -3.895944067343002E1  -3.480065986902024E1   2.273655035522367E1  -3.118741003414941E1   2.778941505275438E1  -2.863735720736055  -1.017237230911945E1  
 2.400005400000000E9    -3.707905794151334  -3.950927909573873E1  -2.818883936146339E1  -6.288824913636602E1  -3.243808375670938E1  -5.229770762826355E1  -3.520109190358434  -1.155195195513636E1  
 2.430005355000000E9    -4.655047913604812  -3.069611632811775E1  -2.425411588991005E1  -1.353443530599087E2  -2.857514530202804E1  -1.459639290864405E2  -4.193301809566544  -5.995429632234961  
 2.460005310000000E9    -4.203027035582334  -2.441547251777360E1  -2.572245513160013E1   1.313549878841747E2  -3.163140003727855E1   1.289870702507927E2  -3.614303354581317  -1.350798144551302  
 2.490005265000000E9    -3.221726394708574  -1.998545274084945E1  -2.946699368450186E1   6.475086131628079E1  -2.852169974412117E1   7.322905287735367E1  -2.647210910172816   1.027815423800614  
 2.520005220000000E9    -2.336540516547432  -2.208006499384438E1  -2.574561832476586E1  -3.309364877679196E1  -2.987232532134174E1  -1.651480706922208E1  -2.044228577004718  -1.098922066080343  
 2.550005175000000E9    -2.318209493178411  -2.387129411842621E1  -3.166862148809911E1  -9.055040637850190E1  -3.044805007615483E1  -9.697907580798035E1  -2.049498286103255  -3.783552805161125  
 2.580005130000000E9    -2.256278562426696  -2.864204418845188E1  -2.917525861806773E1  -1.549218893728333E2  -4.136816358336245E1  -1.528072954197315E2  -2.255602710746854  -5.353479895098737  
 2.610005085000000E9    -3.163533695492006  -3.494819529900622E1  -2.586585707314568E1   1.342940395765212E2  -3.065796536664339E1   1.262051443425585E2  -2.956254097390811  -5.597080486958493  
 2.640005040000000E9    -3.767195274697415  -2.907319848302169E1  -2.603256647797696E1   4.073526224395925E1  -3.447247550191978E1   4.860096928262715E1  -2.982922796258443  -2.298191279847498  
 2.670004995000000E9    -4.052724814030383  -2.171299075182979E1  -3.528413696933074E1  -3.424797137705478E1  -4.272226639539660E1  -8.785713297667937E1  -2.975660608829611   2.434645503654215  
 2.700004950000000E9    -2.824316749218244  -1.600691622786885E1  -2.798732323977714E1  -1.150426159457780E2  -3.227179335040774E1  -1.419976138034430E2  -1.961010351013792   2.461031380630443  
 2.730004905000000E9    -2.308447426994495  -1.292721897149494E1  -2.490026236510510E1   1.717416970447105E2  -3.473170810028449E1   1.463784194338059E2  -1.514480388679934   2.034906378291279  
 2.760004860000000E9    -1.994077843034289  -1.663114487143209E1  -3.970412863327734E1   1.683129369907923E2  -3.083612450816417E1   1.634196709174171E2  -1.331396930250419  -8.087184002087101E-1  
 2.790004815000000E9    -1.550037909693727  -2.344996510823930E1  -3.079704613950363E1   1.094714625733861E2  -3.811266451231851E1   8.322604437533855E1  -1.517187082792184  -3.798439069734480  
 2.820004770000000E9    -2.561884572763356  -2.794223592684252E1  -3.423913792625425E1   4.529999915195095  -3.251087441422478E1  -5.037150773312138E1  -1.940964065041734  -4.562111060896079  
 2.850004725000000E9    -4.177445480372580  -2.667428552899241E1  -3.004920702111498E1  -1.331760230424399E2  -2.921025193103559E1  -1.168736335946290E2  -2.857549201279618  -1.328647299853720  
 2.880004680000000E9    -3.682226920785948  -1.382945476587000E1  -2.763526442959841E1  -1.741138377829818E2  -3.077774297637456E1  -1.749312965807793E2  -2.091071554076350   7.173205593841000  
 2.910004635000000E9    -2.845276348969806  -5.416564399653328  -2.786850747015899E1   1.082430696828910E2  -3.639304872379550E1   1.098854828322967E2  -1.371231090531105   5.421520825714896  
 2.940004590000000E9    -1.928558921339209  -7.014270705056166  -3.662714894261374E1   6.242421979049034E1  -3.919452033753003E1   1.634948720456879E2  -6.099488274545379E-1   4.053435680502320  
