!Keysight Technologies N9916A: A.08.06
!Date: Thursday, 30 May 2024 20:09:04
!Timezone: (GMT+10:00) Brisbane
!Model: N9916A
!Serial: MY53102361
!GPS Latitude: 
!GPS Longitude: 
!GPS TimeStamp: 0001-01-01 00:00:00Z
!GPS Seconds Since Last Read: 0
!CHECKSUM:0789950438
!Correction: S11(Rdy)S21()S12()S22()
!S2P File: Measurements:S11,S21,S12,S22:
# Hz S RI R 50
30000	0.790844132813543	-0.287166508774166	1	0	1	0	1	0	
30029850	-0.0957950452251979	0.351834978805431	1	0	1	0	1	0	
60029700	0.464284558198759	-0.467381120685457	1	0	1	0	1	0	
90029550	-0.578129593142609	0.487049675377691	1	0	1	0	1	0	
120029400	0.330734860544599	0.054270309221517	1	0	1	0	1	0	
150029250	0.104830914953073	0.0861010010602285	1	0	1	0	1	0	
180029100	-0.418291741534967	0.0656058370234698	1	0	1	0	1	0	
210028950	0.511421725152699	0.0429311357252428	1	0	1	0	1	0	
240028800	-0.408909795641409	-0.323960276593844	1	0	1	0	1	0	
270028650	-0.117727189723767	0.407191837769806	1	0	1	0	1	0	
300028500	0.313386374673069	-0.0775039455891018	1	0	1	0	1	0	
330028350	-0.034329105225544	0.0383148730328894	1	0	1	0	1	0	
360028200	-0.131155124797116	0.120944615282869	1	0	1	0	1	0	
390028050	0.206261642273646	-0.369659164460269	1	0	1	0	1	0	
420027900	-0.292589647899291	0.0289184846148892	1	0	1	0	1	0	
450027750	0.0775455990830473	0.340312737280654	1	0	1	0	1	0	
480027600	0.0317565296613057	-0.028197630716492	1	0	1	0	1	0	
510027450	0.150240434062092	0.0793477474257612	1	0	1	0	1	0	
540027300	0.14351997593363	-0.0536391165781838	1	0	1	0	1	0	
570027150	-0.017968783073433	-0.0844424789004406	1	0	1	0	1	0	
600027000	-0.194653956020457	-0.0400630854241345	1	0	1	0	1	0	
630026850	-0.0533535125996518	0.225955222877416	1	0	1	0	1	0	
660026700	0.103352441488173	0.143124118190379	1	0	1	0	1	0	
690026550	0.165700491880215	0.0140605115661548	1	0	1	0	1	0	
720026400	0.0639495066074129	-0.177550354823581	1	0	1	0	1	0	
750026250	-0.0251374982540337	-0.00452039924282762	1	0	1	0	1	0	
780026100	-0.318758846044612	-0.380233984328454	1	0	1	0	1	0	
810025950	-0.0472062055789548	0.400640033831807	1	0	1	0	1	0	
840025800	0.186119055390824	0.0178316943382871	1	0	1	0	1	0	
870025650	0.0921829768009634	0.0303244649750332	1	0	1	0	1	0	
900025500	0.191367327724202	-0.122353332496994	1	0	1	0	1	0	
930025350	-0.00588640788685718	-0.255247621672836	1	0	1	0	1	0	
960025200	-0.21183038680362	-0.0520663436441269	1	0	1	0	1	0	
990025050	-0.0373255167590706	0.155307768195478	1	0	1	0	1	0	
1020024900	0.133283210005741	0.092385836338015	1	0	1	0	1	0	
1050024750	0.191443388810023	0.0174300465736184	1	0	1	0	1	0	
1080024600	0.186356144237422	-0.178168269225896	1	0	1	0	1	0	
1110024450	-0.0934856310909894	-0.138027028527068	1	0	1	0	1	0	
1140024300	-0.192953119764871	-0.229808158277523	1	0	1	0	1	0	
1170024150	-0.11432618298502	0.245404059972004	1	0	1	0	1	0	
1200024000	0.176391359403584	0.096243766231974	1	0	1	0	1	0	
1230023850	0.07813547927714	0.0131081511408969	1	0	1	0	1	0	
1260023700	0.192072613771573	-0.0105531665018171	1	0	1	0	1	0	
1290023550	0.0572239285227605	-0.256047632407084	1	0	1	0	1	0	
1320023400	-0.230168788786218	-0.0549444289579562	1	0	1	0	1	0	
1350023250	-0.0291707260947025	0.157260240608325	1	0	1	0	1	0	
1380023100	0.0365532267572304	-0.00414073676997659	1	0	1	0	1	0	
1410022950	0.00812332354764832	0.106946601887108	1	0	1	0	1	0	
1440022800	0.207007761874267	-0.0634638740482771	1	0	1	0	1	0	
1470022650	-0.0858003621806976	-0.261360287604662	1	0	1	0	1	0	
1500022500	-0.0894537125481165	0.0699828881286735	1	0	1	0	1	0	
1530022350	-0.196202706439643	-0.0600796915741789	1	0	1	0	1	0	
1560022200	-0.0045598365643797	0.0350711057760268	1	0	1	0	1	0	
1590022050	-0.0558292578068714	-0.0101386843397724	1	0	1	0	1	0	
1620021900	0.0709047842077702	0.023598845778832	1	0	1	0	1	0	
1650021750	0.0313197191287796	-0.169212231533128	1	0	1	0	1	0	
1680021600	-0.126672705126374	-0.0816866034300016	1	0	1	0	1	0	
1710021450	-0.00498816036276052	-0.0195291647788614	1	0	1	0	1	0	
1740021300	-0.0847955092935562	-0.132912096470396	1	0	1	0	1	0	
1770021150	-0.189033018918201	0.0596693030018188	1	0	1	0	1	0	
1800021000	0.0994697930425596	0.153834496289704	1	0	1	0	1	0	
1830020850	-0.00269783742767251	-0.115109176463129	1	0	1	0	1	0	
1860020700	0.0971203408977425	0.102687694964171	1	0	1	0	1	0	
1890020550	0.0828269507473065	-0.204125661777976	1	0	1	0	1	0	
1920020400	-0.175792663686801	-0.11103030056326	1	0	1	0	1	0	
1950020250	-0.162592425642782	0.067837602255285	1	0	1	0	1	0	
1980020100	-0.0907352777096591	0.158633309782041	1	0	1	0	1	0	
2010019950	0.0803863419890023	0.197504891825812	1	0	1	0	1	0	
2040019800	0.202704749564598	0.00902946961784238	1	0	1	0	1	0	
2070019650	0.0533959721763655	-0.174692065377793	1	0	1	0	1	0	
2100019500	-0.145301147712404	-0.16839497256528	1	0	1	0	1	0	
2130019350	-0.31486250733402	0.00308191535462991	1	0	1	0	1	0	
2160019200	-0.218555073629607	0.325527065022575	1	0	1	0	1	0	
2190019050	0.178105135757427	0.308439836373176	1	0	1	0	1	0	
2220018900	0.126749059280816	0.0532797289502896	1	0	1	0	1	0	
2250018750	0.255916149563655	-0.238077968768047	1	0	1	0	1	0	
2280018600	-0.22352464131654	-0.344878525129067	1	0	1	0	1	0	
2310018450	-0.426404934732981	0.0198093312559843	1	0	1	0	1	0	
2340018300	-0.280778812308009	0.329606694821617	1	0	1	0	1	0	
2370018150	0.0792426367289563	0.434112640614732	1	0	1	0	1	0	
2400018000	0.416709009766681	0.149857648464535	1	0	1	0	1	0	
2430017850	0.300322413324664	-0.312942589230026	1	0	1	0	1	0	
2460017700	-0.14772301986876	-0.39840647028169	1	0	1	0	1	0	
2490017550	-0.457324119711978	-0.094632070386702	1	0	1	0	1	0	
2520017400	-0.36963075783565	0.372497791180985	1	0	1	0	1	0	
2550017250	0.114142874529505	0.559669886855817	1	0	1	0	1	0	
2580017100	0.530922480137498	0.155358624036856	1	0	1	0	1	0	
2610016950	0.468135390087102	-0.221754211914559	1	0	1	0	1	0	
2640016800	-0.0498576815691101	-0.5425394743099	1	0	1	0	1	0	
2670016650	-0.524100131218071	-0.134407138837159	1	0	1	0	1	0	
2700016500	-0.400100783467195	0.41669421615508	1	0	1	0	1	0	
2730016350	0.0841463378869566	0.609473276792454	1	0	1	0	1	0	
2760016200	0.542860537593874	0.345937429452941	1	0	1	0	1	0	
2790016050	0.577859025454551	-0.237128929370586	1	0	1	0	1	0	
2820015900	0.0336689702298294	-0.57422327642829	1	0	1	0	1	0	
2850015750	-0.509757259764439	-0.229541579538205	1	0	1	0	1	0	
2880015600	-0.495347365325549	0.357488151023627	1	0	1	0	1	0	
2910015450	0.00309213903043789	0.695896116211826	1	0	1	0	1	0	
2940015300	0.584970344461986	0.390490086873857	1	0	1	0	1	0	
2970015150	0.60746422926235	-0.158962264434062	1	0	1	0	1	0	
3000015000	0.181904458289742	-0.621264948606556	1	0	1	0	1	0	
3030014850	-0.493614045792737	-0.41278728599456	1	0	1	0	1	0	
3060014700	-0.596846306887023	0.280940971815628	1	0	1	0	1	0	
3090014550	-0.0753989071190849	0.672550601248752	1	0	1	0	1	0	
3120014400	0.50534820172064	0.477421678410546	1	0	1	0	1	0	
3150014250	0.707465455599852	-0.112642036883227	1	0	1	0	1	0	
3180014100	0.306789951295085	-0.645775215194764	1	0	1	0	1	0	
3210013950	-0.39408630400596	-0.548493357357869	1	0	1	0	1	0	
3240013800	-0.620453063231056	0.126127894772368	1	0	1	0	1	0	
3270013650	-0.204835536744281	0.639985506052045	1	0	1	0	1	0	
3300013500	0.506969709904043	0.54470823949294	1	0	1	0	1	0	
3330013350	0.738223546233068	-0.0649051187424913	1	0	1	0	1	0	
3360013200	0.450091200814164	-0.586251274930337	1	0	1	0	1	0	
3390013050	-0.212967813424165	-0.678845678915598	1	0	1	0	1	0	
3420012900	-0.659260820151726	-0.081089170803988	1	0	1	0	1	0	
3450012750	-0.309612461306418	0.596859692171256	1	0	1	0	1	0	
3480012600	0.405142845762993	0.592172194542525	1	0	1	0	1	0	
3510012450	0.750293621924335	0.0532877422825898	1	0	1	0	1	0	
3540012300	0.528247199377881	-0.538061997625592	1	0	1	0	1	0	
3570012150	-0.110437902188486	-0.713557178549439	1	0	1	0	1	0	
3600012000	-0.635997378857104	-0.251953311400851	1	0	1	0	1	0	
3630011850	-0.4639676433729	0.463097586952334	1	0	1	0	1	0	
3660011700	0.207720009621755	0.673217149616147	1	0	1	0	1	0	
3690011550	0.728559593333832	0.167646617381119	1	0	1	0	1	0	
3720011400	0.568387742704367	-0.458485106365924	1	0	1	0	1	0	
3750011250	-0.00518197298723687	-0.725660253718719	1	0	1	0	1	0	
3780011100	-0.591683612842156	-0.408628906120558	1	0	1	0	1	0	
3810010950	-0.634473054940392	0.316587299001282	1	0	1	0	1	0	
3840010800	0.0125501379508784	0.708417190910155	1	0	1	0	1	0	
3870010650	0.63388494456329	0.313880368646222	1	0	1	0	1	0	
3900010500	0.629989263136859	-0.354453552866795	1	0	1	0	1	0	
3930010350	0.117618553015187	-0.73522878146153	1	0	1	0	1	0	
3960010200	-0.506646324918695	-0.539931845098664	1	0	1	0	1	0	
3990010050	-0.68460651902833	0.136318656237657	1	0	1	0	1	0	
4020009900	-0.16729155785633	0.623643237535197	1	0	1	0	1	0	
4050009750	0.552062857877276	0.439446828754045	1	0	1	0	1	0	
4080009600	0.652821749567635	-0.301260124932064	1	0	1	0	1	0	
4110009450	0.156041347879351	-0.692705951814355	1	0	1	0	1	0	
4140009300	-0.423186016596627	-0.57213071262819	1	0	1	0	1	0	
4170009150	-0.700024588387558	-0.00950056421520017	1	0	1	0	1	0	
4200009000	-0.340713177287133	0.589135951171675	1	0	1	0	1	0	
4230008850	0.409365859539633	0.525975848231379	1	0	1	0	1	0	
4260008700	0.646602080468663	-0.143620504432074	1	0	1	0	1	0	
4290008550	0.280110336733498	-0.619369830659141	1	0	1	0	1	0	
4320008400	-0.319006999298701	-0.610251993179023	1	0	1	0	1	0	
4350008250	-0.675529934450045	-0.116609159776471	1	0	1	0	1	0	
4380008100	-0.420910142066985	0.482067520778906	1	0	1	0	1	0	
4410007950	0.193276111239406	0.603083400231273	1	0	1	0	1	0	
4440007800	0.623264373824692	0.0497437581719742	1	0	1	0	1	0	
4470007650	0.337773496677244	-0.499151898585204	1	0	1	0	1	0	
4500007500	-0.200093232546869	-0.584866183264081	1	0	1	0	1	0	
4530007350	-0.606401723811975	-0.19826540510144	1	0	1	0	1	0	
4560007200	-0.488273092429727	0.380629550655051	1	0	1	0	1	0	
4590007050	0.0726140319411184	0.561961611667959	1	0	1	0	1	0	
4620006900	0.478313758286314	0.18342800478275	1	0	1	0	1	0	
4650006750	0.400718812661512	-0.312378507590124	1	0	1	0	1	0	
4680006600	-0.0543461382845639	-0.536850186158409	1	0	1	0	1	0	
4710006450	-0.502301166015677	-0.238110450368641	1	0	1	0	1	0	
4740006300	-0.436562696757393	0.239750490210227	1	0	1	0	1	0	
4770006150	-0.135255014232404	0.501300228643951	1	0	1	0	1	0	
4800006000	0.335357089142174	0.367707274132063	1	0	1	0	1	0	
4830005850	0.423596017600977	-0.0912051163835448	1	0	1	0	1	0	
4860005700	0.114246579663615	-0.405342910675357	1	0	1	0	1	0	
4890005550	-0.321161012425173	-0.323159950414016	1	0	1	0	1	0	
4920005400	-0.486081241798723	0.0769351828007358	1	0	1	0	1	0	
4950005250	-0.251141475853181	0.406004533218024	1	0	1	0	1	0	
4980005100	0.102794160078911	0.406577276713319	1	0	1	0	1	0	
5010004950	0.351316212595368	0.152232240655844	1	0	1	0	1	0	
5040004800	0.291339404238544	-0.270564445518137	1	0	1	0	1	0	
5070004650	-0.139035093015422	-0.426597108601818	1	0	1	0	1	0	
5100004500	-0.451664676321755	-0.139696928525667	1	0	1	0	1	0	
5130004350	-0.443312896794786	0.268717394265571	1	0	1	0	1	0	
5160004200	-0.0538747803866565	0.548332293807315	1	0	1	0	1	0	
5190004050	0.440348466007557	0.350952963989659	1	0	1	0	1	0	
5220003900	0.540068624763579	-0.189141007960121	1	0	1	0	1	0	
5250003750	0.0949058139586801	-0.567271555546781	1	0	1	0	1	0	
5280003600	-0.458978619622801	-0.357807238287278	1	0	1	0	1	0	
5310003450	-0.545050443493375	0.2485365859689	1	0	1	0	1	0	
5340003300	-0.0601115927291501	0.61657503902117	1	0	1	0	1	0	
5370003150	0.481846959432335	0.431624547217213	1	0	1	0	1	0	
5400003000	0.660777937404506	-0.140905472894579	1	0	1	0	1	0	
5430002850	0.224392000650334	-0.610655783896522	1	0	1	0	1	0	
5460002700	-0.422905072399704	-0.454065067301715	1	0	1	0	1	0	
5490002550	-0.590840332570622	0.210922223158617	1	0	1	0	1	0	
5520002400	-0.126231251454714	0.646635485689216	1	0	1	0	1	0	
5550002250	0.450218233794312	0.526592929015706	1	0	1	0	1	0	
5580002100	0.703436760199815	-0.0206366311975945	1	0	1	0	1	0	
5610001950	0.33849860259207	-0.571423974338585	1	0	1	0	1	0	
5640001800	-0.381912633136716	-0.484909750550987	1	0	1	0	1	0	
5670001650	-0.606023205574535	0.189278062820911	1	0	1	0	1	0	
5700001500	-0.167091891963634	0.654543009126587	1	0	1	0	1	0	
5730001350	0.417027794284721	0.538396020203833	1	0	1	0	1	0	
5760001200	0.643784720994295	-0.00483761623996479	1	0	1	0	1	0	
5790001050	0.324473599534521	-0.506331298596414	1	0	1	0	1	0	
5820000900	-0.298429234459396	-0.493963009826779	1	0	1	0	1	0	
5850000750	-0.529285126735006	0.0467718497720232	1	0	1	0	1	0	
5880000600	-0.228939772379864	0.451637664337776	1	0	1	0	1	0	
5910000450	0.261479870559336	0.453082328338946	1	0	1	0	1	0	
5940000300	0.546915162802763	0.0295253022710699	1	0	1	0	1	0	
5970000150	0.367460549994066	-0.44428705368221	1	0	1	0	1	0	
6000000000	-0.154842088333834	-0.555141921968663	1	0	1	0	1	0	
