#  HZ   S   DB   R     50.0 
! Rohde & Schwarz ZVL13 2Ports - Version 3.20 - 1303.6509k13 SN: 100953
! Date: 2024-10-09 08:19:14
! Data & Calibration Information:
! Trc1:S11(TOSM) Trc4:S21(TOSM) Trc2:S12(TOSM) Trc3:S22(TOSM)
! 
! 
! 
 9.000000000000000E3     1.332154190162951E-1  -5.321668904750190E-2  -6.115555552620161E1  -2.513045016415288E1  -4.970132345625338E1   1.529944980127424E2  -1.511038208447562E1  -5.825171291959910E-2  
 3.000895500000000E7     7.087683041875631E-1  -6.994165484443279E1  -1.573497432704873E1   1.896444697707482E1  -1.227106971282751E1  -2.893983601739086  -1.290970383605875E1  -8.940068716629894E1  
 6.000891000000000E7     1.993237005824887  -1.450685462976817E2  -8.813673280741220  -4.210736674220420E1  -1.365109977213867E1  -1.136539836703771E2  -8.749008445461394  -1.353237956103278E2  
 9.000886500000000E7     1.432365994433877   1.415105996799078E2  -6.996406946482468  -1.036063881412922E2  -9.057456286926039  -3.926414796824631E1  -5.977463913276932   1.569326369048107E2  
 1.200088200000000E8     1.943073697345669   6.084024902818240E1  -3.974161814248219  -1.566619742028694E2  -1.486367587928077E-1  -1.291068657464077E2  -7.493505498685127   6.838600416341915E1  
 1.500087750000000E8    -2.176437546377620  -3.498809067464470E1  -2.881612436845542   1.211400725697148E2   8.312966658699166E-1   1.032491255959394E2  -9.121242040039750  -1.097070249812235E2  
 1.800087300000000E8    -2.791431419807416  -8.884061924448626E1  -4.658156246409327   7.889951616493583E1   5.148570420382079E-2   4.965534370859329E1  -8.654822501426921  -1.738227898594597E2  
 2.100086850000000E8    -4.473400983849476E-1  -1.453750351386909E2   1.665507084241251   2.408544365902247E1  -6.611253679230633  -3.133260359292533E1  -6.292519765384396   4.763756935574721E1  
 2.400086400000000E8    -3.210105509690183   1.372911434184448E2  -1.542413312133527  -6.628164102134549E1  -3.290054421111962  -1.619682407879990E1  -3.421539451714923  -1.237784413374935E2  
 2.700085950000000E8    -3.831836193846895   9.333494779785393E1  -2.871732548796320  -8.879974694075186E1   2.950356134488077  -7.190296385940023E1  -2.480297552701707   1.739743482947365E2  
 3.000085500000000E8     5.707032325872696  -3.969883090422696   5.325390587354606  -1.590514289089369E2   7.263093074828622  -1.665170035025560E2   2.229882102250335   3.382505132108705E1  
 3.300085050000000E8     2.931523047740500  -1.241422855038849E2  -6.012900536217402E-1   1.143317892908455E2   3.224920502676294   7.290626722602329E1   1.401480957828726  -1.078088136629049E2  
 3.600084600000000E8     3.654566222400476E-1  -1.784115843733594E2  -4.940395977876469E-1   9.497176992306859E1  -8.470489820471318   5.381119721181609E1   6.960877626624965E-1  -1.721753818193824E2  
 3.900084150000000E8     1.270301789257266E1   9.439650316646464E1   1.619326509890876E1   6.491848329878867E1   1.391492289429813E1   9.931445630000876E1   1.755802013475209E1   8.843593420801331E1  
 4.200083700000000E8    -8.121155405860744  -1.451303167035260E2  -1.169306922379358  -7.084660382684547E1   4.236591147410205  -7.441919570158896E1   1.782613175591127  -1.260121078849190E2  
 4.500083250000000E8    -8.307727012274267   7.778688211478480E1   6.051659894966565E-1  -9.483973823028111E1   2.966897571330488  -9.105962600392472E1  -5.077063177157347E-1   1.716673049159389E2  
 4.800082800000000E8     1.251809421850359E1  -3.184749752844605E1   1.262387164428274E1  -1.535985360643627E2   1.525743603575130E1   1.650619281701757E2   1.278148596806346E1   3.494245670155907E1  
 5.100082350000000E8     2.666581899312103  -1.669556348445246E2   9.239411286221618E-1   9.807917224725522E1  -3.455100270057005   5.544246531543580E1   4.057542381967574  -1.165969012370213E2  
 5.400081900000000E8     1.692436557897236   1.432698777251750E2  -3.702654914184417E-2   1.002134487519336E2  -1.779831529103677   1.309418118125566E2   2.876892642919931   1.773147011646745E2  
 5.700081450000000E8     1.366878732226228E1  -5.858335960379102E1   1.380761721262612E1  -4.201103460051520E1   1.729479341185277E1  -4.381450689998873E1   1.579410723013623E1  -3.671355936607345E1  
 6.000081000000000E8    -4.133063666481850  -1.116945730935951E2   1.663779226336868E-1  -7.876571318136571E1   2.991907869167495  -7.740082703381626E1   1.415691875601922E-1  -1.107838037371485E2  
 6.300080550000000E8    -1.130166063597478E1  -6.994790803581454E1  -1.086695687046747  -8.575632905977754E1   1.529569700073535  -1.246109447828956E2  -4.879058875918206  -1.761905464574369E2  
 6.600080100000000E8    -5.214998712907927  -7.418663740391510   8.535475794056094  -1.126571382855855E2   5.773163991577845  -1.502396148974031E2   8.265129884164795   1.110000984379583E2  
 6.900079650000000E8    -2.650360448435358   1.635608868881698E2   1.883581449939183E-1   1.058504566379244E2  -3.026067359596119   1.467709236603250E2   1.381744299332228  -1.036671567291590E2  
 7.200079200000000E8    -2.574450102954011   8.763785791991727E1  -3.911523900051644E-1   1.031791033511816E2   2.144304605117417   1.009047145920255E2  -2.545088114850676  -1.764672870953696E2  
 7.500078750000000E8     9.000790132789195   1.477479594557235E1   7.990035083196766   5.243589570475054E1   1.220790043174192E1   4.208849231430332E1   7.576722420483890   8.492057373032885E1  
 7.800078300000000E8     3.766556320586822  -1.155987511251186E2   1.744538661660591  -4.716728485024007E1   3.027623124722293  -8.225599974661684E1   8.121491821549796E-1  -6.409628812851047E1  
 8.100077850000000E8    -2.291692944741935E-2  -1.797363272193603E2  -1.273500901366567  -7.245789233758210E1  -4.854151880416525  -1.104265736996150E2   7.973431636289646E-1  -1.318898615761013E2  
 8.400077400000000E8     7.936538112581597   1.072478782598506E2   9.811776665341025  -8.527462899732946E1   8.222548006862285  -6.005775273653971E1   1.136650972988796E1   1.418038798861925E2  
 8.700076950000000E8    -7.045844875547166  -9.579321846643474E1   1.042833219817472   1.221562179989334E2   3.328772807529899   1.263991865378292E2   4.285153181310603E-1  -7.328388198758819E1  
 9.000076500000000E8    -1.794666123655309E1   7.557383375095887E1  -7.065854184306175E-1   1.040843203962403E2   3.131904117583723   8.977889742106655E1  -2.151294160731406  -1.393347983310807E2  
 9.300076050000000E8    -3.870567649397774E-2  -1.899269568614156E1   2.695320551154153   7.054619805784490E1   5.090682177667845   4.283414271845925E1  -3.074275223499094   1.346894320701806E2  
 9.600075600000000E8     5.477659163785677  -1.592267941043381E2   4.748488481174958  -5.793949140839882E1   1.564384414874182  -1.085107082352788E2   5.680223563799066  -6.079875565915701E1  
 9.900075150000000E8     1.815888095606821E-1   1.320570538873473E2  -7.505110730952778E-1  -7.224073180630286E1  -1.657174769126979  -4.328552641484177E1  -2.826773070675857E-1  -1.394208321464801E2  
 1.020007470000000E9     4.535328676865876   3.894848869438058E1   3.149705693162050  -1.184392979738209E2   6.508530449307694  -1.117168200136969E2   1.127359463649021E-1   1.111611743961253E2  
 1.050007425000000E9     3.291541795092984  -7.700878703030958E1   2.010560413214324   1.521010927677142E2   5.504903791508687   1.300971587262068E2   1.362115667709785  -2.746629124688592E1  
 1.080007380000000E9    -4.494679610117059E-1  -1.122998124727764E2  -1.267588287548533   1.186103043704783E2   1.362588358932050   9.411916616731602E1  -2.120454003210871  -7.482107250702016E1  
 1.110007335000000E9    -4.903711917831868   1.706184632982691E2   1.089904638029981   1.103734947855095E2  -9.371622063695273E-1   5.650728560874547E1  -1.642783050287582E-1  -1.519930034998450E2  
 1.140007290000000E9     3.431561003714568  -1.049809950938504E2   9.622164294038971  -5.563434347425835E1   7.662683293225129  -3.935927715116363E1   1.057470754471619E1  -3.212955171431112E1  
 1.170007245000000E9    -1.739174386959581E1   1.013924977368666E2  -1.442967874909187  -6.435174803238175E1   2.359571013699130  -5.840538242570176E1  -2.696743077632501  -8.729044772491784E1  
 1.200007200000000E9    -1.641990741621785   3.899141275898592E1   1.584844645146722  -7.843338416116234E1   4.241955937700037  -1.025791447911759E2  -3.711244324364522  -1.645769894692029E2  
 1.230007155000000E9     1.242264678655744E1  -6.104728242904196E1   1.081179824296305E1  -1.641693296244658E2   1.392534966259045E1   1.708282455900354E2   9.745528570907762   5.299316202399668E1  
 1.260007110000000E9     1.594307892218638  -1.794787859431430E2  -2.093071766465621E-1   1.214306336123868E2  -1.767445001311566   7.906352300714990E1   1.748805436053018  -8.116510649668069E1  
 1.290007065000000E9     3.439206935081560   1.073905426826718E2   4.152992590640075   1.130790516249582E2   2.291273336528224   1.225967898234403E2   3.791676499206612  -1.563610349419984E2  
 1.320007020000000E9     5.369862668361556  -7.682944608447481E1   5.341387289970475  -3.300603148431099E1   9.519187042825363  -2.802483540425381E1   5.987192115521980  -7.906497711878627  
 1.350006975000000E9    -9.557555753106062  -8.356209901936090E1  -4.807394257762591E-1  -4.385315590093490E1   1.982266645637638  -8.112143272152085E1  -2.025583959493871  -6.453312314359020E1  
 1.380006930000000E9    -1.165135821770723E1  -2.276702905759022E1  -4.760187508014744E-1  -7.973560030836269E1   2.911327954680286  -9.709128611326908E1  -3.759393614596017  -1.157616498682443E2  
 1.410006885000000E9     8.413696634269131  -8.785120232255449E1   1.163707330372143E1  -1.458160647732519E2   9.047256538965645   1.573090655757913E2   8.369193044538516   7.292054361153214E1  
 1.440006840000000E9    -3.033641306888891   1.410968468961959E2   8.147803020664635E-1   1.254494090023800E2  -1.760439651130826   1.316028438862165E2  -5.151295034136338E-1  -6.629428929151615E1  
 1.470006795000000E9     8.517103344574920E-2   4.259458526718698E1  -1.270642985359556   9.424963718630360E1   3.988605797652795   9.600121523780300E1  -1.071117145645650E1  -1.391407598595005E2  
 1.500006750000000E9     4.467936746356501  -2.250845397775484E1   2.319993508478331   5.778818706284422E1   3.449295091274520   2.188868649243524E1  -6.327352265647233   5.696990536760508E1  
 1.530006705000000E9     5.369057718665650  -1.113224281079997E2   2.975255476752846  -3.140905696951809E1   5.457506121380078  -5.970123134884458E1   2.731691182481947  -2.024473170848314E1  
 1.560006660000000E9    -1.001700619206449   1.740070912296638E2   3.867581590842670E-1  -5.616180318607294E1  -2.825045504943604  -1.040336227811444E2  -1.046242853960757  -7.810128004232915E1  
 1.590006615000000E9     1.021566151520682E1   4.748174554048967E1   1.259907618967724E1  -9.820543929183492E1   1.038283230895518E1  -8.740813465337529E1   1.062565796993243E1   1.551708706070826E2  
 1.620006570000000E9    -7.206617924404961  -1.215839164371913E2   1.720486742154613E-1   1.331404503820608E2   4.989191253960938   1.299631672077197E2   1.433705170213805  -3.591107938629665E1  
 1.650006525000000E9    -8.219890179678007  -2.869864362318717   4.835416318818105E-2   1.272377005426802E2   1.485771631501412   9.595324860633100E1  -2.703297075684060  -5.777023694084187E1  
 1.680006480000000E9     8.124425948457043  -4.118099614109541   7.514693767525547   9.377913289053856E1   9.400709283363808   5.153009084659385E1   1.297508860207004   1.674013742066335E2  
 1.710006435000000E9     5.533455591739989  -1.671977718374161E2   6.523029810627435  -4.140817903611938E1   1.336361886375511  -7.818376793118121E1   5.192432631723531  -1.512469792006851E1  
 1.740006390000000E9     1.844860541464445E-1   1.002270850397281E2   1.085263779945623  -6.797698170421573E1  -1.562239419120113  -5.476791710671729E1   1.865256069385051E-1  -8.293485556517183E1  
 1.770006345000000E9     6.392536009135312  -4.549631050817935   4.069065811609575  -1.260648398512182E2   7.906684636925021  -1.352965244119762E2  -1.904858023798374   9.984403138300017E1  
 1.800006300000000E9     4.616889486415812  -7.741157306920282E1   3.331791337227239   1.730802861419419E2   5.606933448615699   1.467751792778379E2   1.860506248935433   8.046636616014899  
 1.830006255000000E9    -6.680125460853735  -1.041825053734011E2   2.026343323723966   1.340734648121343E2   1.178308591059963   8.665890015388354E1  -2.274694603327810E-1  -5.000815045742064E1  
 1.860006210000000E9    -7.416848937618153   4.587532045057677E1   5.435210657507132   9.625200766110370E1   9.452664117046512E-1   6.797067745316147E1  -2.189853073868061  -1.297914590651865E2  
 1.890006165000000E9    -4.475225649543450  -1.419745971827132E2   4.470308004569074  -3.574555493730068E1   3.114448058419573  -3.262789920118056E1   3.917257770820839  -6.974757006539004E-1  
 1.920006120000000E9    -3.709309736191353   3.457184931277135E1  -1.236321685930649  -5.897487631248682E1   3.209980938514028E-1  -7.225624279483336E1  -2.673513367041279  -4.090021915180127E1  
 1.950006075000000E9     2.738773616529212   4.061407978714125   9.476421960847420E-1  -7.592691754803698E1   2.873918942644182  -1.047435111235396E2  -6.201740806107558  -7.094451876611929E1  
 1.980006030000000E9     1.061975777777639E1  -7.406859501386252E1   8.443988293388415  -1.528770835733906E2   8.104845539536013   1.668235685660838E2   1.750371690713222   5.503045681541199E1  
 2.010005985000000E9     1.705202746415298E-1   1.542826365081853E2   3.169910684623867   1.213933138463846E2  -1.466181547096299   9.211957102654918E1   2.925175257262607  -4.261544948663960E1  
 2.040005940000000E9     5.405048347199399   3.807963840890023E1   6.947102492969026   9.272430427189971E1   5.066432635414669   9.334114772898803E1   1.927939949462891  -1.482010912811046E2  
 2.070005895000000E9    -6.383962816671968  -7.527448102092617E1   2.463128237484527  -2.051788406456012E1   2.768256118040055  -3.501504028608290E1   2.660887544075887   6.107627948148637  
 2.100005850000000E9    -4.078548390653097   6.226001584389868E-1  -5.914537456876075E-1  -4.563298298448116E1  -8.594385277503702E-1  -7.462106812422989E1  -7.589143015556443E-1  -2.413520116888013E1  
 2.130005805000000E9     2.654569294340750  -1.933778334540431E1   1.841506580956401  -8.211367153764111E1   6.484793805334048E-2  -1.077437685877855E2  -4.451571583832577  -4.706342020676115E1  
 2.160005760000000E9     1.413693838522905E1  -1.191955745014753E2   1.382158383903086E1  -1.761770056737968E2   1.001284242066985E1   1.513368563620395E2   7.394977456572715   6.654183154976367E1  
 2.190005715000000E9    -1.576801258129453   8.975944870128794E1   6.679180873931396E-1   1.105084268572614E2  -2.571374410262188   1.254836632305383E2   7.293710109982614E-1  -4.940731717548623E1  
 2.220005670000000E9     3.270239092884752  -1.072061271343850   1.699589318591715   6.650351843406806E1   1.879154559916625   5.187732392576812E1  -1.544717761953777E1   5.693412661487120E1  
 2.250005625000000E9     2.828257861956343E-1  -3.186197696459951E1  -1.145459478525114   7.870455784004951  -2.676537332883115  -1.850983539737423E1  -9.067754921726561E-1   1.160809251479005E1  
 2.280005580000000E9     7.637851851121696E-1  -4.846413221008228E1  -2.185257505289515E-1  -3.599264567163588E1  -4.596632322994879  -6.408799138624026E1  -2.918176346585833E-1  -9.227708169022437  
 2.310005535000000E9    -8.940562003320103E-1  -1.064000315436239E2   3.742362202528182  -1.084263074838506E2  -2.676143376713578  -1.226048894339612E2  -4.510941658879718  -4.422695017328218E1  
 2.340005490000000E9    -9.356816070206897   3.443528714764942E1  -2.148828074634606   1.539962490444469E2  -3.526860112797008   1.746556118149538E2  -7.175094672301344E-1   4.234877850538496  
 2.370005445000000E9    -2.603962584963335E-2   7.658590490829149  -6.354771563476508   1.186281719808236E2  -7.760389385642354   1.050367516809245E2  -2.794051342160191  -9.716173710442591  
 2.400005400000000E9     2.012580635604262  -9.909197374386311  -8.719564938861145   8.582848614932399E1  -1.081394450352561E1   7.098914193650006E1  -2.811384002178030  -5.009276509385369  
 2.430005355000000E9     4.830027846345188  -4.747112961386706E1  -3.972522635984866   4.027113116710833E1  -9.194693801618440   2.229920716129610E1  -2.695725965328088  -4.905325195862028E-1  
 2.460005310000000E9    -5.383732639700358   1.465200625853015E2  -5.655062167056069  -8.779152578916670E1  -1.415391108275867E1  -6.540290396526824E1  -1.841928606039451  -7.795006976872738  
 2.490005265000000E9    -2.843134823560014   1.906372662066373E1  -1.511647131770781E1  -1.429670272749257E2  -1.603406720320168E1  -1.354892348202601E2  -2.568931717877225   3.480000309359504  
 2.520005220000000E9     4.517570774442622E-1  -4.323443065496231E-1  -2.794986928140384E1  -1.740162193899667E2  -2.716240188841048E1  -1.707249993030216E2  -1.515345280821327   3.262343667531844  
 2.550005175000000E9     2.080612530926568  -6.168279446778636  -2.907255606169595E1  -8.639064489231151E1  -2.876286666347665E1  -9.941145442610421E1  -1.333922280063039  -3.011017555130280E-1  
 2.580005130000000E9     4.590655808678620  -2.761159541595084E1  -1.244635933967706E1  -9.501253159343341E1  -1.803053254149069E1  -1.062355060409520E2  -1.384956020504008  -3.582609297840252  
 2.610005085000000E9    -5.520565356920868   1.416278017851717E2  -5.339597229413892   1.208838366476505E2  -1.223569778343489E1   1.547600623793692E2  -1.308291306500542  -1.100073426128361  
 2.640005040000000E9    -2.445402371652393   1.840588979742731E1  -9.356679753064116   6.961786315659350E1  -1.099190110742079E1   7.294196836649699E1  -2.989053553821985   3.281503015952846  
 2.670004995000000E9    -6.667852277625957E-2  -3.663589535982340  -9.901792841675457   1.876753198781685E1  -1.310646865155709E1   2.509989401632778E1  -1.511734532319768   1.248470228952767E1  
 2.700004950000000E9     1.893806427625319  -8.673943441719096  -1.046585909874865E1  -1.184284901485107E1  -1.381727503761715E1  -1.063409856018577E1  -5.018821035042836E-1   7.893107058780560  
 2.730004905000000E9     3.487526561258811  -1.999910490204936E1  -5.584963022249825  -4.464494553752476E1  -1.079928263650460E1  -3.572836232417078E1  -1.387003773067194E-1   1.642151921682733  
 2.760004860000000E9    -7.858328559894561  -1.146611016024812E2   1.990513711542084  -1.639595542381538E2  -3.118534891853332  -1.261653684363251E2  -6.874900622119979   9.747486034164441  
 2.790004815000000E9    -2.852554909682717   2.802773071251490E1  -7.088374103504800   1.367205722100490E2  -9.279183138977709   1.498164980514079E2  -6.004218525537391E-1   4.179376768872458  
 2.820004770000000E9    -1.734485920826398E-1   3.540645694632275  -7.858515719352220   1.066950579937250E2  -1.133403333635250E1   1.090087470589532E2  -1.379404493223096   3.782821997549949  
 2.850004725000000E9     3.117382527671418  -1.893449508388254E1  -3.739949735856010   6.747570632262128E1  -8.203421344914453   7.914758177659860E1  -2.145538496438687   6.623743605038204  
 2.880004680000000E9     4.484350472497754  -7.293241364156319E1   3.652406873144763  -5.705684179989206  -2.012374510942140   1.167594439058466E1   8.939852917352195E-2   3.189664669481153E1  
 2.910004635000000E9    -3.606019436879048   2.087304266950250E1  -3.512387015709544  -9.090792868231831E1  -5.578210171229308  -6.150804935104053E1   2.992215196572090E-1  -6.266045928131078  
 2.940004590000000E9    -2.629101553767118   1.276858768682974E1  -4.585746909860092  -1.483947723373014E2  -7.106960440325629  -1.415075525905306E2  -2.665192791154011   1.902614413392302E1  
 2.970004545000000E9    -1.571600063494188   1.775080851960900E1  -7.079133100951331   1.612669206844352E2  -1.042416261950420E1   1.748976269457725E2   7.025229499323861E-2   1.595670815623393E1  
