#  HZ   S   DB   R     50.0 
! Rohde & Schwarz ZVL13 2Ports - Version 3.20 - 1303.6509k13 SN: 100953
! Date: 2024-10-09 08:24:26
! Data & Calibration Information:
! Trc1:S11(TOSM) Trc4:S21(TOSM) Trc2:S12(TOSM) Trc3:S22(TOSM)
! 
! 
! 
 9.000000000000000E3     1.321840269555052E-1  -1.119138727866070E-1  -6.448107558161811E1  -7.109453837784143E1  -4.828288539759517E1   1.546716943776421E2  -2.491149573192244E1   1.775672548161272E2  
 3.000895500000000E7     7.317313314050541E-1  -6.640865741097528E1  -3.587439228576780E1   2.464035782529734E1  -3.299558508524876E1   4.141045374439194  -2.178475761893835E1  -1.614525699452604E2  
 6.000891000000000E7     1.696349938334812  -1.353015015994636E2  -2.869645411165075E1  -2.734608140448593E1  -3.307944215440399E1  -1.092185570472739E2  -2.139332660486868E1  -1.554434260858818E2  
 9.000886500000000E7     1.553842041241800   1.523870675255849E2  -2.551194811069986E1  -1.054648546802030E2  -3.246315676265495E1  -2.982081429470884E1  -1.894991922796358E1  -1.724941471096715E2  
 1.200088200000000E8     6.625082785442134E-1   7.935487096440117E1  -2.480751259479463E1  -1.631912663434441E2  -2.180984881418505E1  -1.213733857245247E2  -1.958056163384245E1  -1.771085101515563E2  
 1.500087750000000E8    -2.203617245813159E-1   8.706408978361292  -2.177271125016475E1   1.288308540511668E2  -1.614234199001690E1   1.212518689972971E2  -2.111532094637978E1  -1.795495673374407E2  
 1.800087300000000E8     4.157245273211573E-1  -5.610505548080272E1  -2.165275919475392E1   7.512294697534865E1  -1.535255234334104E1   5.218968958578924E1  -2.340307949790886E1  -1.703772141582651E2  
 2.100086850000000E8     1.228819603567143  -1.212958771580318E2  -1.815669698530551E1   8.917169037278425  -2.079355030882669E1  -5.415410797514328E1  -2.842710169397159E1  -1.597997154352005E2  
 2.400086400000000E8     1.307539851337488   1.644765510573053E2  -1.733086577666681E1  -6.605727037565860E1  -3.044007142659821E1   1.423155322619606  -2.311163733134235E1  -1.199019052980993E2  
 2.700085950000000E8     2.633593684247961E-1   8.905328169720285E1  -1.739176084576277E1  -1.206716617164826E2  -1.409206857451745E1  -7.308234600483328E1  -2.154027990964357E1  -1.363044884693734E2  
 3.000085500000000E8    -2.806729832060458E-2   1.466295759453455E1  -1.629025938112682E1   1.663021246512159E2  -1.301128405458626E1   1.696236704147871E2  -2.168269986928452E1  -1.295907579635864E2  
 3.300085050000000E8     1.110397182469231E-1  -4.996936220866844E1  -1.773285945240701E1   1.145392485118187E2  -9.904115583788235   8.774391749865134E1  -1.903180023293313E1  -1.383706432008778E2  
 3.600084600000000E8     1.187579216770906  -1.099285506659197E2  -1.440023012903569E1   5.585427458395950E1  -1.572548687614396E1   4.793247819736667  -2.221565927377116E1  -1.603917623554831E2  
 3.900084150000000E8     1.433941771365044   1.787638714957596E2  -1.402271155550032E1  -1.830663012705708E1  -3.171650341091696E1  -4.806667755472427E1  -2.749502690950868E1  -1.348282160241238E2  
 4.200083700000000E8     1.106986145754210E-1   9.660730042338287E1  -1.401745284673969E1  -8.013076523805823E1  -1.112877050000174E1  -3.574918367438296E1  -2.675008531476815E1  -1.465074396692612E2  
 4.500083250000000E8    -7.432967432465919E-2   2.273658361162597E1  -1.417316051150181E1  -1.534261135679840E2  -1.057659895202886E1  -1.365721980763053E2  -2.641240570355802E1  -6.929497998481392E1  
 4.800082800000000E8     1.329491607656515E-1  -4.069324471911984E1  -1.555239242697728E1   1.541738593406465E2  -9.019279095829596   1.253113715599329E2  -1.769941536718699E1  -8.443182164887443E1  
 5.100082350000000E8     1.055915318728073  -9.654673852226955E1  -1.320700612234268E1   1.008114847390847E2  -1.267337654352133E1   6.313409347868087E1  -1.586786848999680E1  -1.152334657083853E2  
 5.400081900000000E8     1.593650087519667  -1.607806761433233E2  -1.226006655447949E1   3.400100995613509E1  -1.938577745382862E1  -3.219333419769529E1  -2.460970787518937E1  -1.509397116261116E2  
 5.700081450000000E8     5.634971438778725E-2   1.135042676170992E2  -1.189221516070959E1  -3.347851108117977E1  -1.206158311962138E1   1.362339420591158E1  -2.166695377920317E1  -1.041154611650770E2  
 6.000081000000000E8    -4.767128474443731E-1   3.597072085945688E1  -1.230861737095240E1  -1.063198217369909E2  -8.654890180855578  -8.233809202933232E1  -3.032603356627264E1  -1.270628293167577E2  
 6.300080550000000E8     3.428481241527890E-1  -2.402245281165795E1  -1.470546083795507E1  -1.589528692127928E2  -8.884719214564576   1.736001281280914E2  -2.171695769246702E1  -1.348003567916304E1  
 6.600080100000000E8     9.800643727377257E-1  -8.227679873191842E1  -1.236395660686892E1   1.429317345647125E2  -1.030692079277626E1   1.163127163075686E2  -1.535087632811278E1  -5.203552632924933E1  
 6.900079650000000E8     1.751886938614192  -1.401567496508860E2  -1.166216769250353E1   7.645336536792095E1  -1.407818588659293E1   2.044443464677867E1  -1.651186052358837E1  -9.011939789986225E1  
 7.200079200000000E8     7.965938259569176E-1   1.343953530947579E2  -1.044119162671259E1   1.460597457662017E1  -1.484857313380092E1   6.535193505611711E1  -1.944488771065609E1  -5.964804302892823E1  
 7.500078750000000E8    -1.263377113149056   4.499670703675295E1  -1.111427033663626E1  -6.152274196858321E1  -7.544221306941298  -3.399228555438420E1  -1.945943823527873E1  -9.880547083279362E1  
 7.800078300000000E8     9.144344178738242E-2  -1.351319033297229E1  -1.377994858745097E1  -1.146976864155152E2  -8.649871342184301  -1.376221803074856E2  -3.587988467169921E1  -1.849835944293760E1  
 8.100077850000000E8     1.222068224769794  -6.570202507405527E1  -1.136959275957756E1  -1.668132185922413E2  -7.853238838939778   1.640415278811680E2  -1.680671989874070E1  -1.836263689488353  
 8.400077400000000E8     1.691632634997462  -1.280970454763310E2  -1.053683476026171E1   1.206709446874396E2  -1.240597195268198E1   6.726113943045266E1  -1.471489445621459E1  -4.602398670472429E1  
 8.700076950000000E8     1.340930237957360   1.489634353125877E2  -9.516181803509292   5.828755669809372E1  -1.950958908693341E1   1.004174931989813E2  -1.857455086811672E1  -3.719379118512016E1  
 9.000076500000000E8    -1.406674983883012   4.730061547138195E1  -1.058811634555661E1  -2.537966281048428E1  -7.452065714538651   5.072136312046525  -1.275935644245613E1  -4.883254273362991E1  
 9.300076050000000E8    -4.439871019489867E-1  -1.086915173346673E1  -1.362905859169963E1  -7.574699087655296E1  -9.263476199609469  -8.556279750128623E1  -1.799641233659553E1  -6.881334599263181E1  
 9.600075600000000E8     1.406735380701388  -5.349204985695926E1  -1.162433560665811E1  -1.214490646111328E2  -6.853113345366445  -1.544319525753637E2  -2.090566076309779E1  -2.757229332247249E1  
 9.900075150000000E8     2.099546199028366  -1.093815241113231E2  -1.006057369573962E1   1.689322130550723E2  -1.046051153015428E1   1.218785948462849E2  -1.537570822597953E1  -2.944018413812384E1  
 1.020007470000000E9     1.392639075085771   1.618823938452443E2  -9.701034839825869   9.854836435642868E1  -2.223548721689706E1   9.162284016527266E1  -1.708451889455437E1  -5.281930201837573E1  
 1.050007425000000E9    -6.586912320670693E-1   5.877650655940602E1  -9.904443455319196   1.838734395088851E1  -7.811707338320598   4.532662573356666E1  -1.341520773373106E1  -9.255405313222525  
 1.080007380000000E9    -5.627103110710607E-1  -8.063251373779931  -1.348726518900020E1  -4.148321777795602E1  -9.363739326348968  -4.111678088486387E1  -1.172506256448818E1  -3.403166220966938E1  
 1.110007335000000E9     9.131090574097213E-1  -4.669065234875639E1  -1.310955812498540E1  -8.223434933893169E1  -7.587851518094380  -1.134518115196318E2  -1.271307358797968E1  -4.319867055829423E1  
 1.140007290000000E9     2.605624278806038  -9.034796289390643E1  -1.005886284948193E1  -1.445884978570742E2  -9.648136604968242   1.709965722730062E2  -1.377273135395694E1  -3.030870649498480E1  
 1.170007245000000E9     2.184963411224464  -1.750312085593376E2  -9.289663284128960   1.406432396201688E2  -1.596095846641550E1   7.925253742258610E1  -1.148417943021846E1  -4.187936720316424E1  
 1.200007200000000E9    -1.055906775594449E-1   8.017837166512727E1  -9.650796761333469   6.641115005156699E1  -9.440728425254887   9.462543772770593E1  -1.758149700456948E1  -3.801527968759158E1  
 1.230007155000000E9    -6.702213959644073E-1   1.803357502581477  -1.294432384355228E1  -9.277612931586177  -9.165265878958881   3.850945687425567E-1  -1.296710948174973E1  -8.489366376264714  
 1.260007110000000E9     5.261735779634477E-1  -4.065241248909788E1  -1.378011980075505E1  -4.515036848906849E1  -7.050504108509553  -7.615405675143637E1  -1.137469447395718E1  -2.755637984139511E1  
 1.290007065000000E9     2.245438001434944  -7.455720919110426E1  -1.068422470046277E1  -9.938361954810443E1  -9.056176964886241  -1.403341315568361E2  -1.154413952303368E1  -2.758399647547973E1  
 1.320007020000000E9     2.876429100077760  -1.434802115988162E2  -8.938317432143812  -1.768271216163069E2  -9.960422213777294   1.184376117124126E2  -8.769455326255365  -2.430191353062687E1  
 1.350006975000000E9    -7.507536744082664E-1   9.364032665993324E1  -9.403682931449836   1.033314283749744E2  -1.085440838448198E1   1.335926052875608E2  -1.105942347251132E1  -5.010666456009893E1  
 1.380006930000000E9    -4.091177435004495E-1   1.379463057031631E1  -1.224268242784012E1   3.374627531138492E1  -9.099540453680401   4.773454281448590E1  -1.355738721418825E1  -2.831917799074407E1  
 1.410006885000000E9     7.253122759393684E-1  -3.334301005825338E1  -1.359399830734608E1  -8.108064794519455  -7.296434693658890  -4.220322986657751E1  -1.094035591760362E1  -1.208333932464814E1  
 1.440006840000000E9     2.022821205549131  -6.777335924722941E1  -1.051283755701645E1  -6.475064172111723E1  -8.603615698880006  -9.806101942471126E1  -1.060657713566851E1  -1.606026696662548E1  
 1.470006795000000E9     3.624820143339864  -1.286035843664960E2  -7.757482761168733  -1.399220937408276E2  -8.545875243788473   1.513764050158534E2  -8.183435718410429  -3.918878887667916  
 1.500006750000000E9    -1.783562197783163   1.024610073781063E2  -8.348062887776582   1.327699139393151E2  -1.344399164104612E1   1.573811593171608E2  -6.067496799489475  -2.592832791900913E1  
 1.530006705000000E9    -8.408936216014754E-1   2.042039218289885E1  -1.177764386054667E1   6.494146780092366E1  -9.149746199819221   8.503822657960072E1  -9.166476326951639  -2.953681006527035E1  
 1.560006660000000E9     6.797381832414922E-1  -2.502140223849824E1  -1.422263721283633E1   2.970021143012076E1  -8.916052407931876  -6.560912723998806  -9.910425424791654  -2.663529881240596E1  
 1.590006615000000E9     1.898069753462285  -6.205594925357099E1  -1.073772526383216E1  -2.782684225052068E1  -7.438963857530727  -5.535661277258345E1  -8.840740109047696  -2.043747510378253E1  
 1.620006570000000E9     3.939941341993622  -1.157736476270133E2  -7.670415001117955  -1.019456692931039E2  -8.348853306549378  -1.687222300016492E2  -1.078816252357582E1  -9.871717589310592  
 1.650006525000000E9    -2.096744114997346   1.131319021106020E2  -7.679668881854008   1.644861671495911E2  -1.423323553836196E1   1.778821730872057E2  -6.005443262430931  -9.902616922775271  
 1.680006480000000E9    -1.354325431528747   2.064598390099381E1  -1.174174083551167E1   9.477065455236527E1  -9.028483037373103   1.126505564708417E2  -6.598613429676270  -2.150729614856115E1  
 1.710006435000000E9     8.110816555263694E-1  -1.586929926419524E1  -1.444855615145086E1   6.057267207580272E1  -1.161059604515093E1   2.830323801737428E1  -6.366250547021913  -1.864399683214587E1  
 1.740006390000000E9     2.221669104718675  -4.860207598123149E1  -1.145195631140114E1   1.092747908875387E1  -8.108617458923641  -2.158296638639763E1  -6.695354109658021  -1.965712098359970E1  
 1.770006345000000E9     3.678166982279906  -9.566199546576436E1  -9.676612762131073  -5.247693019826581E1  -9.730002478242115  -1.102526183795015E2  -6.836571804817011  -2.583373349691465E1  
 1.800006300000000E9     4.937755218684646E-1   1.533121937907964E2  -5.786061476611515  -1.473635937066423E2  -1.703231936519870E1  -1.787006429727839E2  -7.883987892622471  -6.126932355475574  
 1.830006255000000E9    -2.460187210558512   3.007570227973187E1  -1.120187382312076E1   1.302972911562561E2  -9.278035060747454   1.479072076272496E2  -5.496383336191085  -1.522523615646123E1  
 1.860006210000000E9     4.497708394149039E-1  -6.544942134694338  -1.427821039193112E1   9.177601398637404E1  -1.154023661139033E1   7.081514104233480E1  -5.879895182043114  -1.142911761154243E1  
 1.890006165000000E9     2.274389677734752  -3.293199911534905E1  -1.204981277587811E1   4.893995617170609E1  -1.032053851069925E1   6.563892409773469  -5.177711120841804  -9.669706878361973  
 1.920006120000000E9     3.858362398682942  -7.335146207676444E1  -1.044044697378270E1  -1.130389589419248E1  -1.126656508296677E1  -5.446724400698644E1  -4.531391858120731  -1.342340690162150E1  
 1.950006075000000E9     3.741081949487402  -1.766514176385812E2  -4.727516806089607  -1.009359941380621E2  -1.341209616419424E1  -1.596190452254228E2  -5.584581800940857  -2.222790968446284E1  
 1.980006030000000E9    -2.938965933435007   4.536471099739789E1  -1.025320086710405E1   1.645322585696077E2  -1.057969348588948E1  -1.632997397054918E2  -4.814194011947881  -1.404693790213018E1  
 2.010005985000000E9     1.568409441109282E-2  -4.489444264205239E-1  -1.374228045855238E1   1.299054627868362E2  -1.099828460113493E1   1.116671366648490E2  -5.152568242731332  -1.543218314814311E1  
 2.040005940000000E9     2.251645667408098  -2.181838406938919E1  -1.235849644587821E1   8.881141987295710E1  -1.175978988472878E1   4.769513305834729E1  -5.270847391055922  -9.702226478711994  
 2.070005895000000E9     4.380987691860200  -5.417036969972185E1  -9.759117735340062   3.426091931598742E1  -1.150137032113991E1  -5.501047447844743  -4.221085972133532  -5.723880966595459  
 2.100005850000000E9     4.000325805116508  -1.634166117658461E2  -4.732279194825053  -6.678830324226315E1  -1.336935051011495E1  -1.101234508427268E2  -3.560632351922830  -1.114917553567025E1  
 2.130005805000000E9    -2.868539655170782   5.406929552272001E1  -1.063460727216923E1  -1.591827744330475E2  -1.360484559113187E1  -1.238279506751098E2  -3.677350899121861  -8.353787655214488  
 2.160005760000000E9    -3.864674652245608E-1   1.979866814794698  -1.510001304178204E1   1.591278803670364E2  -1.325568345243745E1   1.527403975184914E2  -3.319781830310786  -1.254254900004947E1  
 2.190005715000000E9     1.907286625771831  -1.603542174688589E1  -1.514588076704399E1   1.243674522210486E2  -1.423970734521280E1   9.799453651759653E1  -3.942246137762360  -1.436822930399104E1  
 2.220005670000000E9     4.264673068512797  -3.482310557881800E1  -1.100855636253800E1   8.452202573668079E1  -1.378171440851737E1   4.823085846808025E1  -4.236254978153013  -9.731193332563532  
 2.250005625000000E9     5.231127882079551  -1.336126336864955E2  -4.441100648204766  -1.856615622962893E1  -1.214296103982656E1  -5.273177105571442E1  -3.073511664117105  -1.192170292269330  
 2.280005580000000E9    -3.886099207623103   5.922757959034814E1  -1.195514537558390E1  -1.237384016367838E2  -1.605180548126511E1  -8.616082512066343E1  -3.039114887098406  -3.678684442601960  
 2.310005535000000E9    -8.674841874219429E-1   6.949970602344539  -1.685419530093674E1  -1.715981659275385E2  -1.737834512608998E1  -1.680446290762647E2  -2.171785122817789  -3.738383868507869  
 2.340005490000000E9     1.671426931117587  -1.133104633197373E1  -1.760068423865941E1   1.636144653029463E2  -1.785332504426953E1   1.434750255098041E2  -2.275030951752505  -6.886946251308325  
 2.370005445000000E9     3.719943819768159  -2.059621178324837E1  -1.574986150012183E1   1.261712909854205E2  -1.913821809678051E1   1.018374047482177E2  -2.461000411099361  -7.538824028407476  
 2.400005400000000E9     7.158774600387035  -6.317117615203652E1  -7.842454153143209   7.138153915097156E1  -1.387600078514388E1   4.195470593253484E1  -2.992411652749095  -6.491577684176065  
 2.430005355000000E9    -5.045722548327642   7.717482846756214E1  -1.338928021840658E1  -7.706615443293156E1  -1.900433161512106E1  -3.039570462221253E1  -2.591886356825875  -2.959326759529391  
 2.460005310000000E9    -1.485574740167990   1.316574662141471E1  -1.847877510460217E1  -1.269225872374602E2  -1.930651498327739E1  -1.258493002411948E2  -2.320984788681055   1.487785511886530E-2  
 2.490005265000000E9     9.628298371142895E-1  -7.145159449472042  -1.991234572600400E1  -1.690482661198774E2  -2.357295752729357E1  -1.785301587449075E2  -1.889208214861154   1.215075148539331  
 2.520005220000000E9     3.046898959275687  -1.640052914645490E1  -1.984714507894037E1   1.721980708905590E2  -2.318299270602958E1   1.558741732969566E2  -1.706525395535678   2.328073488449860E-1  
 2.550005175000000E9     6.580128392974453  -2.961019001284171E1  -1.478292138384286E1   1.346392554412990E2  -2.071653451222620E1   1.136126814423019E2  -1.562440380518524  -1.344070636148985  
 2.580005130000000E9    -5.227958041954727   1.287779323432827E2  -1.571985515026926E1  -3.715547094920922E1  -2.318009963039723E1   5.212855687015033  -1.524841992583484  -7.970404970393535E-2  
 2.610005085000000E9    -2.140189433523900   2.228055138514256E1  -2.385323182382971E1  -8.435524644293079E1  -2.435737000485517E1  -8.854882534982224E1  -1.790919431743207   1.070418623934048  
 2.640005040000000E9     1.455591116695573E-1   8.660381937998711E-2  -2.535232387910911E1  -1.049454274701293E2  -2.862120871210929E1  -1.426679922215799E2  -1.744758493721477   3.405360135965023  
 2.670004995000000E9     2.418233309089842  -1.626470697911045E1  -2.367409188627467E1  -1.623167636146784E2  -2.785508358209766E1  -1.346171716584751E2  -1.612912099341852   5.388847267792259  
 2.700004950000000E9     5.867647542031357  -2.669856049464494E1  -1.874242348148082E1  -1.768071940854947E2  -2.898485021276955E1   1.795350877711184E2  -1.350359045650735   5.384191673067856  
 2.730004905000000E9    -1.048184891036648   1.709507757286763E2  -1.905523232898408E1   1.842061159480993E1  -2.774211248544375E1   4.876632727151495E1  -1.044089621816531   4.920685337901380  
 2.760004860000000E9    -2.231566984497568   2.831575300705417E1  -3.456708928628089E1  -4.269414652469030E1  -3.101145288596477E1   4.267271614855404E-1  -8.186542736330089E-1   4.361175766808605  
 2.790004815000000E9    -4.324271108200485E-1   1.444670914078698E1  -3.650875090295693E1  -8.033841244708302E1  -4.700934131717013E1  -1.791311846303101E1  -9.314203611078563E-1   4.479246096022896  
 2.820004770000000E9     9.760656648251253E-1  -4.176429432677880  -5.241328698114407E1   8.503928488670798E1  -4.510998446318976E1  -8.615506975527831E1  -1.083663676518289   3.309042071029082  
 2.850004725000000E9     5.249580944902741  -2.995799475993350E1  -2.803581682526117E1  -1.679553863550313E2  -3.224435386692327E1  -7.074939644476177E1  -1.540646210389359   8.072025686780771  
 2.880004680000000E9     5.335856356612611  -1.740594826122460E2  -2.965514901633450E1   7.625549323234475E1  -2.948175785218788E1  -1.502416588019196E2  -1.281238895054982   1.240273054096767E1  
 2.910004635000000E9    -2.905688585117173   3.176793833839443E1  -3.276005818030231E1   1.278868136716254E2  -3.857525509129109E1   1.550104535803042E2  -7.719100344104060E-1   1.228879225870487E1  
 2.940004590000000E9    -1.002899007078006   2.531895027877289E1  -3.525794947003908E1   1.616789110830339E2  -3.683996781355425E1   1.060198846823632E2  -9.997256640102298E-2   1.060342064154049E1  
