#  HZ   S   DB   R     50.0 
! Rohde & Schwarz ZVL13 2Ports - Version 3.20 - 1303.6509k13 SN: 100953
! Date: 2024-10-09 08:11:14
! Data & Calibration Information:
! Trc1:S11(TOSM) Trc4:S21(TOSM) Trc2:S12(TOSM) Trc3:S22(TOSM)
! 
! 
! 
 9.000000000000000E3     1.404601699094445E-1  -1.403244563942344E-1  -5.322286383975936E1   6.032974022123775E1  -5.475088485588842E1  -1.504483514558025E2   1.468094815471803E-1  -2.216076529859386E-1  
 3.000895500000000E7     3.328582725620094E-1  -5.093060692523545E1  -4.815590570010849E1  -5.421170796745999E1  -5.826037445342799E1  -1.684850300758723E2   4.761312614022180E-1  -5.616710552435622E1  
 6.000891000000000E7     1.224882539423068  -1.021367199126322E2  -6.119045589040441E1   1.438571491406565E2  -5.423904793356901E1  -1.718530362467600E2   1.340382385672341  -1.058673628027694E2  
 9.000886500000000E7     1.779327417222844  -1.558256091494170E2  -6.144105151453074E1  -1.263855361368781E2  -4.974801255042840E1  -9.076184976646997E1   2.038926907338403  -1.572190761648203E2  
 1.200088200000000E8     1.500504640676500   1.486146963063229E2  -5.110113627827961E1  -1.406656817465459E2  -6.890537544106640E1   8.745831131653529E1   1.984065287380810   1.541698040441587E2  
 1.500087750000000E8     7.379840798413180E-1   9.202223242991366E1  -4.996477195908229E1   1.174011686805070E1  -5.019738674587779E1   1.448456097438695E2   1.634358937445826   9.629783700937794E1  
 1.800087300000000E8    -2.077243162838763E-1   3.681193530418920E1  -4.677234015419779E1  -1.053177180064113E2  -4.607850266507349E1   1.686863875974901E2   4.008005001841112E-1   4.007355262722437E1  
 2.100086850000000E8    -3.816590706274991E-2  -1.520899699390288E1  -5.152485560960091E1  -1.607832193181700E2  -5.996514900051148E1  -6.960425564353579E1  -1.770315340004778E-1  -1.491978446495346E1  
 2.400086400000000E8     5.478589100315281E-1  -6.146135965490329E1  -5.072326362175892E1   1.391286165037495E2  -4.467947711293620E1  -6.529091987888364E1   2.615042394378421E-1  -6.316589370847559E1  
 2.700085950000000E8     1.118372285626763  -1.113177149479744E2  -5.966076716783526E1  -5.092223122182158  -5.549665008239339E1   8.601434072101073E1   9.741552194104958E-1  -1.100847736808152E2  
 3.000085500000000E8     1.575115924402789  -1.625314246747079E2  -6.301626892398796E1  -1.758774542569995E2  -5.452486775633861E1   2.419390320741529E1   1.687280114416517  -1.583329997084545E2  
 3.300085050000000E8     1.138720775394311   1.379310507984395E2  -4.382172151195217E1   8.304425048787661E1  -5.228397701024067E1   2.239503774530667E1   2.228202527234958   1.467407216818845E2  
 3.600084600000000E8     2.083180599344427E-1   7.883913135397732E1  -6.059579604830073E1   1.206712979001656E2  -4.418944885598859E1   5.807145257575055E1   1.719509079923414   8.463995059888283E1  
 3.900084150000000E8    -3.177813613303886E-1   2.334762254444194E1  -4.781780701984025E1  -1.726986764447511E2  -3.748011041407414E1   6.292807193804283E1   2.044261066442938E-1   2.357461657885242E1  
 4.200083700000000E8    -4.411836226066462E-2  -2.544169386499672E1  -4.733473151958147E1   1.340901454502495E2  -5.303619163273748E1   3.695759037188861E1  -5.532926633651767E-1  -2.690749311505178E1  
 4.500083250000000E8     7.301757915667783E-1  -6.837944622692210E1  -5.103064612614851E1  -1.746785650591782E2  -4.315284569182020E1   1.729189703275181E2  -1.259222202387104E-1  -7.104171906729584E1  
 4.800082800000000E8     1.212742438588025  -1.153356238007248E2  -5.095350482431952E1  -1.629111019341203E2  -4.563848142736762E1  -2.777696941268218E1   3.614706866897179E-1  -1.126720179679103E2  
 5.100082350000000E8     1.747890268186336  -1.692191960775022E2  -6.397431817482809E1   1.124976184711600E2  -5.677294648488811E1  -4.346259724981466E1   1.942833631917298  -1.600854282485533E2  
 5.400081900000000E8     9.339728186421695E-1   1.275675560924567E2  -4.982146065205249E1   8.491286576712389E1  -5.535669714630922E1  -1.776880287259593E1   2.648781469704821   1.398606104253205E2  
 5.700081450000000E8    -4.265289970137672E-1   6.167646132289974E1  -4.647936586230057E1  -1.508412090867536E2  -4.338347758546723E1   9.742774373319977   1.434144924066217   7.019349779163490E1  
 6.000081000000000E8    -3.890150044042144E-1   7.570183924912422  -4.623125197754434E1   4.662539174675633  -5.549979533394228E1   8.957085533934423E1   1.087639459737085E-1   1.056539866022282E1  
 6.300080550000000E8     4.597973050136229E-2  -3.406261957759022E1  -5.285142465702070E1  -1.592873513482834E2  -4.927095880876747E1   6.787663716874896E1  -7.881731650343441E-1  -3.506872056508971E1  
 6.600080100000000E8     8.980639504996187E-1  -7.760700306627227E1  -4.658770724195878E1   1.094772028569199E2  -4.627067177953830E1  -5.850140871048709E1  -5.833023982236960E-1  -7.121006432262163E1  
 6.900079650000000E8     1.859028475794292  -1.185311968035654E2  -5.836456575938652E1   5.053797784003415E1  -4.348305102944685E1   1.269548052362273E2   2.357334205302233E-1  -1.129385994735400E2  
 7.200079200000000E8     1.757912564165656  -1.777402654508746E2  -5.461635374669442E1  -1.790510749269161E2  -5.875046469067792E1   7.723971185657057E1   1.339914114096712  -1.636794172045794E2  
 7.500078750000000E8     2.341667543161494E-1   1.117703102530733E2  -4.569491103629712E1   1.632395822370854  -4.532252745851829E1   1.695351192807503E1   2.638037797095828   1.256197861951612E2  
 7.800078300000000E8    -6.013095416244385E-1   4.494398001450429E1  -4.642031284982527E1  -4.603948717877357E1  -4.641528786101011E1   1.689532585510533E2   9.873342288415522E-1   5.208974517792968E1  
 8.100077850000000E8    -2.201763709074726E-1  -4.499668295832146  -5.482003561354564E1   8.548673636453524  -3.893946335255161E1  -1.719509056808440E2  -2.309674366424539E-1  -2.737535350955681E-1  
 8.400077400000000E8     3.139252121812221E-1  -4.344916632513823E1  -4.940772173848637E1   6.398172860249559E1  -6.056162670633031E1   8.225635741525488E1  -8.966510697559219E-1  -3.824643295431081E1  
 8.700076950000000E8     1.157232397572085  -7.991693948175303E1  -4.437744973392022E1  -1.085095352059296E2  -3.886972546200582E1  -1.294648995891803E2  -1.056323477988995  -7.143497375207114E1  
 9.000076500000000E8     2.293275462645043  -1.236828179843116E2  -5.327913971796140E1  -1.463373981542775E2  -4.297442473903237E1   1.323868287045059E2  -1.748297207903114E-1  -1.098600866515072E2  
 9.300076050000000E8     1.737507572595274   1.718137165139954E2  -4.546721623129613E1   1.273416471077915E2  -5.613791237296643E1   2.175957854095870E1   1.371418785673457  -1.680493541611485E2  
 9.600075600000000E8    -3.912057746212362E-1   9.403426322086781E1  -3.955104447695786E1   1.612014188646778  -3.950956038508987E1  -2.900767093513303E1   2.633642301149830   1.058072737386515E2  
 9.900075150000000E8    -6.163022734258580E-1   2.776770119036925E1  -5.015372982316402E1  -9.102853225810473E1  -4.121866593146372E1  -1.613950578496747E2   9.030344732465532E-1   3.532199908944466E1  
 1.020007470000000E9    -7.746012995580880E-2  -1.457813673147182E1  -5.649005258919694E1  -4.281904008081286E1  -3.991097661325770E1   9.734779904078131E1  -3.918869417080815E-1  -8.161355500466820  
 1.050007425000000E9     9.541094442069464E-1  -4.784809116531786E1  -5.092687377486240E1  -6.331548481196070E1  -3.983241993951924E1  -1.248574266673023E2  -1.026469400341915  -4.119502543128277E1  
 1.080007380000000E9     2.356125913980165  -7.964215052135420E1  -5.797954179594125E1   1.767130441376298E2  -4.370670704501131E1   1.691347342232007E2  -9.410666347087821E-1  -7.153263874419758E1  
 1.110007335000000E9     2.599760401900990  -1.289677086065908E2  -4.605902654855915E1   1.282778171207937E2  -4.644165718009653E1   4.456979063910107E1  -4.337017252761741E-1  -1.090399594854889E2  
 1.140007290000000E9     1.349628912430209   1.568409818211682E2  -4.948493208525128E1   1.524499304710511E2  -5.241638994146710E1   8.698651941467924E1   1.760254674995462  -1.742978833527436E2  
 1.170007245000000E9    -7.251212680300310E-1   7.397983260751303E1  -4.018300904178466E1   4.043437628069537E1  -5.626621714371603E1  -1.972897430708292E1   2.465970886700320   8.652882585601873E1  
 1.200007200000000E9    -5.738219944363404E-1   1.486530885644522E1  -3.954301935986656E1   1.705413926472468E2  -3.865549620753581E1   1.305974688910230E2   3.197611756956584E-1   2.142407808992020E1  
 1.230007155000000E9     2.187163550928651E-1  -2.187674641874384E1  -4.772686155187273E1  -1.525693294322250E2  -5.033055014931065E1  -4.066584078130469E1  -7.972796073095672E-1  -1.545683907838271E1  
 1.260007110000000E9     1.337244130213091  -5.232627069761070E1  -5.493013626597499E1   5.665900171973115E1  -4.751084567405124E1  -1.494121360829019E2  -1.244205066417075  -4.379394394388921E1  
 1.290007065000000E9     2.535958624602257  -8.289633206020352E1  -5.903148676604131E1   4.642924658858244E1  -4.766923472446992E1  -1.660799098111785E2  -1.367723651869166  -7.129422717563418E1  
 1.320007020000000E9     2.877811753754407  -1.328931782912943E2  -4.522413183729584E1   1.333148725092596E2  -5.067290372883299E1   7.172991338485491E1  -6.031174853307150E-1  -1.097538987456380E2  
 1.350006975000000E9     6.642092048868371E-1   1.383756004841755E2  -4.179868152431184E1   1.101322875327898E2  -5.676437004920747E1  -8.347883101849345E1   1.719871478406676   1.749749521985737E2  
 1.380006930000000E9    -1.021706046110417   5.327049904564360E1  -3.392732813916025E1   1.364067140442469E2  -5.614794286064905E1  -7.196359762597454E1   2.095352536477673   6.632161310396172E1  
 1.410006885000000E9    -4.669611702688845E-1   4.299061446181128  -5.675075056462756E1  -1.592932533046398E2  -3.576097301061181E1   6.030517967261598E1   2.355979156892029E-1   1.092464485615216E1  
 1.440006840000000E9     7.836749453807019E-1  -2.646865559513255E1  -4.270983989123588E1  -5.201902831401249E1  -4.987781167559906E1  -2.181357095099785E1  -7.230186389780905E-1  -1.727547190129222E1  
 1.470006795000000E9     2.012368703773246  -5.160132156398213E1  -4.898141240939714E1   1.475108423679332E2  -4.259361899200185E1   1.319789827095299E2  -1.177180171256860  -3.894657121833235E1  
 1.500006750000000E9     3.603213543492053  -8.339998380432803E1  -3.751854085984697E1  -1.239451206192556E2  -4.860922565763014E1  -1.790580531824830E2  -1.160526222900586  -6.206654145002300E1  
 1.530006705000000E9     3.362715981451070  -1.455401382146351E2  -4.186055008385920E1  -1.642183604010265E2  -3.616727947747671E1   1.668653480310765E2  -7.392114436781775E-1  -1.070932384773399E2  
 1.560006660000000E9    -2.986500444333689E-1   1.144057217161949E2  -3.266928756211764E1   1.472711319240465E2  -3.785980453164488E1  -1.712486932906238E2   2.169523294852136   1.523443339605205E2  
 1.590006615000000E9    -1.267668313052059   3.714290591464364E1  -2.791426590379282E1   7.012471410358596E1  -2.988808818069773E1   9.567431297572925E1   1.360028538679304   4.453703789942397E1  
 1.620006570000000E9    -1.318841139945404E-1  -1.764982901119990  -4.082159133275512E1   9.596665758472598E-1  -3.795158036881261E1   6.576685026606444  -2.495803612757446E-2   4.375054816688929  
 1.650006525000000E9     1.272888115045086  -2.728990086811179E1  -3.933847276715706E1  -6.855338213218707E1  -6.048534612344542E1  -1.196634383027744E1  -5.433832163759171E-1  -1.894364751952140E1  
 1.680006480000000E9     2.851777708204598  -4.959271941371870E1  -4.169333290734052E1   2.154176702290769  -5.221825341227766E1  -6.786060772485888  -1.016071004403320  -3.903994462741289E1  
 1.710006435000000E9     4.018756795002756  -8.275973357520500E1  -4.218434213357742E1  -1.476043112086413E2  -4.185063378608734E1   1.639400788733692E2  -1.121338346630004  -6.071023886768127E1  
 1.740006390000000E9     3.574349530831947  -1.572769629148687E2  -3.594144493728262E1   1.480992288991183E2  -3.648597702811503E1   1.495095122287413E2  -3.694755007236907E-1  -1.092187639591386E2  
 1.770006345000000E9    -1.202602418487351   9.168709141508886E1  -2.763498141489846E1   6.945431387560836E1  -3.365472041866713E1   6.776144190062826E1   1.974941900599044   1.182766681607036E2  
 1.800006300000000E9    -1.183347573435283   2.532200758775018E1  -3.665678354200935E1   4.494078132943698E1  -3.648202649578910E1  -1.019463908500934   6.713874228871074E-1   2.787680689880221E1  
 1.830006255000000E9     1.939375376509445E-1  -6.275392292105487  -5.586513369365079E1   6.614985763379298E1  -4.340076002836374E1  -9.945160347776188E1  -1.708827494263037E-1  -1.843069549249397  
 1.860006210000000E9     1.534452953868990  -2.781334577263294E1  -5.556489640882882E1   1.744185552396512E2  -5.109931214763567E1  -2.674352773432597E1  -6.221042745524693E-1  -1.894022083413655E1  
 1.890006165000000E9     3.169256577891030  -4.656382809733456E1  -3.970364295572988E1   1.163893302557974E1  -4.999564143992306E1  -8.815100009999202E1  -9.111192026485314E-1  -3.346507193586838E1  
 1.920006120000000E9     4.672256961892627  -8.191458853907865E1  -4.233117700768846E1  -1.769176263937964E2  -3.982703424341601E1  -1.638180217847967E2  -1.091615352750933  -5.350785032618463E1  
 1.950006075000000E9     3.153468439865927  -1.776516459297570E2  -2.809557938627032E1   1.725276328549593E2  -3.442459909061997E1   8.856986493806315E1  -8.666879034609321E-1  -1.072914579634510E2  
 1.980006030000000E9    -2.356790933838286   6.990005355427837E1  -2.918526736712137E1   6.823508392850079E1  -3.755149276730708E1   4.413628121674655E1   1.726853511498471   8.741894119049140E1  
 2.010005985000000E9    -1.118856534652031   1.597245171780982E1  -4.252597701421539E1  -1.314687496038341E1  -4.196797987095118E1  -3.402521219325922   6.306813578707842E-1   1.837974837326593E1  
 2.040005940000000E9     5.532407930506655E-1  -8.178779506682615  -4.962740861807522E1  -2.652289077284810E1  -5.329692210220524E1   3.761041131197974E1  -3.915080748152953E-2  -3.865696352382364  
 2.070005895000000E9     1.935532999018138  -2.422800021918383E1  -5.233710736026216E1   2.281655861929718E1  -4.158917621879682E1  -6.454397173121842E1  -1.373675595276207E-1  -1.660303847547074E1  
 2.100005850000000E9     3.240624266211879  -4.275259605377267E1  -3.950907501364176E1  -2.882342897984740  -3.952531805061177E1  -1.266979510095887E2  -6.762707077814055E-1  -2.937458180659451E1  
 2.130005805000000E9     5.054718933923311  -8.894015238747502E1  -2.862441322661448E1   1.775906782662545E2  -3.011960737003401E1   1.728536102518530E2  -7.284987845024865E-1  -4.885397030078187E1  
 2.160005760000000E9     8.223468350150758E-1   1.570391115992540E2  -3.097789877181143E1   8.358227538827913E1  -3.921533922524269E1   5.525588887445900E1  -1.237122748203243  -1.196572305280655E2  
 2.190005715000000E9    -2.725962582447527   5.433272942405705E1  -3.143866323342441E1  -7.557462129913969  -3.414848278766232E1  -3.065662713554315E1   7.573336834345916E-1   5.675294881249977E1  
 2.220005670000000E9    -8.359826838289217E-1   1.096885576062844E1  -3.857920741332952E1  -1.508545657017148E2  -4.621833737087144E1  -1.721385852839077E2   3.596421466697833E-1   1.257355989411120E1  
 2.250005625000000E9     7.076212297840858E-1  -7.017540917989601  -5.470787663728765E1  -8.250910586453094E1  -5.146971988682221E1  -3.201913900423983E1   2.376180205132496E-1  -3.050249470421415  
 2.280005580000000E9     2.205755349852366  -2.173341285040848E1  -4.459586078603458E1   2.699599927086134E1  -4.038486281193473E1  -1.449132375409632E2   1.307588074087485E-1  -1.223122641712458E1  
 2.310005535000000E9     3.667908620206136  -4.397991396266870E1  -4.019720721890560E1   1.007464539341641E2  -3.911211310643733E1  -2.379710091002060E1  -3.533466960989347E-2  -2.165482611573045E1  
 2.340005490000000E9     6.557230492425251  -1.068801179420482E2  -3.090223929634081E1   4.616112926867961E1  -3.554326457177998E1   3.198277378895342E1  -6.585647061066803E-1  -4.354672365053806E1  
 2.370005445000000E9    -2.242605548497663   1.278171259394258E2  -3.407267166775818E1  -1.785871311939711E1  -3.571490386461012E1  -2.424519507537073E1  -1.661216228394866  -1.494471781064575E2  
 2.400005400000000E9    -2.759448490849814   3.277664841611259E1  -4.051286895635911E1   1.714464819040242E2  -4.451215206976551E1   1.504076878571547E2   5.160140650401074E-1   3.568227952911261E1  
 2.430005355000000E9    -5.310848185994163E-1   6.384637895651338  -3.827969564901202E1   1.651252168436957E2  -4.708436245192490E1   1.319022085751099E2   5.403411681189678E-1   1.070643457139228E1  
 2.460005310000000E9     8.534333585932901E-1  -7.046351685789368  -5.187135692375987E1   1.161218826523080E2  -4.581276458656778E1   8.728876926108642   5.397980829816714E-1  -5.301530498005167E-1  
 2.490005265000000E9     2.313771872652156  -2.055469625981974E1  -3.645342278596831E1  -1.777760888258468E2  -4.743307056259809E1  -1.210501799240930E2   4.233300998037904E-1  -8.136655546684729  
 2.520005220000000E9     4.037893137454447  -4.291473443885334E1  -4.070763877571843E1   2.164369195642009E1  -3.565289040945751E1   6.888068161578336E1   1.399765467321124E-1  -1.604445577484633E1  
 2.550005175000000E9     7.165180111806179  -1.214475066785014E2  -3.544368177290968E1   1.444514891809428E2  -3.000996074888975E1  -1.423223420322028E2  -6.293036846300565E-1  -3.754475805205473E1  
 2.580005130000000E9    -4.888569979969024   9.908927725994579E1  -2.368895247789014E1  -1.786855982556579E2  -3.121278294909907E1   1.708242508608820E2  -1.834045979719114   1.384511707545920E2  
 2.610005085000000E9    -2.719938146470430   2.391046840857336E1  -3.342172285904273E1   9.112638996488859E1  -3.790037197977375E1   8.007881266048786E1   1.001248892748075   2.762969289575026E1  
 2.640005040000000E9    -5.390166063033683E-1   5.658640520391849  -4.115507206389385E1  -8.610261346431301E1  -4.143129615843323E1   2.256828875003660E1   9.020759232937400E-1   1.062146148525498E1  
 2.670004995000000E9     9.437234961569886E-1  -7.081980208275200  -3.838275907353363E1   6.134390331103346E1  -3.879802930985873E1  -1.393453373113499E2   8.954677374681260E-1   4.340884056668068  
 2.700004950000000E9     2.723351719217853  -1.823659508565121E1  -3.192460785027867E1  -4.765606229597959E1  -4.098906857478442E1  -1.078202644576829E2   7.779860311835377E-1  -2.727774732771327  
 2.730004905000000E9     5.112875742219830  -4.723061107700953E1  -2.792869532659498E1  -9.770491362079292E1  -3.511111142369276E1  -9.997873575936697E1   3.154730395229222E-1  -1.048620725398664E1  
 2.760004860000000E9     5.529501068116976  -1.486056213571454E2  -2.445103938546243E1  -1.553691583528045E2  -2.576449193039590E1  -1.674779158701701E2  -3.536528568217850E-1  -3.862248757544334E1  
 2.790004815000000E9    -5.681157165270808   6.268778440445214E1  -2.253884111201730E1   1.042921265823089E2  -2.873746970708784E1   1.243040592987294E2  -1.102365633348267   8.311015774597986E1  
 2.820004770000000E9    -2.410391712089725   1.556427392068333E1  -3.592611129138182E1   5.649717727555984E1  -4.436718262735487E1   2.041547573528566E1   9.962588766111460E-1   2.307053527722753E1  
 2.850004725000000E9    -4.259636293379511E-1   4.485214286584366  -3.516181611976602E1   5.841925459566155E1  -5.046873386549471E1   8.760664478320289   8.568753887975812E-1   1.335415555884425E1  
 2.880004680000000E9     1.126447651455949  -3.456779959505969  -3.274301132023493E1  -1.201599358624427E2  -4.259462859521400E1  -3.215151665127817E1   8.859345255589518E-1   7.997705086956022  
 2.910004635000000E9     2.873515661116639  -1.432020886840645E1  -3.848462954818451E1   1.346347773965032E2  -4.366328113763431E1   1.118312793943912E2   7.610087160424025E-1   1.123860197536847  
