#  HZ   S   DB   R     50.0 
! Rohde & Schwarz ZVL13 2Ports - Version 3.20 - 1303.6509k13 SN: 100953
! Date: 2024-10-09 08:25:59
! Data & Calibration Information:
! Trc1:S11(TOSM) Trc4:S21(TOSM) Trc2:S12(TOSM) Trc3:S22(TOSM)
! 
! 
! 
 9.000000000000000E3     1.313496783390494E-1  -7.418225786487678E-2  -5.335471544233817E1  -2.628378406692805E1  -6.604360984713986E1  -9.187948694261391E1   1.588976213303529E-1  -2.138228930651092E-1  
 3.000895500000000E7     7.400577800442110E-1  -6.917186297266190E1  -4.541957908536960E1  -4.268669084709232E1  -4.476794305944588E1   8.743493217219110E1   5.635038621670158E-1  -5.586407322829099E1  
 6.000891000000000E7     1.720644866018230  -1.394959347789023E2  -5.036293406366615E1   1.346535274476337E2  -5.699159148974037E1  -8.456677790832989   1.347401760561930  -1.065183272652140E2  
 9.000886500000000E7     1.529843200973970   1.451494486000840E2  -5.837129518219563E1  -6.009430234859308E1  -5.603720015057368E1  -3.409990928664177E1   1.936730812973708  -1.576256008467819E2  
 1.200088200000000E8     4.067300804697775E-1   7.111211006206958E1  -4.880222977007253E1  -1.354552691766099E2  -5.545403683906054E1  -1.135632854559882E2   1.990973795245733   1.533342013260706E2  
 1.500087750000000E8    -6.211022625100492E-2  -1.023946734618993  -4.785249126397440E1   1.400919368371904E2  -3.524957377999551E1   1.011068915970849E2   1.592115221103975   9.615852619380070E1  
 1.800087300000000E8     6.808658784104761E-1  -6.828789064499132E1  -4.180288245210785E1   5.549171000640286E1  -3.821885977148795E1   5.561083119436155E1   3.172911141901254E-1   3.966433987597589E1  
 2.100086850000000E8     1.537130520389540  -1.375210011239012E2  -3.787458059087576E1   1.905184010534986E1  -4.651813548184492E1  -2.204172953677241E1  -8.539425010397490E-2  -1.452518853294224E1  
 2.400086400000000E8     1.018186284353541   1.448793431449183E2  -4.086414609231132E1  -6.571015229719413E1  -5.197162975097418E1  -4.566111411965422E1   6.405772021122529E-2  -6.359626927817773E1  
 2.700085950000000E8     3.490185578849235E-3   6.647598401716107E1  -4.743903071568347E1  -1.083854104464399E2  -3.682201655769040E1  -6.543872794960424E1   1.084863605078000  -1.100737176138764E2  
 3.000085500000000E8    -1.065635440086238E-1  -6.253958093082783  -4.882600173497595E1  -1.449076474229672E2  -4.004646927821762E1  -1.748153844305251E2   1.707901436429496  -1.584391190707015E2  
 3.300085050000000E8     5.820316932941662E-1  -7.030242579796531E1  -4.351837403100415E1   1.610004255298159E2  -3.497233274342654E1   1.082952372501726E2   2.249363996366235   1.466596482113245E2  
 3.600084600000000E8     1.587747305175819  -1.361180427731832E2  -3.396979219757348E1   9.112743169820907E1  -3.819993719835968E1   1.497038017969169E1   1.639667937462694   8.426727273027699E1  
 3.900084150000000E8     1.002318466670983   1.468798360854993E2  -3.403727639115440E1   2.705385541462622  -4.510280372003113E1   5.796581569352845E1   1.225766286793272E-1   2.411167773739798E1  
 4.200083700000000E8    -1.611977300447787E-1   6.261137047179795E1  -3.982214479827150E1  -6.769925584934859E1  -3.309752796126982E1  -3.798774743053379E1  -6.505769713644639E-1  -2.723390702258163E1  
 4.500083250000000E8    -1.562385751921649E-1  -5.659513752337104  -4.301812192231420E1  -1.567806779508747E2  -3.466335098690496E1  -1.677040244807675E2  -1.691863601646033E-1  -7.016543623715880E1  
 4.800082800000000E8     5.750355376753096E-1  -6.633218544382190E1  -4.287312679903823E1   1.771058131756993E2  -3.544292714945718E1   1.434189330203349E2   2.676808063426375E-1  -1.130579554425093E2  
 5.100082350000000E8     1.817874653504414  -1.272960619116058E2  -4.056047069411775E1   1.382118500476709E2  -3.528280351684658E1   9.665540993170919E1   1.825665940766063  -1.609017765219684E2  
 5.400081900000000E8     1.207181554839542   1.559732517146715E2  -3.246883067629646E1   9.730973807986672E1  -4.479385689996963E1   9.324341646453466E1   2.549112444157400   1.378352392074266E2  
 5.700081450000000E8    -4.310589883901988E-1   6.585575704679729E1  -3.408199333889561E1  -5.284660634521273  -3.025499081726007E1   3.948208471694159E-1   1.561082561557185   6.911383723942898E1  
 6.000081000000000E8    -1.474908550714744E-1  -4.490011446003982  -3.248670657679674E1  -7.431237136635662E1  -3.205831396907002E1  -6.301665944750621E1   2.904610332060246E-2   1.003870630824816E1  
 6.300080550000000E8     6.206267303211586E-1  -5.636515197447457E1  -3.833751342740684E1  -1.363282346229167E2  -3.473051581116427E1  -1.612257228931833E2  -7.480903166515044E-1  -3.552997164068924E1  
 6.600080100000000E8     1.313650741569897  -1.208894685156552E2  -3.373279427039089E1   1.575275073977396E2  -3.437572799245634E1   1.422131489868275E2  -6.820608822510751E-1  -7.156736307977279E1  
 6.900079650000000E8     1.383685622115415   1.615367460757362E2  -3.583191341107606E1   9.890669932799614E1  -4.961327683933669E1   1.399335934441840E2   2.275385815634979E-1  -1.143169203038268E2  
 7.200079200000000E8    -7.565843926014257E-1   6.487520524931306E1  -3.578670737666056E1   7.641894051791010E1  -2.828572550473366E1   7.070525030615937E1   1.395470650055315  -1.657546213239776E2  
 7.500078750000000E8    -5.057201930025460E-1  -6.598870654013997  -3.009192515737172E1   2.132864667877313E1  -2.484728280424469E1  -1.839824550627987E1   2.628662827511285   1.229792119639822E2  
 7.800078300000000E8     8.120095704352962E-1  -5.652352160710582E1  -3.306070656557964E1  -8.573621227301001E1  -3.180977951613758E1  -1.360336334486794E2   1.151796807816614   5.119998564460279E1  
 8.100077850000000E8     1.488951670954497  -1.182783613369876E2  -2.876735184501683E1  -1.486753159981215E2  -3.342432328141365E1   1.599903193493208E2  -1.962130491305713E-1  -5.629346325393795E-1  
 8.400077400000000E8     1.148326944619882   1.562249474741921E2  -3.211838792845255E1   1.347484236970312E2  -4.673906452879366E1  -1.670077391112458E2  -1.015489025885021  -3.841117567996999E1  
 8.700076950000000E8    -3.729176023442597E-1   5.854870487196107E1  -3.274916146468582E1   6.846000093228426E1  -3.104716654640374E1   1.404598951969893E2  -1.083462161823255  -7.142190227571348E1  
 9.000076500000000E8    -3.223315615495016E-1  -1.200545680191892E1  -3.718543485053343E1   2.158387117612431E1  -2.693467335793237E1   3.984568900369886E1  -1.387830630968140E-1  -1.102824201930498E2  
 9.300076050000000E8     1.105993513986725  -5.803506037208150E1  -3.583956305200184E1   2.491113987645676E1  -2.727796070020551E1  -2.828761054132214E1   1.615093518805405  -1.708377821427972E2  
 9.600075600000000E8     2.165929913630900  -1.125805348895202E2  -2.892759707833016E1  -4.922948203938118E1  -2.636695224088102E1  -1.343299834212109E2   2.495660048210171   1.028565465649138E2  
 9.900075150000000E8     1.001057544677861   1.550266671440492E2  -2.414521535960617E1  -1.788400738895381E2  -4.244881559964905E1  -1.437102641705649E2   8.777261685784752E-1   3.460809451343049E1  
 1.020007470000000E9    -6.339851146627661E-1   5.571958373717794E1  -3.067418879843851E1   1.295648953623190E2  -3.014116209702386E1   1.526062047198417E2  -3.580150525777991E-1  -9.749213286050669  
 1.050007425000000E9    -2.039266587664018E-1  -9.687011387059858  -3.239653666547741E1   7.035466162480077E1  -2.960879095092901E1   6.698931307862844E1  -1.175007732325738  -4.166259789369948E1  
 1.080007380000000E9     1.502143596185239  -5.394941492265704E1  -4.065091319114041E1   5.874223455143228E1  -3.187753728130456E1   1.532233814173357E1  -8.926388902604487E-1  -7.294451565789819E1  
 1.110007335000000E9     2.565683687460062  -1.037062171875796E2  -3.435847762853062E1  -5.051127590282551  -2.958392132812620E1  -5.118569278600299E1  -3.431366501245121E-1  -1.104989221017247E2  
 1.140007290000000E9     1.087122264500391   1.636090983742820E2  -2.869342886888609E1  -5.327909245802206E1  -3.827116194432934E1  -9.910992479215490E1   1.881105776188790  -1.786047436856217E2  
 1.170007245000000E9    -8.611341764221628E-1   5.595011899203325E1  -2.543838566447645E1   1.767741803847500E2  -2.531398975298905E1  -1.636725889750970E2   2.387181927658477   8.286760441653065E1  
 1.200007200000000E9    -2.155270305585245E-1  -7.237819768892308  -2.880919929345537E1   1.429733998771245E2  -2.564995347196091E1   1.053273495484786E2   3.437547569925383E-1   1.944811253730777E1  
 1.230007155000000E9     5.935285167116580E-1  -5.386164665907419E1  -3.348888798651297E1   4.446528235182824E1  -3.011569485800288E1   4.191646730821508E1  -8.978045993058478E-1  -1.574382075427050E1  
 1.260007110000000E9     2.547213810439275  -1.018271308094972E2  -3.300595604872947E1   4.671320504444331E1  -2.854097866939745E1  -1.471763880484866E1  -1.237656148211741  -4.407436162982368E1  
 1.290007065000000E9     9.051747737438545E-1   1.630085920053485E2  -2.924533362532040E1  -4.928823823084560E1  -4.148264018329946E1  -4.888977558033029E1  -1.285158535855189  -7.234854246850863E1  
 1.320007020000000E9    -1.411218575063618   4.403505545853636E1  -3.396164901907379E1  -9.218898878278111E1  -2.568805634149688E1  -7.638662469016910E1  -5.545102106640552E-1  -1.117942171159074E2  
 1.350006975000000E9    -1.637315480193416E-1  -8.903842692606588  -2.661917140798146E1  -1.252062990903877E2  -1.935275515496391E1  -1.769749285565771E2   2.060341949957225   1.688174743281569E2  
 1.380006930000000E9     9.476751901157033E-1  -4.895108160268893E1  -2.288357186485788E1   1.244766171412278E2  -2.146217237450185E1   9.370100289642787E1   2.070617947161566   6.208566289968162E1  
 1.410006885000000E9     3.113399980470608  -1.010023894831806E2  -2.744578743910711E1   6.651993369218816E1  -2.701416956248957E1   7.191008353088217   1.632241953481558E-1   9.455022726313569  
 1.440006840000000E9     1.080216749606632   1.612332403434888E2  -2.360270715317144E1  -2.344454101976433E1  -3.855463291193098E1  -2.944613951427677E1  -7.458210272421544E-1  -1.814750326909811E1  
 1.470006795000000E9    -1.721979492180177   3.870467426408721E1  -3.388007144623347E1  -7.288450580722041E1  -2.991768902980778E1  -5.262995525451522E1  -1.173193805363815  -3.998429103379863E1  
 1.500006750000000E9     5.851891678415720E-2  -1.081500157457513E1  -3.022984460970535E1  -1.186538119350511E2  -2.858744563031052E1  -1.112638479011548E2  -1.221532075843683  -6.295470856435860E1  
 1.530006705000000E9     1.521919335647983  -4.404738076287921E1  -3.316872500852874E1  -1.465078963004731E2  -2.134878133687482E1  -1.563206552291059E2  -7.773755947168856E-1  -1.112081827322265E2  
 1.560006660000000E9     2.894457641124026  -9.433287076033432E1  -1.995301762239659E1   1.695190447331729E2  -1.978903499226520E1   8.765184014308333E1   2.583631950108757   1.436560560146639E2  
 1.590006615000000E9     1.872925873809897   1.683653786463895E2  -1.770436847325723E1   6.040399879160552E1  -2.970031959768767E1  -1.032367258358878E1   1.353168884045849   4.123180432441718E1  
 1.620006570000000E9    -1.950146447681183   4.612862148308503E1  -2.679425217275460E1  -3.528949960641043E1  -2.621738204712888E1   1.032863370212441   2.471657896182156E-3   2.328337861008544  
 1.650006525000000E9     1.776351108696025E-1  -7.864688684760340  -2.918864962071496E1  -4.863958879118070E1  -2.856454697994858E1  -7.016236398798490E1  -6.048768126804558E-1  -1.895309559101739E1  
 1.680006480000000E9     2.070736911615942  -3.489157920674969E1  -3.474350122152353E1  -1.213510660206623E2  -2.821621031719564E1  -1.231087814373941E2  -1.005462724927970  -3.919243137334364E1  
 1.710006435000000E9     3.485327522010566  -7.692794156191820E1  -2.899762371947254E1  -1.427744893138319E2  -2.906552092698841E1   1.795513159341190E2  -1.098677511790142  -6.100964840662153E1  
 1.740006390000000E9     2.767509708946876   1.787407036690936E2  -2.181831800372328E1   1.434289629275358E2  -2.438998361673698E1   8.108094544376141E1  -3.886105475528190E-1  -1.134071812440334E2  
 1.770006345000000E9    -1.939351700659899   5.248458321021268E1  -1.771726797034878E1   4.092998416246546E1  -1.742594938158967E1   4.407375030373240E1   2.175046146006792   1.079450733603332E2  
 1.800006300000000E9     2.183406891831155E-2  -6.073913651429810  -2.642469951797706E1  -3.117105887549936E1  -2.284593245965563E1  -4.782920271368339E1   5.524475818618193E-1   2.456085471144485E1  
 1.830006255000000E9     2.254350884211092  -3.239766798544799E1  -2.748534155474122E1  -8.009904837398400E1  -2.634231534242405E1  -1.311471338721194E2  -1.730488642174451E-1  -2.589542688946305  
 1.860006210000000E9     3.719263746979487  -6.956180309348893E1  -2.687115041156516E1  -1.103000446857385E2  -2.770052438296305E1  -1.575488115234024E2  -6.197667704743629E-1  -1.897966150125806E1  
 1.890006165000000E9     1.415731502147769   1.694324590798080E2  -2.252358459524706E1   1.391091674557618E2  -3.334219852114861E1   1.214504849022021E2  -9.268142585205514E-1  -3.353285519619173E1  
 1.920006120000000E9    -2.261509680185931   4.105128061749934E1  -2.966416473174904E1   1.026324709742643E2  -2.510261523738684E1   1.299631247832178E2  -1.150260677276879  -5.572410783204522E1  
 1.950006075000000E9     9.279072228835075E-2  -7.035691097728427  -2.668052946295397E1   7.149621463349313E1  -1.808784193200284E1   6.097152720682993E1  -5.707283972022205E-1  -1.171595111049224E2  
 1.980006030000000E9     2.123266913968820  -3.266593490278582E1  -2.090323610161620E1  -2.151983256497205  -1.897187207950175E1  -6.477893533504944E1   1.513290173620650   7.640498865750087E1  
 2.010005985000000E9     5.048601088629999  -6.297470984449954E1  -2.242521817086477E1  -6.144554190311337E1  -2.613092277778657E1  -1.372496556301511E2   5.076837681378963E-1   1.573403872010095E1  
 2.040005940000000E9     3.094937672980437E-2   1.701109505554609E2  -2.109152685616110E1   1.729311027878977E2  -3.321587066969076E1   1.469556726658181E2  -4.266666061712675E-2  -4.881324290038332  
 2.070005895000000E9    -2.596899814909288   3.233875659107368E1  -2.822600009134307E1   1.017413929554422E2  -2.874305024562200E1   1.398715219762095E2  -1.676368338217164E-1  -1.706978928823341E1  
 2.100005850000000E9    -3.121497517286819E-2  -4.086385522815522  -3.143617986767566E1   9.152306221684478E1  -3.000839515698256E1   8.970177359613967E1  -6.298912573104095E-1  -3.015105957048838E1  
 2.130005805000000E9     2.073771373739628  -2.927952524019797E1  -3.391449236624508E1   6.394834372082584E1  -2.832463930896501E1   5.460293629369343E1  -6.290166611306122E-1  -5.067122221545508E1  
 2.160005760000000E9     4.910488151444755  -5.407155344864579E1  -2.186335385905196E1   6.209422963117350E1  -1.968367425240253E1  -1.618339147654721E1  -1.303236148304095  -1.349087573198149E2  
 2.190005715000000E9     3.401352738103315  -1.660468534081027E2  -1.256185336454126E1  -1.012214456073160E2  -2.490704183473306E1  -1.714708925743425E2   6.877576040055476E-1   4.785704230121979E1  
 2.220005670000000E9    -2.905274462648343   3.399820506475032E1  -2.396958741097300E1   1.435111834045455E2  -2.718454590078827E1   1.696324143095951E2   3.429136384297696E-1   1.061677095604052E1  
 2.250005625000000E9    -5.450994662935020E-2   1.170357171998433  -3.348520819509746E1   9.756725983257786E1  -3.036532535068268E1   1.188523590894016E2   1.986699502061995E-1  -3.396331094583711  
 2.280005580000000E9     1.976336054352671  -2.077697729678400E1  -2.954587770065852E1   8.562533412182893E1  -3.441362511444734E1   8.222190181346261E1   1.211222520647149E-1  -1.271402742202050E1  
 2.310005535000000E9     5.039230600186886  -5.290920880457502E1  -2.516828104374874E1   5.324054258595422E1  -2.942939211669026E1   7.774814588361993E1   1.591024844949595E-2  -2.196641178127429E1  
 2.340005490000000E9     5.110083543677119  -1.679046795518533E2  -2.016857549063566E1  -2.807835458927109E1  -2.349692059853149E1  -5.021498227865731E1  -6.994113589507401E-1  -4.556245974956497E1  
 2.370005445000000E9    -2.686690176731208   3.223097163634976E1  -1.769590706042132E1  -8.885725895658692E1  -1.472504829838623E1  -1.100763134262035E2  -1.229369839684595  -1.771945007124998E2  
 2.400005400000000E9     2.390128165283653E-1   5.475384989664002  -2.210591603225905E1   1.548829771690309E2  -2.771385741870825E1   1.344731656297461E2   5.429842789980296E-1   3.040567533979075E1  
 2.430005355000000E9     1.854579441353329  -1.244927223129108E1  -2.723166746468357E1   1.151695828067292E2  -3.358539533659454E1   8.013541286522020E1   5.483728062287241E-1   8.898078188430031  
 2.460005310000000E9     4.824896437659826  -4.788825525633401E1  -2.767737779222075E1   6.284325566903738E1  -2.882671053714805E1   9.313422611671965E1   5.572530977685775E-1  -8.318382538427638E-1  
 2.490005265000000E9     1.211721371224780   1.698872715789511E2  -2.701765174545008E1  -3.814461761678953E1  -3.174859887040173E1  -1.274957419985732E1   3.497529696649466E-1  -8.881636508294479  
 2.520005220000000E9    -2.561583952274486   2.671423143292970E1  -2.974146869925486E1  -8.606908480743687E1  -2.887138511993759E1  -4.187893459297335E1   1.173569037399987E-1  -1.784922653729192E1  
 2.550005175000000E9     4.083053590784295E-1   7.207884118996922  -2.817123536552644E1  -8.665586461756807E1  -2.495611756360735E1  -8.619732514990191E1  -6.377859730492230E-1  -4.002440941967152E1  
 2.580005130000000E9     1.885800918851065   9.668767454664712E-1  -1.690455832684771E1  -1.323613635487098E2  -2.301538111630491E1   1.673110071133034E2  -1.622093921989587   1.055332145274900E2  
 2.610005085000000E9     4.006510586799160  -2.473934413737982E1  -1.739512483003220E1   1.340713207606395E2  -2.766909172305953E1   1.148896310639960E2   9.374560880751951E-1   2.390774185078717E1  
 2.640005040000000E9    -2.039645012733482   1.658847682647842E2  -2.141571257570175E1  -3.957798887693832  -3.386344963443977E1   3.906557136790588E1   8.339539472601427E-1   9.557706579091732  
 2.670004995000000E9    -3.203849302214772   2.499981851638454E1  -3.167441815164966E1  -5.965771600497564E1  -3.275674344880473E1  -2.799055752987796E1   7.688390138506943E-1   3.928517803487320  
 2.700004950000000E9     1.859984047303633E-1   5.558020223758224  -3.580150151622382E1  -6.859742914238521E1  -3.503918056874734E1  -3.315120027422022E1   7.290251668549130E-1  -2.960296736142627  
 2.730004905000000E9     1.922409037297712   3.976584296437437  -3.630188129097289E1  -8.734006118968381E1  -4.105395153209636E1  -6.733186580895122E1   5.219459212449548E-1  -1.096271187474379E1  
 2.760004860000000E9     3.303156925631197  -8.558781061141368E-1  -2.516769656618636E1  -7.138283787689750E1  -2.444112521779897E1  -8.240063375776491E1  -6.809445312598809E-1  -3.954290376407297E1  
 2.790004815000000E9    -8.520947954411556E-1  -1.557969684594026E2  -3.450886124222528   8.751494323506549E1  -1.571368897827221E1   8.670541539378861E1  -8.501362281222622E-1   6.170619088581653E1  
 2.820004770000000E9    -3.490074359907020   2.464961351844694E1  -2.733973591328610E1  -1.311715968258626E1  -2.906594715414412E1  -4.216204134952341   9.738264915825438E-1   2.074110430611482E1  
 2.850004725000000E9    -4.646181954309877E-1   3.626289855296941  -3.599129768842527E1  -5.638377138649403E1  -3.717808362070960E1  -1.297023344354897E2   8.289722148186101E-1   1.187718406834703E1  
 2.880004680000000E9     1.874427494309417  -9.504450488430044E-2  -3.019052006934426E1  -5.506001750779033E1  -3.925715868017696E1  -5.397550082138076E1   8.627682710812794E-1   7.224609151171078  
 2.910004635000000E9     3.823113035880987  -2.000308186191115  -2.916169039760899E1  -7.142126500284300E1  -3.261148094391209E1  -2.968517687408582E1   8.564413717825418E-1   1.884471319067784  
