!Keysight Technologies N9916A: A.08.06
!Date: Thursday, 30 May 2024 20:21:13
!Timezone: (GMT+10:00) Brisbane
!Model: N9916A
!Serial: MY53102361
!GPS Latitude: 
!GPS Longitude: 
!GPS TimeStamp: 0001-01-01 00:00:00Z
!GPS Seconds Since Last Read: 0
!CHECKSUM:0117562215
!Correction: S11(ON U)S21(ON U)S12(ON U)S22(ON U)
!S2P File: Measurements:S11,S21,S12,S22:
# Hz S DB R 50
30000	-13.8758072746226	-144.255204554676	1.48503390620083	5.38838805702886	1.87235294434151	5.72179212904199	-11.7616615016758	-152.631484268924	
30029850	-8.17041211394415	-178.279453076462	0.586724448955085	-86.4469461108773	0.575299269278513	-86.2664401968231	-7.15566225645118	-177.759657873662	
60029700	-1.21342507323168	79.5397443194797	-5.4538831116827	168.396697709763	-5.39062347178448	168.508150517445	-0.695818029777435	84.9791395636998	
90029550	-1.42738556572209	-36.8017402264592	-8.46407508521892	-133.148325870086	-8.39112642300924	-133.051230098378	-1.6649326705354	-38.4542121083358	
120029400	-6.49840240737746	-136.216176244709	-1.07750026641998	133.204646128279	-1.10890107313656	133.069594729045	-6.24934395752929	-138.650012835237	
150029250	-12.5970540068629	-94.0154465817392	-1.27920629108838	35.8606918822455	-1.31054270510497	35.7521190184399	-11.9266027740416	-111.669775151454	
180029100	-2.89992393643397	174.840473963157	-8.3933177415445	-45.7392553149404	-8.42335230222929	-46.2070765879047	-2.16276907520983	177.571690525841	
210028950	-3.89098593582579	76.4124652096693	-9.15763670071532	-48.1644341167607	-9.15927619720898	-48.086777538804	-2.95220835911231	84.5991083167515	
240028800	-5.01219955186206	-7.90680622301646	-6.36951340922504	-107.235635668514	-6.37187566754061	-107.360657494792	-5.54272687075498	-4.93469313165906	
270028650	-4.96034643100007	-77.3888087475273	-5.06192385399738	-168.63639877526	-5.07616968392878	-168.23055540246	-5.85126488787894	-80.8374682350403	
300028500	-6.85697491509997	-142.518721795605	-3.85289804391436	125.878487255638	-3.80995848609836	125.791628063099	-7.06660050389338	-143.011874512176	
330028350	-12.8448931996586	166.413414033336	-3.44838001383925	53.070870844018	-3.44722373659309	53.0972462986034	-10.1740356675142	170.425883306885	
360028200	-7.92705662887808	164.295115349843	-8.80365343545734	-33.0205246622225	-8.84946509462882	-33.0057165936284	-6.66456840471323	166.061486583343	
390028050	-8.19995970394394	15.6188035448125	-4.15021989104559	-54.4504785724578	-4.14312620841458	-54.4648766713607	-7.59651062207032	25.1231789954659	
420027900	-7.2283990853989	-53.6574814903764	-4.35705085440992	-121.826376844419	-4.40076030482451	-121.895021206333	-8.32610360690961	-56.4404346081791	
450027750	-7.62510184462033	-114.877763340135	-4.06996035632811	175.584591000408	-4.04731542858062	175.473307210948	-9.02605672327983	-121.047965291757	
480027600	-12.5958757015698	179.384209944669	-3.6739541988414	107.453401873263	-3.67699786815481	107.457890718262	-13.0083794230656	177.762274256329	
510027450	-29.5531111535911	-63.1998540362533	-4.33234013526981	38.9711507469292	-4.30944000481688	38.9986502898705	-23.4082634829121	165.292191885737	
540027300	-18.9866441172856	-99.2865606294014	-5.29668082620864	-26.9484305633263	-5.3157845175582	-27.0953755233228	-28.1337311352483	-140.441764882242	
570027150	-23.607685263669	-64.2976363076174	-6.6824894001514	-91.872896060939	-6.56500416988949	-91.9546739024791	-29.7421655107117	-72.6667259978863	
600027000	-15.8218121422843	-54.312785404677	-8.34655979862339	-151.930106133604	-8.36180736779264	-151.59166039367	-22.3170216553468	-36.3660427458385	
630026850	-12.4298306694376	-87.7155106044092	-9.2443558519711	155.818953317104	-9.37259534094418	155.953554721529	-16.5215061243902	-79.1529021685411	
660026700	-14.4118472119739	-111.225811881455	-8.74409521858954	99.629990279307	-8.70816800073768	99.6954523173769	-16.8579515545651	-111.087863204418	
690026550	-15.0737212062572	-83.4441467511933	-8.25562540926204	33.3766065586292	-8.21333826907729	33.6373339743842	-18.423838994756	-97.3790404280902	
720026400	-12.1847259197065	-102.179732607904	-8.18153400442754	-38.6147022321028	-8.1691223563738	-38.6439131095665	-15.5180483859869	-97.9435228762441	
750026250	-12.6275075755855	-159.087468165761	-7.82406589681218	-127.821616843636	-7.81396700905046	-127.922892989313	-11.7270386195929	-161.141209540973	
780026100	-6.14601512902373	13.2009411648136	-11.6824460950549	45.6024110751892	-11.6627769505136	45.9950687566379	-5.20200683603351	30.6150109639377	
810025950	-4.6632614084037	-77.2763691338291	-12.8136993323074	-119.726284215938	-12.9015571026145	-119.902616697849	-6.60535628123707	-69.1574705577852	
840025800	-7.52359240822572	-126.831609002181	-10.7267675489875	151.148251438481	-10.7331957173562	150.866422480682	-9.99890682206562	-122.76336445492	
870025650	-19.0462714342676	-147.104981681699	-10.4304789931076	71.2513792095008	-10.4250137770124	70.7301392404614	-21.61813659522	-157.855132553317	
900025500	-18.3769490734007	-69.1261061453189	-11.3666583534932	-0.805761511464425	-11.3776694401397	-0.553073207685594	-23.2835606751292	-15.1416761571322	
930025350	-13.532905493891	-63.959711447259	-12.6843742353865	-65.682195533246	-12.6716119674357	-65.7586835683652	-15.9263621275404	-33.0833748269879	
960025200	-10.0194880369782	-72.990428911597	-13.999432736799	-125.486546696364	-13.9165755511382	-125.261045095789	-12.6476684366089	-57.3935575636155	
990025050	-9.29419684040316	-87.6036977294225	-14.7156438266328	176.907287369212	-14.6363828463464	177.747214796145	-12.0986317508359	-74.5013710002958	
1020024900	-11.1954816392634	-101.275067752824	-14.6898268462367	118.588442034245	-14.4912521905648	118.947459853773	-14.3598455052265	-80.5134898556682	
1050024750	-13.8915170755259	-91.8042901835036	-14.2009768912178	55.5869470366516	-14.0395056812753	55.4618182940414	-17.883324206783	-66.5157974978137	
1080024600	-10.97607657533	-78.6184848900183	-13.4471805979439	-14.1793494738978	-13.4787445691715	-14.4745952789679	-14.1922972654738	-49.5327250369145	
1110024450	-7.81880741081338	-100.891165900783	-10.9179067141708	-106.035399644397	-10.8704803443139	-105.762698748497	-10.006771991851	-85.0336215227152	
1140024300	-11.2766589890518	-21.3941372228446	-16.3769024051863	63.4950184115824	-16.4024867876518	63.057383859205	-10.8769928867648	2.77941895120371	
1170024150	-6.42396314415174	-68.4221433224326	-22.6427669918467	-67.9896751463252	-22.744332993189	-68.1893516224822	-7.62654387513959	-49.4584743396416	
1200024000	-6.20586659987341	-97.3815556474386	-21.2308252013637	-149.772317978683	-21.0592506266352	-149.446845225163	-8.56265200054261	-77.6302241339621	
1230023850	-9.18441686303865	-119.732406217789	-18.6935765545814	142.105860213691	-18.744829133897	141.201082535096	-12.7343149332391	-100.68264705071	
1260023700	-16.2365764242754	-86.7240063934501	-17.236643543739	69.354158946955	-17.4318706322499	69.3185953905515	-20.4977308776357	-50.3480655954422	
1290023550	-9.72578942872576	-51.7701531046391	-17.6117809075664	-178.687087596328	-17.5911730870799	-179.7394462534	-10.491583304653	-26.4247595102746	
1320023400	-6.4906190402593	-65.8572021597677	-18.1573087388355	120.083527068619	-18.1719812889715	119.722240829407	-7.24388362330767	-45.1999962764817	
1350023250	-5.23749702293006	-85.6122812326079	-17.5934469177357	64.2601854678109	-17.753378571519	65.1826712296929	-7.26426401119442	-64.4668310596138	
1380023100	-6.06653893269309	-106.673896483758	-16.0974880340584	5.56565732012275	-16.1668939166765	5.39855036534899	-9.01049924141694	-85.41707271145	
1410022950	-12.2779163838641	-112.367469375713	-14.3661937255486	-65.0135414928337	-14.430410600326	-64.1476189984559	-15.623923027188	-81.0186292657151	
1440022800	-10.2928976175635	-49.0706888081091	-14.0321133609519	-140.743791300783	-13.9717337022166	-141.065556332182	-10.6519218571924	-23.5429007299185	
1470022650	-5.37243309428388	-61.861082776082	-14.0616678260589	147.126215551827	-14.0952170351272	147.032280805168	-6.0408093098475	-38.6107819416349	
1500022500	-3.25493274303037	-91.4599989066037	-11.4574619439095	67.3420875782836	-11.5367925441875	67.1963306698585	-5.21440080748449	-69.5079459651123	
1530022350	-10.5126115460274	-70.549914812934	-13.966636929243	-87.7055503931111	-13.9789562564397	-87.3019583449336	-10.8304590699692	-38.7480572625968	
1560022200	-5.24826086379206	-80.9675312501933	-25.6401956056269	163.49572492664	-25.3055467739163	161.431364256696	-6.74879078331879	-58.7801872321878	
1590022050	-6.40780668584898	-94.2880251983988	-27.9005994523904	33.5764273414725	-27.4318102014709	34.4656267746104	-8.04957746340447	-68.4380571688061	
1620021900	-9.59797542871096	-88.2144686663952	-24.3056885534542	-63.9000117210011	-24.0672215062635	-64.6880135209166	-10.4847622463124	-53.536800280276	
1650021750	-7.56313767231374	-66.5595387788574	-23.1760243163682	-142.338029130483	-23.1284926340787	-143.609937789001	-7.84442781910161	-37.9836311099446	
1680021600	-4.67843749755681	-69.956851499356	-23.4378459457157	153.290756671078	-23.4925598462098	153.771109518727	-5.56283068353773	-48.0443458480591	
1710021450	-3.61066690483958	-80.3146471654865	-23.4290790809716	98.247622038586	-23.469385837944	97.6602539729046	-4.93081959612794	-59.6972624968245	
1740021300	-4.15022771750047	-94.3417205150209	-21.8637918792033	41.700789507209	-21.8403952300568	41.2001960636245	-5.57821680624756	-68.9802937817771	
1770021150	-6.87114301097831	-105.723942397366	-18.9811218233598	-21.4216864984006	-19.1158665426209	-21.8216285490792	-8.43111727950351	-73.12627925684	
1800021000	-10.7196627466866	-74.4652951483985	-15.8077762381504	-95.2582968886316	-15.7407735623565	-94.9783537856226	-10.5796815415361	-39.5265813301583	
1830020850	-4.00991694919606	-56.1916600536116	-13.9675532718544	177.36472823481	-14.0115950569448	178.145123828207	-4.52932264549425	-35.358009022329	
1860020700	-2.00351713507102	-79.7817275147965	-14.5536987859236	88.1642123715173	-14.605829161962	88.5341809982698	-3.27840824427912	-59.1951372542081	
1890020550	-3.90187657409424	-97.9018121158467	-15.7437704936413	4.80424442620718	-15.6924193392029	4.63370920708034	-5.41078038442557	-68.8501437837946	
1920020400	-6.84571780246748	-88.9739526205709	-17.287166344984	-78.2012065496884	-17.4630192819746	-77.637955910203	-6.74039517908442	-57.2720994080145	
1950020250	-5.32981120949051	-78.4644908052389	-19.4621026739013	-150.45065473663	-19.5421643275638	-151.232626843463	-5.94712639920054	-52.6948333315982	
1980020100	-4.29208510245181	-78.5099677489451	-21.2807967497237	141.238034207674	-21.1877070812053	141.399612627553	-5.10909333828608	-54.3110300041061	
2010019950	-4.10447595880759	-80.7243519140684	-22.1192365216385	72.0264055878076	-22.1625816474468	72.1706357146838	-4.64517457689904	-57.2113118606747	
2040019800	-4.47147079393611	-83.8642839203779	-22.1428471188059	-1.12055507180325	-22.1491814020502	-1.37896532412416	-4.89993117436491	-57.5861766266733	
2070019650	-4.72973345119446	-80.3840088429818	-21.9934895734299	-75.3412400822212	-21.9511182510109	-75.1781703247069	-4.88710797338808	-53.9776188948155	
2100019500	-3.56765208075763	-77.5752861617677	-22.4709991492099	-147.549977438023	-22.2184091061223	-147.247583418738	-4.24583510134363	-55.3405182464837	
2130019350	-2.95960707186746	-81.7279652186015	-21.794488171774	144.87410881773	-21.9472249226121	144.608314906734	-3.93518954730111	-59.5721588605073	
2160019200	-3.43563503289046	-88.7140984210806	-20.1857048750175	69.7056351764216	-20.2355243348025	71.1646128110935	-4.08452271804618	-63.4236255888703	
2190019050	-6.09913376531163	-93.3807485307759	-16.2104576852936	-20.1979137242529	-16.2146975026693	-20.313371569515	-6.10425582085859	-61.7766117156577	
2220018900	-3.84924063031305	-58.1635147230175	-15.3822288793229	-148.535023227332	-15.2768584605281	-148.016452726728	-3.36325152364647	-40.2791269815532	
2250018750	-1.23041953509547	-77.3054240203033	-19.5536653745648	106.725261235407	-19.6180854371518	106.901580631354	-2.3055716726022	-58.8497070495401	
2280018600	-2.53638894895751	-89.0006596910888	-22.514066833078	9.83235679127786	-22.3657668139917	9.54459377154943	-3.36526201135998	-65.9977792688473	
2310018450	-4.06999983702207	-84.5247967025278	-24.4029584902806	-86.1898088329716	-24.488096285721	-85.4038601533095	-4.12125981537177	-60.8530493054826	
2340018300	-3.72590907798431	-79.9342311871513	-25.6493808735864	-172.351994504936	-25.9207565984455	-171.865504244376	-3.7952035506919	-55.9275307088239	
2370018150	-2.90869204254742	-80.2076711459286	-26.473002874582	114.833584378238	-26.6210431429159	111.064188831239	-3.35133187822752	-56.3763931532593	
2400018000	-2.54688107079501	-81.7417959410878	-26.0128563178209	44.0604240064516	-25.9347192675974	44.0942027604206	-3.10950749026796	-59.5992793345042	
2430017850	-2.8491010523409	-83.3174212000738	-24.6927826272986	-25.0479556474626	-24.9022610339776	-24.32750255437	-3.23305312152114	-60.3997252089608	
2460017700	-3.35430640147141	-80.00048068197	-24.3135997880067	-96.6236769102373	-24.1916767031533	-94.8020556795872	-3.01530044552178	-58.5159151820462	
2490017550	-2.51874073664111	-78.8842888757725	-23.5882449614509	-163.413600064667	-23.5116750407813	-162.526169261095	-2.79856902112577	-57.9792314821779	
2520017400	-1.91614039016655	-81.5149501922783	-22.4425868234056	133.496570872176	-22.3953888561359	132.580965195772	-2.5731968327824	-59.7022274547186	
2550017250	-1.7070353483493	-86.5304593268047	-19.6978334633829	66.6442558876689	-19.7062731695697	65.8385930531958	-2.43571036835423	-64.9824271367367	
2580017100	-4.66181829294942	-97.8691910146952	-13.2173198713939	-29.89299304854	-13.2491980283217	-29.858577723375	-4.60473432322464	-68.4110973530112	
2610016950	-2.38680342590735	-69.1085783651277	-18.7589967820466	-163.312659530319	-18.6892981780573	-163.307753555154	-1.95934936690607	-53.416523640301	
2640016800	-1.28834238487292	-80.0576959305736	-25.3567265694975	126.151795252893	-25.278409853044	125.123246847229	-1.81191521280653	-60.8769001138316	
2670016650	-1.48092349224376	-86.8339741884483	-28.7009164951902	60.0919046930429	-29.415378348907	60.0578286343587	-2.32245230120447	-64.7435998983401	
2700016500	-2.5116299499467	-85.8462903525081	-32.2843759182651	-20.8838234437168	-32.1737631885627	-12.2807129494465	-2.69675596793372	-65.1205332510352	
2730016350	-3.03983129366957	-82.029989290998	-33.2649292285376	-94.3179408990043	-33.455888180628	-90.5292955663411	-2.6182574679053	-61.7449697688646	
2760016200	-2.67048796353618	-80.1646672297667	-40.9673225533527	-172.499204836881	-37.3843244551342	-157.542416524327	-2.156523920563	-60.0126756671843	
2790016050	-2.00003503337147	-81.8051944778383	-38.5422338071332	90.0954743331389	-39.1136131805476	87.0956803385612	-1.94062772664768	-61.2648064940581	
2820015900	-1.84719317456455	-84.0879712020669	-32.9263944547108	-4.03930978683448	-32.4428876745819	4.72643122208389	-2.05275988737484	-64.1068357427502	
2850015750	-2.56306818678729	-83.8947130834649	-27.8736498316975	-72.3616700677753	-27.9313538653675	-75.5165307078394	-2.29277659843122	-64.8019843540105	
2880015600	-2.64455920262851	-78.4473076484837	-24.5071959719705	-156.285503717542	-24.4216924450824	-153.643120734787	-1.965831451557	-62.1351503649415	
2910015450	-1.44794047963109	-80.9224900122115	-20.978774047363	126.919002024647	-21.2138710449513	126.603481166974	-1.2569481131376	-63.2914777973513	
2940015300	-1.60701133311902	-101.553784464625	-14.4811082885241	20.7790354206932	-14.499638636285	21.8962253803197	-1.83251240719895	-75.2073592192448	
2970015150	-3.41949159350494	-74.9700033123511	-19.5578025476512	-110.303880467932	-19.4353291245363	-109.192123714477	-2.4594940820195	-59.622794811413	
3000015000	-1.92450978662965	-76.0287939017976	-25.5825792715835	-176.08321408177	-25.240216441731	-176.568427515559	-1.44184742983198	-63.1178738451945	
3030014850	-1.5844047670676	-81.556404665861	-28.9525844073735	129.575062502358	-29.2833867560266	125.660737495557	-1.23673641698794	-66.2900246231152	
3060014700	-1.85857722234273	-87.3977270992507	-29.5786513035871	57.8088489009198	-30.7573260592636	60.0967567604922	-1.43060805824489	-68.3484588985334	
3090014550	-2.00593438002621	-87.5727110799653	-30.3587325536712	-14.2262862106872	-30.4934494623275	-10.7286669330416	-1.87278960130516	-68.399836832781	
3120014400	-2.48056503385222	-83.1725623007519	-30.4066240911498	-83.5604930744584	-31.5436824331999	-89.934581793637	-1.97604607353289	-66.6208035475369	
3150014250	-2.34358848688246	-81.217140727392	-32.1592200279536	-154.662231814656	-33.1876161320899	-159.115497825184	-1.63002516000633	-66.524467936051	
3180014100	-2.09642373408831	-82.237400523344	-35.299682550848	130.045159689145	-34.2934137609632	128.381516768363	-1.30088635883686	-67.787041501869	
3210013950	-1.90016724437419	-86.2575188360833	-30.9916247608844	39.1592458630899	-33.3427741586876	42.8900067727494	-1.31865763457157	-69.100797103812	
3240013800	-2.33272257625651	-87.0865572654407	-26.4236877993233	-47.8379045686816	-27.0737622337486	-50.1235578877888	-1.80361457391111	-69.2386731108359	
3270013650	-2.10457505039647	-78.1630516496291	-23.2866721622378	-157.733977415735	-23.4219351979572	-158.962444774148	-1.54640993678901	-66.772122233704	
3300013500	-0.933684318278179	-86.1331495710788	-21.9709878045023	94.655322554116	-21.9745361068925	94.1410798110409	-1.10004783972887	-72.659385725217	
3330013350	-3.3700309041594	-95.5183133934916	-20.8228231094911	-24.5501208295679	-20.8478168174508	-22.1262059272798	-1.73343310197976	-74.4175743776804	
3360013200	-3.15306195908287	-82.9713985338678	-24.817274509339	-118.746331688356	-24.831888569805	-120.413270569913	-1.66552811744118	-67.7065559791889	
3390013050	-2.0996301640587	-82.6994776591014	-28.4213923443657	173.619005398766	-28.723610030691	178.963444990574	-1.33512017395349	-68.5154207633866	
3420012900	-1.5542861856869	-82.702934580015	-30.6413106450969	115.066023468781	-31.0281476459056	111.858241894461	-1.27731014569359	-72.1953629878652	
3450012750	-1.78332349508085	-88.0752893503757	-29.0044341607913	37.3644187331011	-29.0380255337069	38.8768979890439	-1.22142089186104	-75.5237923774902	
3480012600	-2.9011578227178	-93.4046989897805	-26.2877169073417	-41.2241797131186	-26.3193001596385	-38.6144200399878	-1.42413441384845	-75.3329123098953	
3510012450	-3.2774934973481	-87.8329555659237	-25.5568782249713	-115.729388571876	-25.4703671447117	-113.345669582739	-1.62438533863368	-72.6552033748102	
3540012300	-2.44136306598982	-84.0229578245601	-26.5584219851223	-170.220716393063	-26.039320682353	-167.270231582721	-1.6079080079538	-72.1864342546173	
3570012150	-2.06867466637186	-83.2489112338749	-27.0440764207249	142.618584487286	-28.6025600461967	138.353837921832	-1.41788665083186	-74.121844938996	
3600012000	-1.92677618489342	-87.6356969482008	-28.0592389435656	-103.255422300979	-27.8359401112434	-106.182438025429	-1.25123015480552	-76.9913556530858	
3630011850	-2.93444650703457	-95.2591515877714	-23.9674844178767	153.489709682199	-24.0092621009344	154.440219608912	-1.59043529170845	-78.3772065484694	
3660011700	-3.05392832453793	-84.0550311648543	-21.1478705817214	35.1327755866334	-21.5712337483656	35.8231861181372	-1.46270944221547	-72.9223783755021	
3690011550	-1.74106837080977	-87.3063692149279	-22.3243448828467	-44.7174776398921	-22.2684376837391	-47.7421140443085	-1.08446761289651	-75.7327559599529	
3720011400	-2.65623980502343	-94.5895895495779	-26.8622433605186	-133.27837889484	-26.4322057446875	-134.778545882984	-1.52706272159932	-80.8088699984593	
3750011250	-3.60926755237932	-87.253518551131	-38.9296885555925	119.448782667032	-38.8618773696961	127.112759784658	-1.98681450460114	-79.4508630984409	
