#  HZ   S   DB   R     50.0 
! Rohde & Schwarz ZVL13 2Ports - Version 3.20 - 1303.6509k13 SN: 100953
! Date: 2024-10-09 08:10:42
! Data & Calibration Information:
! Trc1:S11(Cal Off) Trc4:S21(Cal Off) Trc2:S12(Cal Off) Trc3:S22(Cal Off)
! 
! 
! 
 9.000000000000000E3    -1.415626644147320E-2  -6.306882635927595E-1  -7.340287478655911E1   9.982664463392923E1  -7.013042551637854E1  -7.485750351231961E1  -7.454599467280438E-3  -6.813542797967453E-1  
 3.000895500000000E7    -1.377555186663293  -1.721861859119832E2  -6.106758832727243E1  -6.143570795159040E1  -6.114527259418762E1  -7.843843721848745E1  -1.099020625084202  -1.717026173240060E2  
 6.000891000000000E7    -2.342852327680783   2.411720984062743E1  -6.767155653148207E1   5.853958964025432  -6.646208224853548E1   1.501116836860024E2  -2.375389831916996   2.465712903655578E1  
 9.000886500000000E7    -3.258054568065010  -1.397065385406167E2  -5.671328338404842E1   1.130996305898952E2  -6.209212333463918E1  -1.648635848924243E2  -3.275848383420002  -1.384093507651651E2  
 1.200088200000000E8    -3.244829534545743   4.539787490516999E1  -5.729421221965522E1  -7.134390621056710E1  -6.167042888465600E1  -1.735926483536582E2  -3.235882215808794   4.708088886567652E1  
 1.500087750000000E8    -2.389003297043860  -1.241603878188950E2  -6.394721718772231E1  -1.626580423784224E2  -6.205428999706060E1  -1.283130831812946E2  -2.262218753656527  -1.212120962299538E2  
 1.800087300000000E8    -1.131653981230909   6.708616514863147E1  -6.824815426626599E1   9.740312619444805E1  -6.357574631868033E1   1.276369157298699E1  -1.267928814535949   6.623974352416215E1  
 2.100086850000000E8    -1.485475966526336  -1.062687962982195E2  -6.292272979258625E1   4.734673064593410E1  -6.689981639741477E1  -9.529039605392940  -1.366331758658641  -1.037222904751311E2  
 2.400086400000000E8    -2.555406518982541   9.256450739656125E1  -6.369557096411236E1   1.045320592563133E2  -5.560954635746471E1   1.889486852679967E1  -2.239348111283514   9.534577291435498E1  
 2.700085950000000E8    -3.165041652866503  -6.491598031129142E1  -6.877993651805335E1  -8.269812574251060E1  -7.143965022371641E1  -1.654967553710672E2  -3.240146203196865  -5.974805652439378E1  
 3.000085500000000E8    -4.282504536725670   1.331091094660228E2  -5.974513892917258E1   1.155302561434761E2  -5.782188988023269E1   1.353410462228648E1  -4.090290590746604   1.368365118274338E2  
 3.300085050000000E8    -3.744807362199557  -4.648171340002160E1  -6.278230171710967E1   1.384697417346758E2  -5.591684752527613E1  -1.398742574585170E2  -3.775403949298476  -4.288239711715655E1  
 3.600084600000000E8    -2.565054339155048   1.377557548677564E2  -6.959050157629329E1   4.714419269316983E1  -6.376879827315244E1  -1.553149614387012E1  -2.426928364074006   1.432130821004714E2  
 3.900084150000000E8    -1.628808726489270  -3.409492976290396E1  -5.675962539739609E1   5.789279087928794E1  -5.293141014850845E1   8.468732129069581E1  -1.676278666388915  -3.579180489002488E1  
 4.200083700000000E8    -2.731504212138715   1.563426382915461E2  -7.061137630446395E1  -9.107282084846428E1  -7.265332088130646E1  -5.146980308929962  -2.422125600157910   1.648017056149882E2  
 4.500083250000000E8    -3.031334738775637   7.906648619785085  -7.009058323809585E1  -1.363078916161079E2  -6.769372211886196E1   8.061786885646266E1  -3.103081962750797   9.360352353159549  
 4.800082800000000E8    -3.934406777484812  -1.469389123596847E2  -5.976030885547367E1  -1.467892084282143E2  -6.936148668617426E1   2.240709611325361E1  -4.007356120321093  -1.372809618249603E2  
 5.100082350000000E8    -5.146007149515605   4.328867156419863E1  -6.072111119808962E1   9.522122136687050E1  -6.288548998855579E1   1.313579627436843  -4.947839599976319   4.837245063559214E1  
 5.400081900000000E8    -3.730734497978616  -1.446373407501666E2  -6.221275331050640E1  -7.735768320612701E1  -6.417941978231065E1  -1.483606966990461E2  -4.047166582560616  -1.336868788789096E2  
 5.700081450000000E8    -2.469560299219146   3.853651391441000E1  -6.254467563877201E1   1.296544469619984E2  -6.548028791916286E1  -1.725993981029134E2  -2.316517644675031   4.174983316499898E1  
 6.000081000000000E8    -2.550262220809461  -1.335186061391015E2  -6.023160532010243E1   1.755491752935895E2  -6.341615059819939E1  -1.534517422926408E2  -2.423428500891860  -1.283220001084613E2  
 6.300080550000000E8    -3.159490399878156   6.549323736800795E1  -5.770951759794347E1  -5.391947414206028E1  -5.814753332898037E1   1.432396121997219E2  -2.815527134332595   7.840832655098082E1  
 6.600080100000000E8    -3.500979254390672  -7.228734794717494E1  -6.827167921529107E1  -2.845724867138939E1  -5.801589166016264E1   1.423174256441377E2  -3.675933314644973  -6.788494782987280E1  
 6.900079650000000E8    -5.208721655679720   1.296662916607725E2  -5.665540734736906E1  -3.497442335439224E1  -6.576950833065699E1   7.324423256125979E1  -4.791962965214715   1.399106953169091E2  
 7.200079200000000E8    -5.728955194581864  -5.235041767375841E1  -5.897037200909429E1  -1.495854616628380E2  -5.933648263697723E1  -1.564246095725082E2  -5.873107790506146  -4.211811619215047E1  
 7.500078750000000E8    -3.383562773059683   1.210650749410776E2  -6.186174782233277E1  -2.513307863321440E1  -5.493764141802696E1   2.736013370957187E1  -3.638447198974054   1.273127152295983E2  
 7.800078300000000E8    -2.685372525099225  -6.109571149087970E1  -5.776665543819004E1   1.237291857084738E2  -5.977445021950237E1   1.531500934651724E2  -2.500599844834001  -5.792853697142028E1  
 8.100077850000000E8    -3.172727612585610   1.369124474215855E2  -6.603072129305549E1   7.209362168808493  -7.406521437523362E1  -1.721417421837380E2  -2.917622227325152   1.491484232443640E2  
 8.400077400000000E8    -3.539677427615289  -1.069050367428126E1  -5.700303523084266E1  -1.625870270318959E2  -6.774932083611931E1  -4.587019383586301E1  -3.615183475386248  -3.070750451864854  
 8.700076950000000E8    -4.392768647130544  -1.494391269949792E2  -5.809533754623209E1   4.897889130134539  -6.116656765839823E1  -1.329559890553036E2  -4.455699431237697  -1.420819283122657E2  
 9.000076500000000E8    -6.722675415659063   3.668227586079343E1  -5.465786757780247E1  -4.688593146027230E1  -6.248342868575387E1  -1.102453557031810E2  -6.017179739855168   5.301681884042304E1  
 9.300076050000000E8    -5.104828073996816  -1.509121147226453E2  -5.539559056653376E1   1.210594328434514E2  -5.643173219721579E1   1.101748986054964E2  -5.813036813199362  -1.353908301916599E2  
 9.600075600000000E8    -3.121341132435421   2.461822293339109E1  -5.786593974387171E1  -5.978964364985784E1  -5.490550023950178E1  -1.414578126779340E2  -3.094559504659489   2.705307212174489E1  
 9.900075150000000E8    -3.284093542905771  -1.566769767518699E2  -6.279780831835154E1  -3.374604383745373E1  -5.703085574532046E1  -1.938950048062665E1  -2.914649334238401  -1.431889075747707E2  
 1.020007470000000E9    -3.536252695015099   5.356550598708935E1  -6.446771997435937E1  -1.360099457207998E2  -6.249456139220382E1  -1.464179540150609E2  -3.468933714416458   6.576024845065291E1  
 1.050007425000000E9    -4.339545250300910  -8.748360712305824E1  -5.742612166904421E1   5.613580673968626E1  -6.944782764936103E1   9.622283808787756E1  -4.197920699947787  -7.583439420903038E1  
 1.080007380000000E9    -6.355531576063821   1.203873575271376E2  -5.503469404282512E1   4.004668313275698E1  -6.547854467707141E1  -5.302173671993046E1  -5.597523160519895   1.343084325212430E2  
 1.110007335000000E9    -6.871250546865606  -6.618787559849409E1  -6.429484050840134E1  -1.746586894923328E2  -6.095019789908170E1  -1.645191034420741E2  -7.143187506230615  -4.187254713615386E1  
 1.140007290000000E9    -4.425438581021607   1.155721386185851E2  -6.025462916997657E1   7.551540258059469  -5.986660424491415E1  -1.273636218418707E1  -4.715900635150251   1.241110877984293E2  
 1.170007245000000E9    -3.349223641485887  -7.577293332128247E1  -5.610815233813346E1   1.649577847237718E2  -6.646042515111263E1  -1.470950313511917E2  -3.043245107341374  -6.648807665990731E1  
 1.200007200000000E9    -3.546887498284195   1.179109130943702E2  -6.002834355015948E1  -8.747272332631597E1  -6.723447189544750E1   8.499711629213883E1  -3.255529301186459   1.354538589651519E2  
 1.230007155000000E9    -4.036560880784657  -2.688054399334957E1  -7.363483998096554E1   4.833723305560898E1  -6.277463461679770E1   9.331247246830669E1  -4.073727460786386  -1.385500018951128E1  
 1.260007110000000E9    -5.903907691025748  -1.709428751970372E2  -5.772885967420586E1   1.351483871785788E2  -5.984395706461678E1   1.254639763181078E1  -5.325216287353195  -1.551766560231966E2  
 1.290007065000000E9    -7.909097153246038   1.422290823742705E1  -6.190665629173957E1  -8.222991224328898E1  -6.436558443207065E1  -9.210344395181699E1  -7.550645604978999   3.934525087458090E1  
 1.320007020000000E9    -5.910228051390286  -1.633925795601295E2  -5.851917536983051E1   1.418184211135884E2  -6.081602150076079E1   1.177706856543151E2  -6.471043708390572  -1.427904248455281E2  
 1.350006975000000E9    -4.212711312912820   2.031884068254050E1  -5.761293620539056E1  -1.049490114685358E2  -5.599039622289077E1  -5.603026658035587E1  -4.357787924110347   2.526124905367791E1  
 1.380006930000000E9    -3.898963587743423  -1.712908886396844E2  -5.661324773104710E1  -7.034829898905184E1  -5.915646127281388E1   7.247088226505062E1  -3.019048587411708  -1.479885839079851E2  
 1.410006885000000E9    -3.955065434600718   3.981654949684550E1  -5.773404228633903E1   6.843612324976826E1  -5.923179409268528E1   6.528728677009060E1  -4.114017669705253   5.551887667035614E1  
 1.440006840000000E9    -6.098341476710974  -1.110495167628642E2  -6.589737751693110E1  -9.135941372452678E1  -5.996588306008744E1  -8.669130298111847  -5.178122518463245  -8.831862538872601E1  
 1.470006795000000E9    -8.070060350830683   8.521032076671297E1  -6.555152464198982E1   3.727419464489746E1  -5.548068570639472E1   3.047466638631379E1  -7.467610320528483   1.121179968344979E2  
 1.500006750000000E9    -7.328609810840383  -9.347778491283782E1  -5.102323912286110E1  -1.748296236551578E2  -6.484299279638968E1   1.374422351180291E2  -8.005335327167650  -6.293749485720214E1  
 1.530006705000000E9    -5.084841919145415   1.060787375955691E2  -5.361678519897637E1   7.614784894235437E1  -5.814747823538372E1   1.133859502093887E1  -5.696680949673568   1.170905497818867E2  
 1.560006660000000E9    -3.989061750965543  -7.557433106485955E1  -5.004717015812219E1  -7.262274944059423E1  -5.135798158227635E1  -7.958661615252157E1  -3.853731780044420  -6.104774309804372E1  
 1.590006615000000E9    -4.399771090879376   1.108824569921538E2  -4.855077367700880E1   1.087217659915667E2  -4.835320179362211E1   9.921942813216147E1  -3.746250923361825   1.328964706937764E2  
 1.620006570000000E9    -5.394566438698170  -4.125082598453158E1  -5.184402052209597E1  -7.636556693528550E1  -5.035262144582975E1  -8.280357923809659E1  -5.461216770575942  -2.281745468368780E1  
 1.650006525000000E9    -9.782522488616010   1.463773191109859E2  -6.165731956459420E1  -7.787240841916228E1  -5.919169453552678E1   1.028908474351180E2  -7.531487825522411   1.768529932096365E2  
 1.680006480000000E9    -8.019385549021555  -2.661694554325039E1  -5.832654877441759E1   8.903362185663187E1  -5.735304075726195E1  -1.275063779130727E2  -9.745617960431931   3.674216338539518  
 1.710006435000000E9    -6.629969954546078   1.715900993208935E2  -6.574516961263272E1   5.332213291694508E1  -5.952971378098948E1   1.413462797364876E2  -6.608041195029093  -1.673117711025996E2  
 1.740006390000000E9    -4.625090023485974   1.653736699250770E1  -5.109875365312740E1  -1.165564041438908E2  -5.698230176585854E1  -2.732801235235036E1  -4.981708303762078   2.793796252605408E1  
 1.770006345000000E9    -3.873075027311637  -1.644768555333916E2  -5.119349365813005E1   1.153574806647166E2  -5.218799986521565E1   1.157971029955024E2  -3.169361031325176  -1.413614883842335E2  
 1.800006300000000E9    -5.385838210563149   3.370065887361243E1  -4.942236244546697E1  -4.591833432874932E1  -5.423466666748284E1  -3.674900042506628E1  -5.323261959911886   5.042662717619940E1  
 1.830006255000000E9    -8.896683882156200  -1.507205547655969E2  -8.317542976880205E1   6.783405865842074E1  -6.381004391881412E1   1.535984587668858E2  -7.890224608589868  -1.157821888015000E2  
 1.860006210000000E9    -9.586530140941918   1.246695692579128E1  -5.794126079518615E1   3.980913696144681E1  -6.418868155170368E1  -6.566469614127982E1  -1.014749042561865E1   5.423275060480523E1  
 1.890006165000000E9    -6.123590090975224  -1.264289960241432E2  -5.351282757858230E1   1.146666197825867E2  -5.741046046097225E1   1.033224824389893E2  -7.549660976415887  -1.048069775405355E2  
 1.920006120000000E9    -5.836908512749721   8.320596045062601E1  -5.168445173005713E1  -6.923903167853200E1  -6.795506175675583E1  -2.439696748606010E1  -5.746294054022714   9.993584399733874E1  
 1.950006075000000E9    -4.048632117053623  -6.996020149666525E1  -5.292376584713186E1  -1.670174532211244E2  -6.388396838732956E1  -1.363774351083272E2  -3.950343835051561  -4.967932167061546E1  
 1.980006030000000E9    -4.207514219975792   1.159649520231526E2  -5.323421085265983E1   7.073106147877974E1  -5.137390334612275E1   4.245012310886324E1  -3.957757125756736   1.389176109423704E2  
 2.010005985000000E9    -1.019781187389719E1  -6.194309849159414E1  -5.360437182905335E1  -1.514427384019573E2  -6.467145429526703E1  -1.287060606481696E2  -8.245226684485040  -3.777443737123658E1  
 2.040005940000000E9    -8.650426826629559   6.719394902839542E1  -5.742000414521643E1   4.552232538193900E1  -5.974998075044769E1   1.749784403416350E2  -1.014569770517979E1   1.100396536392946E2  
 2.070005895000000E9    -7.262963715129954  -8.487127899417258E1  -5.843687383502920E1  -4.879188480119393  -5.653013259614883E1   1.135704771728571E2  -8.856878870164621  -6.163347597003698E1  
 2.100005850000000E9    -5.051839362223602   1.476300332428233E2  -5.206042797682474E1   1.043346551700796E2  -7.543281970926365E1   1.601560081547282E2  -5.324759221675959   1.571392643732956E2  
 2.130005805000000E9    -5.498287474772893  -5.022282959458015  -6.074124525948725E1  -1.638340035138679E2  -5.188880618753505E1  -9.261431027437516E1  -4.881794477543497   1.894488495770342E1  
 2.160005760000000E9    -3.540445555543133  -1.509499413880451E2  -5.319729549875954E1   9.681360705969973E1  -5.101401027957025E1   1.000465931947388E2  -3.347025711538818  -1.290073357931104E2  
 2.190005715000000E9    -6.231098400179406   3.231640504376536E1  -4.949188381321116E1  -1.034709319581485E2  -4.855749323519506E1  -8.953352717674834E1  -6.159005491174536   6.378028133837778E1  
 2.220005670000000E9    -1.365798627132132E1   1.153956284512202E2  -6.713161315074689E1   8.362226239025932E1  -6.496153912720833E1   5.644399636183069E1  -1.221396169725021E1  -1.726499101870942E2  
 2.250005625000000E9    -5.837860182228702  -3.306930523986239E1  -6.696366340157621E1   1.212266320553479E1  -6.922663306779221E1  -1.713481738324837E2  -8.165320776217268  -1.546683656932777E1  
 2.280005580000000E9    -6.513034955097502  -1.693967324693724E2  -5.892319454026486E1  -1.193359716763070E2  -6.231532628616765E1   1.768194346157192E2  -5.971953122637538  -1.448351119078023E2  
 2.310005535000000E9    -4.399677432261356   5.682827840263471E1  -5.960786676644271E1  -1.466007203964509E2  -6.373100063658418E1  -7.118645233809617  -5.300210173361411   7.265816179204272E1  
 2.340005490000000E9    -4.943129091622479  -8.546846575653387E1  -6.037522140495385E1  -1.386625440806425E2  -6.267417339256640E1  -7.150237163283137E1  -3.624217258314984  -5.349987567693843E1  
 2.370005445000000E9    -3.440080261808357   1.349749418226507E2  -5.558424578304179E1  -4.530555446171304E1  -6.075134758217479E1  -1.301113405088641E2  -4.109298506266679   1.591523229944519E2  
 2.400005400000000E9    -1.879384025129529E1  -1.276980123432000E2  -5.564906289380734E1  -1.882730796793197E1  -5.346486414718520E1  -2.054403434073988E1  -1.193135802603032E1  -3.174934191692161E1  
 2.430005355000000E9    -7.329212567715205   5.933301179521724  -5.836792725650921E1   8.937116777355094E1  -5.943626904606489E1   1.684385114012449E2  -7.741592840715403   3.879185927227575E1  
 2.460005310000000E9    -4.611627918924585  -1.169961132178525E2  -5.527354209734946E1   1.690613134818619E2  -6.095345751970434E1   4.837795412328543E1  -6.747035684298456  -1.021258874676453E2  
 2.490005265000000E9    -5.646297740410994   1.156616618257572E2  -5.667631473386935E1   3.851133260574805E1  -6.497609577293254E1  -1.672246737675190E2  -4.546024755871446   1.297409818806422E2  
 2.520005220000000E9    -4.107036059436467  -2.790310326630780E1  -5.410159357440698E1  -6.783089346046157E1  -5.172558777946347E1  -4.909049573646203E1  -4.545624582482187   9.477735787746923  
 2.550005175000000E9    -4.150100899502773  -1.508394792087709E2  -6.180235574956340E1   9.518921641343779E1  -5.822288788139841E1   1.690819878118843E2  -3.881815284041669  -1.290006692771741E2  
 2.580005130000000E9    -4.768069020794559   6.096943682886285E1  -4.471631056158512E1   6.139040298444429E1  -4.531400895003024E1   5.046327941866388E1  -4.495540903044500   9.585331576616932E1  
 2.610005085000000E9    -7.450781856873254   5.707610780164578E1  -4.746877435170682E1   1.661084277427499E2  -5.064387751762138E1   1.295848646590512E2  -1.259043332840727E1   1.133857279911508E2  
 2.640005040000000E9    -5.339615860846123  -6.459282643532166E1  -6.320202485863607E1  -4.339888758114564E1  -7.321302710477339E1   1.036539032092123E2  -6.095189665641654  -6.042518650795779E1  
 2.670004995000000E9    -4.831962860378956   1.633485278496808E2  -6.230553077715138E1   1.594995709230014E2  -6.774767490495012E1  -2.037823812383761E1  -4.114893200139141  -1.714466391419381E2  
 2.700004950000000E9    -4.891350979396801   3.897286684226212E1  -6.794323666669594E1  -5.455125310159404E1  -6.979036904022861E1   1.979825699989845E1  -5.122576747209372   5.994125886007471E1  
 2.730004905000000E9    -4.498947930199699  -1.039423576659046E2  -5.450591722809816E1  -1.161744863564911E2  -5.791450523129311E1  -2.288888581250483E1  -3.426855247732931  -6.453168203808937E1  
 2.760004860000000E9    -3.338156485981984   1.488999779940590E2  -5.006322212574909E1   9.546934974129208E1  -5.272990367983045E1   1.408741298992683E2  -3.779572260582701   1.778681322129105E2  
 2.790004815000000E9    -1.744533101121155E1  -1.850414912477683E1  -3.937957859731235E1  -1.002296655976678E2  -3.992852283408014E1  -9.166925342623674E1  -8.212705302433129   4.378640151579048  
 2.820004770000000E9    -5.404346355568342  -2.416652076845681E1  -5.518623396126070E1  -1.260816357697187E1  -5.495788836798923E1   3.096491221308404E1  -5.815631478776646  -3.144389658811944E-1  
 2.850004725000000E9    -4.185963134822999  -1.310384176693137E2  -5.437203491377457E1  -7.753334058224665E1  -6.528331022345510E1  -1.517541653315279E2  -5.176909064334354  -1.193180503596188E2  
 2.880004680000000E9    -5.802702638707149   8.562166947252061E1  -5.620835633320380E1   5.451953381283803  -5.806229996018556E1   3.524849484457469  -4.621267218136913   1.085064697496333E2  
 2.910004635000000E9    -3.907391615274122  -3.873393426651549E1  -6.022405877916562E1  -1.400107183943917E2  -6.642457701176282E1  -1.109987856210867E2  -3.315537688173538   1.009391522336651  
 2.940004590000000E9    -5.017697829116315  -1.655273155548951E2  -5.446198310608558E1   1.083651626878469E2  -6.106903712271533E1   1.321959327085277E2  -5.057161004817226  -1.302571833248705E2  
