#  HZ   S   DB   R     50.0 
! Rohde & Schwarz ZVL13 2Ports - Version 3.20 - 1303.6509k13 SN: 100953
! Date: 2024-10-09 07:59:00
! Data & Calibration Information:
! Trc1:S11(TOSM) Trc4:S21(TOSM) Trc2:S12(TOSM) Trc3:S22(TOSM)
! 
! 
! 
 9.000000000000000E3    -5.589484183999191E1  -4.566283823744025E1  -7.043434723505992E1  -2.907250795406884E1  -5.229611600056052E1  -1.227303002698872E1  -6.273262735754112E1  -8.790378135258580E1  
 3.000895500000000E7    -3.995007394737087E1  -7.293317514731561E1  -5.427032165541953E1   9.716473815439914  -5.486463953428869E1   1.063641814976611E2  -4.117300904726798E1  -1.670995980714258E2  
 6.000891000000000E7    -4.419568936364377E1  -3.333888227361094E1  -4.545995965731235E1   1.871687445482477E1  -5.145504719833637E1   6.598657610230910E1  -4.362721473568013E1   1.228143293175997E2  
 9.000886500000000E7    -5.641743957533671E1   5.174375786253033E1  -4.476489548587103E1  -3.658553564963876E1  -6.203109251319493E1   2.461328782392980E1  -3.847796477673037E1   1.386252127102623E2  
 1.200088200000000E8    -4.452009941507808E1   6.230802019965097E1  -5.427410685212237E1   1.210687463911232E2  -6.322801072609262E1   5.444758088025115E1  -3.856943311390632E1  -1.342738340645636E2  
 1.500087750000000E8    -3.974037479569729E1   1.798749805945831E2  -5.239094282060250E1   1.472125175514537E2  -4.689662707464328E1   6.512139283498433E1  -4.033421501112963E1   6.783642102995981E1  
 1.800087300000000E8    -3.895409305571810E1  -9.927274420106502E1  -5.715088318075986E1  -1.406415962908006E2  -5.318471395769729E1   1.216789419000829E2  -4.468884683806824E1  -6.689307619361389E1  
 2.100086850000000E8    -4.162874644348550E1   9.535225917008222E1  -4.865234427113878E1   1.170616523699541E2  -4.645543977500904E1  -5.962227647988423E1  -3.776027358526682E1   1.241875571492791E2  
 2.400086400000000E8    -3.428603410663510E1  -5.590360655855267  -5.746395381883046E1   1.063934721698731E2  -6.323762535859261E1   2.093400531238325E1  -4.010854403093389E1   1.152431550904442E1  
 2.700085950000000E8    -4.369155797139199E1   1.630633923700683E2  -5.240709650091842E1   1.186203070920448E1  -5.522340876758526E1  -7.973050073825969E1  -3.551162884683416E1  -9.765028828132778E1  
 3.000085500000000E8    -3.278000951027187E1   1.651611977386324E2  -5.036842027952464E1  -6.404570447568753E-1  -5.145812762200002E1  -1.827251378295478E1  -3.802096825649136E1   1.043771662269350E2  
 3.300085050000000E8    -5.323718979218217E1   9.678282733581908E1  -5.103344377790631E1   1.670845075009340E1  -4.958151229098884E1  -1.068434997997360E2  -4.356686095254555E1   1.202886903358542E2  
 3.600084600000000E8    -3.853519843107411E1  -9.386287381159373E1  -5.751293628691418E1  -1.049908863803684E2  -5.891461939689698E1  -6.436393701299636E1  -3.739679682382847E1   7.982464388082221E1  
 3.900084150000000E8    -3.872449720478505E1  -7.297721880861985E1  -5.083463609541126E1  -3.341071411947594E1  -5.069444012749364E1   6.437993560450325E1  -3.677111383268007E1  -1.405666442157279E2  
 4.200083700000000E8    -3.171798339564089E1   1.805182018841511E1  -4.859228606171035E1  -6.578749314343587E1  -5.521136355382889E1   1.226027869685301E2  -3.835377800041906E1   1.628485288874406E2  
 4.500083250000000E8    -3.758272755688698E1   6.554984958578527E1  -5.105307098223114E1   1.740952174332221E2  -5.185512819014836E1   3.947472270016440E1  -3.299539432378277E1  -1.496439157157637E2  
 4.800082800000000E8    -3.450805258748285E1   1.415118465155260E2  -5.241666440295226E1  -8.461410351963917E1  -4.193633434631912E1   3.598693909411342E1  -4.640837407557185E1  -9.262950472734910E1  
 5.100082350000000E8    -4.364443196479994E1  -6.826033286044365E1  -4.243072712216752E1   1.112005885105821E2  -4.959882874202253E1  -9.346084205855398E1  -3.598480106142149E1  -9.131675084813884E1  
 5.400081900000000E8    -4.250223348012368E1   1.738475232840438E2  -5.233657877727707E1   6.814996019442762E1  -4.224424758067065E1   9.071483978176453E1  -3.416185032369548E1   3.346952914712889E1  
 5.700081450000000E8    -3.370354621472816E1  -3.350979817305537E1  -5.773075843241573E1   2.353685360703593E1  -5.738377035573108E1   1.508690298267289E2  -4.945300492372159E1  -1.263999320280760E2  
 6.000081000000000E8    -3.447142388185236E1   3.462533710749705E1  -5.162869170888394E1   1.225781054693843E2  -4.740323067073003E1   1.215348447155129E2  -3.312350366838619E1  -5.561865850245811E1  
 6.300080550000000E8    -2.850942771799232E1   4.217542344565484E1  -5.619055317582522E1   6.671635184977465E1  -5.022466567012312E1   1.950456704492092E1  -3.164759574825305E1  -1.383745074195731E2  
 6.600080100000000E8    -2.927105094352102E1   1.403196524155254E2  -4.874263604723551E1   7.134641268965314E1  -4.328724475415074E1   1.733422092080954E2  -3.344904997301678E1   2.774034112762425E1  
 6.900079650000000E8    -3.714802373021783E1  -1.357838638577814E2  -5.671050324799273E1   1.721478068454661E2  -4.744525178247048E1   5.512518659960308E1  -4.376432974154753E1   3.140527351422481E1  
 7.200079200000000E8    -3.362298997525774E1  -7.061460960635732E1  -4.823804683306061E1   1.094062631828334E2  -4.769849588102805E1   5.508675230471783  -3.108183679918544E1   1.091081419576772E2  
 7.500078750000000E8    -3.024426353440354E1  -6.132206750371852  -5.599824759902126E1  -1.648883177734076E2  -5.072303329931141E1  -1.933555427788501E1  -3.549219913041190E1   1.101568892041987E2  
 7.800078300000000E8    -3.207317292884683E1  -2.633926367563135  -5.466645599539717E1  -9.696930060710609E1  -6.016318390255445E1   2.289997079783359  -3.370752155446801E1  -1.545186192096414E2  
 8.100077850000000E8    -2.952802762583606E1   7.220851007362577E1  -4.474800343686534E1   1.421243039109776E2  -4.486937780571230E1   5.744811616696791E1  -3.329222723464347E1  -1.192785669339671E2  
 8.400077400000000E8    -2.977007723268376E1   1.028272529103967E2  -4.378880871012068E1   8.156259622077926E1  -4.774643974586019E1   1.477660394933414E2  -3.888793052621239E1  -3.487362553484512E1  
 8.700076950000000E8    -2.770355292341530E1   1.375948265166036E2  -7.005753293892012E1   5.646613636869414E1  -4.847481915570519E1   1.276877274563111E2  -3.412379965667473E1   1.195674339754071  
 9.000076500000000E8    -3.025818142568638E1  -1.020074418602871E2  -4.752425295514316E1  -1.460041558298238E2  -4.672498384791037E1   4.502908260806402E1  -3.665081066361209E1   4.301143262668170E1  
 9.300076050000000E8    -3.511663807003728E1  -4.724023435425653E1  -4.914841419066625E1   8.635733913170004E1  -4.766020130677295E1  -1.086179370600380E2  -3.467589079220809E1   1.361488520087221E2  
 9.600075600000000E8    -3.826473155991520E1  -3.369045008006862E1  -4.900400952177486E1  -6.410532657574184E1  -4.562309057574384E1  -9.147522985892097E1  -3.654122951191894E1  -9.375382540220329E1  
 9.900075150000000E8    -2.656968830834745E1   5.521659670172885E1  -4.891848228765661E1   1.439642300515963E2  -5.339397106456656E1  -5.868177755846634E1  -3.487502642423274E1  -1.064990591153448E2  
 1.020007470000000E9    -2.788155151862437E1   1.156896141968462E2  -4.805980805190965E1  -1.243837478300375E2  -5.258710680655667E1   2.925794990815447E1  -3.442217253009991E1  -5.616606986521376E1  
 1.050007425000000E9    -3.489772926423584E1  -1.792664092476251E2  -4.468098726024255E1   8.975646579497490E1  -4.760089441898842E1   1.153876141354599E2  -4.701001920215339E1  -1.624422556899163  
 1.080007380000000E9    -2.907001981403092E1  -9.171869862785579E1  -4.751801508173194E1   9.091425835823640E1  -4.780646576184411E1   1.228081570785242E2  -3.356062817581837E1  -1.559045903076203E1  
 1.110007335000000E9    -3.433528320719982E1  -6.054141167899533E1  -4.789532770142660E1   1.126697622320337E2  -4.832310535106842E1  -1.171763349439822E2  -4.628644229980599E1  -3.598164411122809E1  
 1.140007290000000E9    -3.500118500498532E1  -3.731533169309420  -4.738727063236983E1   1.108984907111803E2  -4.893745625411154E1  -6.962566428652166E1  -3.900950018694446E1  -1.741868268553113E2  
 1.170007245000000E9    -2.716322899582238E1   1.015121641097533E2  -4.642917357960732E1   1.108336622416617E2  -4.700026585930061E1  -1.129134741706568E2  -3.123277189292351E1  -8.018723352638040E1  
 1.200007200000000E9    -2.597739739635393E1   1.231974716489922E2  -4.922565157409739E1   1.235617281167265E2  -5.269228688913577E1  -1.136571607157921E1  -2.849032020032127E1  -6.572362136886387E1  
 1.230007155000000E9    -2.468617753285772E1   1.734760143284691E2  -4.273648086824480E1   2.338164554582204E1  -5.065047725485278E1  -1.335087750150302E2  -3.382292732736168E1   3.908577066013042E1  
 1.260007110000000E9    -2.891190505354609E1  -1.424843609134573E2  -4.073231784985651E1   1.114619659345385E2  -4.306981856320001E1  -1.399631134329619E2  -3.912752310874070E1   9.048129732294549E1  
 1.290007065000000E9    -3.275263487480913E1  -5.570983262232456E1  -4.707602389926729E1   1.508345733447978E2  -4.535891041179322E1   1.082731290536093E2  -4.085361756765146E1   1.136507978844199E2  
 1.320007020000000E9    -2.868041326188758E1   4.138693915761504E1  -4.730348213078423E1   4.997269756403854E1  -5.066908892514528E1  -1.542108654734897E2  -3.328914156409666E1   1.263675933833120E2  
 1.350006975000000E9    -3.335160477993912E1   7.918926883752943E1  -6.441210281417992E1   1.098584743810488E2  -5.010365349262141E1  -1.618086619735533E1  -3.453916611146847E1   1.680626648357779E2  
 1.380006930000000E9    -2.419635954790242E1   1.318589149655819E2  -4.990399947264730E1   1.453504307401149E2  -4.374271922695000E1  -1.393994968189792E2  -2.974400209909834E1  -3.628747292250818E1  
 1.410006885000000E9    -2.337778800654529E1  -1.732210528298508E2  -4.370064968778593E1  -1.235821879479916E2  -4.953577883139423E1  -1.257548777918772E2  -2.522984377224806E1  -1.531237998159010E-1  
 1.440006840000000E9    -2.938671983984241E1  -1.548060434907075E2  -4.314967594517829E1   1.782543425001365E2  -4.737815223913065E1  -1.928638876832896E1  -2.888153193678386E1   3.131047884341269E1  
 1.470006795000000E9    -3.804952130818119E1  -1.547924056569544E2  -4.670095875831298E1   1.717086356496768E2  -4.345380329010837E1   9.753375746780303E1  -3.015562196191166E1   4.664453049700785E1  
 1.500006750000000E9    -3.017699223823666E1  -1.487072985553547E1  -4.535610671890581E1  -1.636349871549563E2  -4.963751381664563E1   2.137302586638002E1  -3.465877746165209E1   5.585142234249210E1  
 1.530006705000000E9    -3.042323489629333E1   1.072213002011675E2  -4.142967468236377E1   1.389972233478421E2  -4.772670803872632E1   7.825059628110783E1  -3.455305489533833E1  -2.006816263033257E1  
 1.560006660000000E9    -2.468240787643672E1   1.555762087075673E2  -5.140976636184455E1   6.946815891666959E1  -4.550143934415739E1  -1.770301682655701E2  -3.901530273630464E1   5.081592555040541E1  
 1.590006615000000E9    -2.406142308790989E1   1.700433080127514E2  -4.752230384247198E1   1.691877487477597E2  -4.963941880134002E1  -1.794768954299972E2  -2.659530037845491E1  -3.230575542727202  
 1.620006570000000E9    -2.224642157295896E1  -1.322319139184666E2  -4.289245323161772E1   1.214223008080504E2  -6.552070727964397E1   1.388673683832556E2  -2.377134397388895E1   4.456332423146380E1  
 1.650006525000000E9    -2.979007032841488E1  -1.211916665107395E2  -3.920491970710972E1   1.427582346122278E2  -4.228143083727289E1   1.509984786238317E2  -2.655859138712233E1   3.782725769027137E1  
 1.680006480000000E9    -2.899754006075468E1  -3.842352532332934E1  -4.815205443251382E1   1.173644935469102E2  -4.331784117127394E1  -1.564429700011445E2  -3.067063682438383E1   1.029207039115311E2  
 1.710006435000000E9    -3.206064379214109E1   6.516174724885734E1  -3.947464899508021E1   1.153322339315142E2  -4.502186151816652E1   5.548952670229627E1  -3.743517173915149E1   1.170271905815282E2  
 1.740006390000000E9    -2.235111266607317E1   1.528001446109638E2  -4.381413308902766E1   9.101420226621889E1  -4.463869766255982E1   4.558052645967290E1  -5.239217662258554E1   2.749250087320281E1  
 1.770006345000000E9    -2.232933762280683E1  -1.727553189290147E2  -4.766212290975166E1   4.041923312325471E1  -4.269082492961230E1   1.305403891082885E2  -2.958255001659135E1   8.271569753836541  
 1.800006300000000E9    -1.986496236272397E1  -1.422825699316788E2  -3.964489598147790E1  -8.761338380432694E1  -6.056985284131115E1   1.503929858679548E2  -2.386540307968385E1   4.890511803822474E1  
 1.830006255000000E9    -2.070838870855431E1  -1.105773120888156E2  -3.823045153667924E1  -1.039757584314110E2  -3.448917460326288E1   9.245649083414489E1  -2.120123808173052E1   5.590284678855664E1  
 1.860006210000000E9    -3.460560494253578E1  -3.305168349907116E1  -3.730353201877137E1  -1.790470317034221E2  -4.889471180712318E1   6.059512646844053E1  -2.469210451447280E1   8.440576050255925E1  
 1.890006165000000E9    -3.375435287408656E1   1.354199012329079E2  -3.857097543262750E1   1.363570543178566E2  -3.442320752071252E1   9.848058616889003E1  -2.668728866166887E1   7.395908873420507E1  
 1.920006120000000E9    -2.482673660750360E1   1.705262939949422E2  -4.647526288045895E1   1.039098268112473E2  -5.391912473919581E1  -9.913644579778561E1  -3.473273427259390E1   7.293490800929535  
 1.950006075000000E9    -1.901436688714906E1  -1.562507739681384E2  -3.504011902638838E1   1.550932863247683E2  -3.863043523337480E1   7.294603189868137E1  -3.020413232701913E1   6.271465669185465E1  
 1.980006030000000E9    -1.748010365391297E1  -1.332640080812807E2  -4.501589717278447E1  -9.158963425479915E1  -4.665819164030053E1   1.106527474833039E2  -2.007610935865117E1   7.244687395833468E1  
 2.010005985000000E9    -2.114403973453292E1  -1.062554752005203E2  -4.421094568140521E1   1.058726844516804E2  -5.157683020009836E1  -1.418000132022506E2  -1.861801132649111E1   8.107455133357217E1  
 2.040005940000000E9    -2.756886648095705E1  -6.945442295527316E1  -3.678536845904956E1  -3.364759115577317E1  -4.115566302793506E1  -7.515097513617505E1  -2.204489903268883E1   9.992151780750137E1  
 2.070005895000000E9    -4.016444221627787E1   5.556701182399564E1  -3.643882515955180E1   1.443039055147118E1  -3.725809831038089E1   1.482966446162868E2  -2.711264519880958E1   1.302559158680295E2  
 2.100005850000000E9    -2.843093683957574E1   1.546667245875684E2  -3.823599089518164E1   1.707636541305423E2  -5.226847158781118E1  -1.279334902048303E1  -2.478630927224890E1   1.255439725374686E2  
 2.130005805000000E9    -1.842572101042394E1  -1.543304179519046E2  -3.337902807637184E1   7.747009633147350E1  -4.917191098606585E1  -1.023216031426543E1  -2.802938936368667E1   5.968817374038504E1  
 2.160005760000000E9    -1.662778509956906E1  -1.208234192143470E2  -3.286575361891181E1   1.395699282036457E2  -3.688748893436114E1   7.452292273802681E1  -2.295619690103710E1   6.148480003176437E1  
 2.190005715000000E9    -1.860841693160943E1  -1.211473566616305E2  -3.755472065881263E1   7.434268532385319E1  -4.840238371968117E1  -9.875529844487370E1  -1.777819815636073E1   8.618383746269583E1  
 2.220005670000000E9    -2.326542246308684E1  -7.161599892453864E1  -4.379191327391680E1   4.801542894716357E1  -3.557796524373165E1   8.524617558805066E1  -1.712997383965097E1   1.025473016438550E2  
 2.250005625000000E9    -2.807256915260267E1   3.379366358688114  -4.035181602124556E1   4.536940135775225E1  -3.914586411822554E1   3.748849144455326E1  -1.703875450457336E1   1.080021274875522E2  
 2.280005580000000E9    -2.385817165226649E1  -1.778275316213361E2  -3.750111183425427E1   9.412444199414499E1  -6.825359310343562E1   1.768859538168328E2  -2.657909470981161E1   1.496809240940881E2  
 2.310005535000000E9    -1.873194429788072E1  -1.592392154966800E2  -3.586092641577028E1   1.631371322138491E1  -5.471621146473909E1   8.434323677296936E1  -3.214762033093466E1   4.245828375666027E1  
 2.340005490000000E9    -1.430633300606431E1  -1.173053217696001E2  -3.776739167557147E1   5.756564350400365E1  -4.145075000187887E1   8.819140440872829E1  -2.212249795200160E1   8.981419399899245E1  
 2.370005445000000E9    -1.485621264734862E1  -9.838134283759321E1  -3.246989071773417E1   9.993977372717150E1  -4.060952465934994E1   1.003044638318491E2  -1.483507905796852E1   9.095998178139931E1  
 2.400005400000000E9    -1.893851583096850E1  -5.823155454419335E1  -3.987316732981533E1   3.645011667075714E1  -4.557951742908813E1  -2.641330191183283E1  -1.389038215498520E1   1.042928946827911E2  
 2.430005355000000E9    -2.818946194903710E1   1.920202871233797E1  -3.906584332517446E1  -1.778537640646084E2  -4.403982558744723E1   1.404853093887350E2  -1.542930494271499E1   1.291543550273245E2  
 2.460005310000000E9    -3.428000143066528E1   1.442955906544549E2  -3.409012327976891E1   4.960076045048133E1  -4.045673858100718E1   1.589274669473759E2  -2.058775828797147E1   1.745523759190096E2  
 2.490005265000000E9    -1.820419577932442E1  -1.397939096942811E2  -5.432330450567730E1  -1.692787532966812  -4.442932524411476E1   1.646271137802079E2  -2.419230843261555E1   1.275072207489203E2  
 2.520005220000000E9    -1.335176232813667E1  -1.022699633624120E2  -3.908049965863205E1  -1.360134026504167E2  -3.881341043414927E1  -9.422839930290548  -2.254012426014498E1   8.445152520213036E1  
 2.550005175000000E9    -1.246658584431402E1  -7.807101030231900E1  -2.804082650223030E1   3.050964744989740E1  -4.310264448841090E1   1.473887105262281E2  -1.358044762023541E1   9.623752904442473E1  
 2.580005130000000E9    -1.776302011443774E1  -6.645578855301062E1  -4.499247646780895E1   5.713303269452663E1  -4.483660912995106E1   7.582312332976116E1  -1.141612285367340E1   1.113907231678959E2  
 2.610005085000000E9    -2.303701996527848E1  -3.145645086279203E1  -3.614660256007770E1   7.367429622260269E1  -3.845511781074195E1  -1.316547210301241E2  -1.048733933346064E1   1.302535087035874E2  
 2.640005040000000E9    -3.070999660789933E1   7.116000532173037E1  -3.351213824397789E1  -1.514351580152190E2  -4.036652178550131E1  -1.443497218032389E2  -1.669849698168742E1   1.342188722388749E2  
 2.670004995000000E9    -2.364446879378767E1  -1.704820323982070E2  -3.073183080729174E1  -8.689747659653114E1  -4.655113917902731E1   1.776758887796340E2  -1.968067823615110E1   1.424783821630000E2  
 2.700004950000000E9    -1.440322660009238E1  -9.403260934031080E1  -3.101219726053807E1   9.823508562428201E1  -4.043564388519766E1   1.697331499714985E2  -2.500851394387257E1   1.515300019687214E2  
 2.730004905000000E9    -1.310383901178945E1  -6.928494601549002E1  -3.013490708149392E1  -1.377036330986549E1  -4.472508303291111E1  -1.387331859071099E1  -1.640858821309936E1   1.099300684359862E2  
 2.760004860000000E9    -1.536666815388687E1  -4.346406277266723E1  -4.007092912610754E1   1.644053603586569E2  -3.957357916736765E1   4.368821809997229E1  -1.125302178574196E1   1.265837578219776E2  
 2.790004815000000E9    -1.996925052312685E1  -1.364788480357577E1  -3.738291504613463E1  -1.079108877009298E1  -4.775761586876396E1   4.195399304720004E1  -1.024343441996604E1   1.312189205220182E2  
 2.820004770000000E9    -3.084624028496749E1   2.439556670032216E1  -4.686033846822782E1  -1.180606865208741E2  -3.941892746893407E1   1.759045947262927E2  -1.103383217873903E1   1.399774587212974E2  
 2.850004725000000E9    -2.878820466184832E1   1.757102806799800E2  -3.458496386399659E1   1.547981833245839E2  -4.447608807576269E1   1.514226762027566E2  -1.533576938975665E1   1.696748705833058E2  
 2.880004680000000E9    -1.551265434383606E1  -1.018089285499024E2  -4.357227217155880E1  -1.356243031909183E2  -4.774429850301509E1   4.276390906807512E1  -1.584417416495482E1   1.605933546664726E2  
