#  HZ   S   DB   R     50.0 
! Rohde & Schwarz ZVL13 2Ports - Version 3.20 - 1303.6509k13 SN: 100953
! Date: 2024-10-09 07:56:49
! Data & Calibration Information:
! Trc1:S11(Cal Off) Trc4:S21(Cal Off) Trc2:S12(Cal Off) Trc3:S22(Cal Off)
! 
! 
! 
 9.000000000000000E3    -2.608565472318475E1  -3.303750887126631E1  -6.658685295484834E1  -3.543952430534501E1  -6.894628370778560E1  -1.511316359800474E2  -2.040351268721659E1  -1.400505632768306E1  
 3.000895500000000E7    -2.304110512036355E1  -1.179513083902569E2  -6.264955214459219E1   1.325845192313150E2  -7.542379065174143E1   5.054404234554004E1  -1.880862143065705E1  -1.174409726443434E2  
 6.000891000000000E7    -2.328357250202559E1   1.121917808316506E2  -6.920437782961676E1  -4.036824263851157E1  -7.363809035267070E1  -8.743533203926502E1  -1.881267972629638E1   1.182834266949337E2  
 9.000886500000000E7    -1.992271265517792E1   4.834027595597274  -6.161110150292866E1  -7.851458001935104E1  -5.530976331519533E1   1.025748938741012E1  -1.783142266166088E1   2.431416273302888  
 1.200088200000000E8    -2.137948388573465E1  -9.641499121119273E1  -6.844683461371312E1  -9.999500151527610E1  -6.625897746413374E1   3.786637007157460E1  -1.768535964804608E1  -1.000886391931469E2  
 1.500087750000000E8    -2.128805999244092E1   1.431172216239611E2  -6.315149821852364E1  -1.515322859767300E2  -6.420848514927180E1  -1.709323740331457E2  -1.919479688849973E1   1.425987624598417E2  
 1.800087300000000E8    -2.260074837502150E1   3.950144710337080E1  -6.178518613548477E1   5.950258022592608E1  -6.217473240787519E1   9.054173569756711E1  -1.843478528311498E1   2.342924520143887E1  
 2.100086850000000E8    -2.449602407646243E1  -9.306645456013841E1  -6.426635299675614E1   7.964328011154764E1  -7.002031081231570E1  -1.746970977466810E2  -1.982479655653030E1  -9.697919038794058E1  
 2.400086400000000E8    -2.332326200095679E1   1.425604630576707E2  -6.074555048591784E1   3.910748727322371E1  -7.651548799605651E1   1.567416711675776E2  -1.800711298828674E1   1.387762241884489E2  
 2.700085950000000E8    -2.121271172497446E1   2.202473929476645E1  -6.221802503383353E1  -6.069254595443804  -6.861395269341897E1   1.974636387760530E1  -1.729141997982891E1   3.162459488624894E1  
 3.000085500000000E8    -1.826124358826925E1  -7.588342415882605E1  -5.923903936151548E1   1.760664176672544E2  -6.291844116821720E1  -1.166405943718695E2  -1.699252926071183E1  -8.620152404562741E1  
 3.300085050000000E8    -1.995723630012494E1  -1.737547365855205E2  -6.006146586010352E1  -1.458608460215334E2  -7.268259395941085E1  -8.137837672001561E1  -1.711580309606032E1   1.701330569139467E2  
 3.600084600000000E8    -2.001094597236007E1   6.238558667478345E1  -5.706437610433794E1  -1.564227370337244E2  -6.566281227146304E1  -9.917590735298111E1  -1.892283892290343E1   5.218742840689294E1  
 3.900084150000000E8    -2.063815813534227E1  -3.470525985091096E1  -6.204977630461586E1   1.850607249024625E1  -6.598393190112252E1   8.562941199923282E1  -1.732016638561959E1  -7.344989560056304E1  
 4.200083700000000E8    -2.512226497997615E1   1.702036985687420E2  -5.828657100565464E1  -1.286253231681828E2  -6.514874609302758E1   3.948205647392097E1  -1.808704758888994E1  -1.786159693892590E2  
 4.500083250000000E8    -1.881291497912747E1   5.832117025228446E1  -6.537756777170263E1  -1.078212923047325E2  -6.146071896701573E1  -1.266987242772379E2  -1.819079683647419E1   5.175368852019456E1  
 4.800082800000000E8    -1.851760341059194E1  -4.527827591449726E1  -6.974531654574361E1   1.084835991298126E2  -6.889570540451916E1  -6.042030493315714E1  -1.533224880877764E1  -5.390893345778992E1  
 5.100082350000000E8    -1.607509083800965E1  -1.488386321665597E2  -6.451123533372999E1   1.240251382637471E2  -6.874723187101061E1  -1.658860847687012E2  -1.676664919410507E1  -1.548849639110664E2  
 5.400081900000000E8    -1.833881566582640E1   1.213654560751298E2  -7.014762023578243E1  -1.556873643056955E2  -7.117353813567439E1   5.310210959647984E1  -1.684777613909010E1   8.310858873203152E1  
 5.700081450000000E8    -2.106815862704696E1  -8.396697069530832  -6.215797246296170E1   9.984329802413195E1  -5.903024483520925E1  -6.334593562042358E1  -1.721866505701850E1  -2.407621257441674E1  
 6.000081000000000E8    -2.158887815711648E1  -1.156512222371764E2  -6.193888347186070E1  -8.562928773897475E1  -6.098046062629141E1  -1.264574446829333E1  -1.866666488769520E1  -1.461476124495765E2  
 6.300080550000000E8    -2.217903971655346E1   8.531934052373667E1  -6.641456389991369E1   1.082872454970821E2  -6.643692567570521E1   1.165107420245872E2  -1.636780841930010E1   9.537277855917350E1  
 6.600080100000000E8    -1.605564753831958E1  -9.976246889715219  -6.259884407769847E1   1.526347664321833E2  -6.057933843278057E1   6.824001515924134E1  -1.712869196138531E1  -1.235397190775563E1  
 6.900079650000000E8    -1.596819515525087E1  -9.899839054157215E1  -6.306524383596515E1  -4.797476181650877E1  -5.643239715112038E1  -1.488366379000078E2  -1.549552802559072E1  -1.294064096502677E2  
 7.200079200000000E8    -1.618594452199204E1   1.512234244440267E2  -6.240978916593936E1   6.445632956229801E1  -6.341015136474330E1  -1.713681708650954E2  -1.510075979573574E1   1.378704582367812E2  
 7.500078750000000E8    -1.715233104375923E1   5.904191401824605E1  -6.316261409864811E1  -5.906787005958458E1  -6.372083369570942E1   7.548639844452237E1  -1.789326573185487E1   2.382541574244453E1  
 7.800078300000000E8    -2.084409046143686E1  -7.939964535008041E1  -5.907311110307771E1   3.732167238025121E1  -6.743686460917563E1   7.578285585485841E1  -1.686064819086200E1  -9.775848958284705E1  
 8.100077850000000E8    -1.839460024859589E1   1.634893537323945E2  -6.807308663178073E1  -5.931163507041342E1  -6.567092235883337E1  -1.374891333007987E2  -1.735295809329702E1   1.573612984914672E2  
 8.400077400000000E8    -1.774458460324697E1   4.174998053898083E1  -6.005111076248414E1   1.594515132159936E2  -7.916421975309551E1   1.613910259613060E2  -1.791403069459678E1   2.910195064775392E1  
 8.700076950000000E8    -1.403211361418111E1  -6.622976405878636E1  -7.735295226619422E1  -3.471657486785183E1  -6.484538028493820E1   1.096909112411425E2  -1.508573628886362E1  -7.435937451029092E1  
 9.000076500000000E8    -1.389503668573768E1  -1.507979486623766E2  -6.751208936124405E1   1.378353590548439E2  -6.220107348422438E1  -1.974474549618522E1  -1.691674951516743E1  -1.719645722031674E2  
 9.300076050000000E8    -1.623416389140597E1   9.959629425405306E1  -5.999941833425508E1   1.512718806134740E2  -6.098906120713981E1   1.178634198586761E2  -1.656782510271777E1   6.626825658898829E1  
 9.600075600000000E8    -1.736482229271415E1  -1.146949825960276E1  -7.104361426921872E1   2.933474377208589E1  -5.786144083236037E1  -3.184295977077671E1  -1.731410743993623E1  -3.585429110867752E1  
 9.900075150000000E8    -1.964937147062643E1  -1.442168205127848E2  -6.482333288104070E1  -6.269297314058063E1  -5.931053672521924E1   2.992673862905283E1  -1.842958727513771E1  -1.518152424407201E2  
 1.020007470000000E9    -1.512683895050879E1   9.607261398680539E1  -5.718266872018143E1   1.514611827936733E2  -5.407584180615882E1   1.744264161616527E2  -1.694927815339826E1   9.237825990960864E1  
 1.050007425000000E9    -1.470528943717432E1  -4.140245701544732  -5.891060714947929E1   9.031770746438393E1  -6.009522302143123E1   8.329966604020402E1  -1.691427915374365E1  -1.158232899424486E1  
 1.080007380000000E9    -1.321808709597464E1  -1.141941128659586E2  -7.249764471803091E1   1.167995476134016E2  -6.110386841780615E1   1.319445326740757E2  -1.624941926922041E1  -1.239750076281222E2  
 1.110007335000000E9    -1.362749527358341E1   1.532852994738588E2  -7.126227303270726E1   1.258235282258973E2  -6.005518163048377E1   1.693255269686558E2  -1.527104096770535E1   1.394956706374869E2  
 1.140007290000000E9    -1.630327419424585E1   4.660127337567725E1  -5.799817217411273E1   8.790530899161672  -6.985744744903568E1   1.483977742233381E-1  -1.775102429455875E1   3.405497518990533E1  
 1.170007245000000E9    -1.738501226804766E1  -8.584120993272974E1  -6.061401562000565E1  -7.624264915775659E1  -6.122038683868720E1   1.235648499081892E2  -1.734517787211639E1  -9.317628919860222E1  
 1.200007200000000E9    -1.539202592044574E1   1.528047518170530E2  -5.732584733713494E1  -1.766961091226094E2  -5.672029565811670E1  -9.823073897948468E1  -1.623317738951886E1   1.657676813882673E2  
 1.230007155000000E9    -1.332739791832997E1   4.188216833043665E1  -6.422778947341232E1  -7.158065528065463E1  -5.894950473949356E1   1.588771291858853E2  -1.725160869067453E1   5.397890245329599E1  
 1.260007110000000E9    -1.234694498395594E1  -5.503222617917914E1  -5.679187217483678E1  -1.622432249087518E2  -6.597976488008990E1  -4.081313818756015E1  -1.540550818125820E1  -6.134170499686636E1  
 1.290007065000000E9    -1.220883561663727E1  -1.588196592716251E2  -5.880666616356618E1  -1.549512672076859E2  -5.524240649692570E1  -2.369252016376095E1  -1.486045323701350E1  -1.560365590567606E2  
 1.320007020000000E9    -1.385688405366227E1   9.573217647300709E1  -6.139664701459585E1   9.788952049794995E1  -7.887931341107748E1   6.664321791755135E1  -1.629753376940327E1   9.701006778054999E1  
 1.350006975000000E9    -1.477349273486446E1  -1.794328800079034E1  -6.377931848427766E1  -5.692897748318331E1  -6.784860446629637E1   7.531437634680154E1  -1.579383876058309E1  -2.254180505908417E1  
 1.380006930000000E9    -1.544347046232882E1  -1.487353035469073E2  -6.247326435442150E1   7.233552756675738E1  -7.825786739036718E1  -4.917080293896430E1  -1.544544097486031E1  -1.298335617791681E2  
 1.410006885000000E9    -1.251435637326862E1   9.819021402435057E1  -5.566536861568966E1  -1.593062414097503E2  -5.864878252409140E1   1.429300154073594E2  -1.475239726239429E1   1.161468514308137E2  
 1.440006840000000E9    -1.155693244037841E1  -2.720360074158570  -6.197919069647034E1   1.491807872989394E1  -5.381068096297188E1   1.920849791350454E1  -1.358111095476147E1   9.696586532231526  
 1.470006795000000E9    -1.144194273754409E1  -1.108179401247473E2  -6.576651612138551E1  -3.429859584273821  -5.333228854786575E1  -1.135044307430322E2  -1.306393947885966E1  -9.579536836020063E1  
 1.500006750000000E9    -1.117164256804688E1   1.490919372457665E2  -6.136907301831091E1  -1.772926354742895E2  -6.879460211668737E1   1.523673329606327E2  -1.279703539422962E1   1.556874672470898E2  
 1.530006705000000E9    -1.392887404858139E1   3.795381239901671E1  -5.054494371180725E1   6.259292262480761E1  -5.376644352916640E1  -1.441298596160679E1  -1.229631542748605E1   4.879768408044399E1  
 1.560006660000000E9    -1.297726778150986E1  -8.682156943769695E1  -5.693578020056603E1  -1.094358546158090E2  -6.422830318388624E1  -7.481788017584283E1  -1.361012659626922E1  -6.814602855103379E1  
 1.590006615000000E9    -1.210424047838167E1   1.570476295523880E2  -5.314239293101664E1   1.348725177245857E2  -6.034095717961948E1   6.715147235717500E1  -1.199093712134632E1   1.756890281758838E2  
 1.620006570000000E9    -1.086570036096281E1   4.546695914748676E1  -5.848029446066087E1   6.616772166906180  -5.717206148331855E1  -9.751611757301150  -1.107373149187860E1   7.189218688134884E1  
 1.650006525000000E9    -9.610893916191094  -5.232149514953250E1  -5.666489735539518E1  -3.897538555947828E1  -6.171713767590105E1  -7.325211754940389E1  -1.128591415312394E1  -4.282261271543720E1  
 1.680006480000000E9    -1.138061571408417E1  -1.612997392588775E2  -6.193423548265290E1   1.129114900572888E2  -6.066548533623314E1   3.550163501278229E1  -1.012037655151968E1  -1.507059268968100E2  
 1.710006435000000E9    -1.050282456809987E1   8.608009162312814E1  -6.004175668050215E1   3.979838342864716E1  -6.091736203757240E1   5.372076728048257E1  -1.002385880424108E1   1.059681213282326E2  
 1.740006390000000E9    -1.215041181856183E1  -2.458094872771915E1  -5.178885078603394E1  -6.332035988621828E1  -9.015230019622747E1  -5.193439310904563  -1.097840088629535E1  -1.453029102382350E1  
 1.770006345000000E9    -1.074817579155143E1  -1.566951725549500E2  -6.386462693938385E1   1.055716994517634E2  -5.840019803862739E1   1.397022653916394E2  -9.309334693108967  -1.266732217168884E2  
 1.800006300000000E9    -9.054104232177462   1.040145811216260E2  -6.237571249179698E1  -1.803742172509928E1  -7.013454324106363E1  -6.482069068961586E1  -9.642608374262213   1.251820591104032E2  
 1.830006255000000E9    -9.592875685150593  -4.602942846438629  -5.765767376645358E1  -2.238564275884649E1  -6.082634173693527E1   1.489473089199052E1  -8.908058513017897   1.090661993521078E1  
 1.860006210000000E9    -8.428675192035549  -1.080884095402771E2  -5.652364996436212E1  -1.768952138965597E2  -5.879909707553479E1  -4.412759858699579E1  -8.331173305936714  -9.444075858824743E1  
 1.890006165000000E9    -1.060076584767751E1   1.461252771865673E2  -5.282772048353893E1   5.593057414658573E1  -5.496246031847293E1   1.260026565535815E2  -9.348296381581587   1.515066619274342E2  
 1.920006120000000E9    -9.986626005764437   1.861303398284218E1  -5.830860466147946E1  -4.473675601697613E1  -5.940880925917327E1  -1.507926966836735E-1  -8.148605666932037   3.791640034636341E1  
 1.950006075000000E9    -9.899274576693815  -8.849821589483260E1  -5.997622976310684E1   7.481285805266180E1  -5.785586986043742E1   7.921343915817752  -8.563138977366416  -7.094229736926357E1  
 1.980006030000000E9    -9.511451295143095   1.447971494401110E2  -6.666830521185682E1   1.407360191656089E2  -6.885144904897477E1   4.499412047802983E1  -8.098854024725034   1.693520153118219E2  
 2.010005985000000E9    -7.180137496842038   5.025133077538974E1  -5.539954060305307E1   4.155386010720872E1  -5.571806156659935E1  -3.959885660306399E1  -7.013040114895650   6.469281192205655E1  
 2.040005940000000E9    -9.173117586564013  -5.126083546939616E1  -5.342131056227234E1   1.778260996926229E2  -6.803903438113935E1  -1.813368245186416E1  -8.112244919138918  -4.744018778529274E1  
 2.070005895000000E9    -8.538599838752710  -1.718820083634682E2  -5.978723853302076E1   8.616575436904782E1  -5.992894032927713E1  -9.886310342970857E1  -7.125811857767601  -1.647740139840521E2  
 2.100005850000000E9    -9.904879333696552   8.628898272245790E1  -6.147320832239917E1  -1.790401671029828E2  -6.844026345200624E1   1.416964594798716E2  -6.747393324566997   9.319335311984449E1  
 2.130005805000000E9    -1.004131904336014E1  -5.444939168954310E1  -5.888380420205554E1  -1.761840014821135E2  -5.604878996371448E1  -7.664652105850792E1  -7.635752762203480  -2.486567116390849E1  
 2.160005760000000E9    -7.971554422405614  -1.550051649135704E2  -5.599317166949977E1   6.148416021974066E1  -5.766544183158551E1   1.079968715201843E2  -6.175896549801659  -1.374639811854943E2  
 2.190005715000000E9    -8.812717557744980   9.340263596756603E1  -6.058759078260594E1   7.217582284595234E1  -6.386985824257415E1  -9.762782690495151E1  -6.917915305732024   1.200567559686706E2  
 2.220005670000000E9    -6.787767802593174  -1.014398651195071E1  -5.269722040100731E1  -1.411469105111192E2  -6.089359776208374E1  -1.361707823502498E2  -7.098861977194074  -9.150901302253236E-1  
 2.250005625000000E9    -8.521694348980628  -1.060697200398197E2  -5.693030745128980E1   4.800970127735634E1  -6.030911885428138E1   1.247064836994793E2  -6.033870456243259  -1.058393087477987E2  
 2.280005580000000E9    -9.095616721246241   1.174416742298153E2  -5.560476694534051E1   7.103514486441451  -5.477529627199457E1   4.241932788734485E1  -7.308475823365950   1.401384377824705E2  
 2.310005535000000E9    -8.226602651759890   1.432047993123874E1  -5.484698082191986E1   1.520561696160874E2  -5.823070276167940E1   1.680179878592147E2  -6.295146876036029   1.999679050781973E1  
 2.340005490000000E9    -9.274276873937838  -1.147734998650951E2  -5.645918849661437E1  -1.619077652900506E2  -6.804688808007364E1   1.676565682356530E2  -5.867057153597708  -8.189369800487791E1  
 2.370005445000000E9    -6.346949700419388   1.437122140202482E2  -7.153520176488092E1  -1.580173652630654E2  -7.337863879588497E1   8.906001330897620E1  -6.541912938725472   1.617833442933869E2  
 2.400005400000000E9    -7.259069556546529   5.086497018248825E1  -7.282855462804639E1   6.300701276002136  -7.037268891597550E1  -8.574042913241250E1  -5.415731183821948   5.443190491415253E1  
 2.430005355000000E9    -7.359686276390549  -6.615751445997786E1  -6.412180496808658E1  -8.158962141157961E1  -6.008095893236219E1  -1.678418225276558E2  -6.331220353662062  -5.044338616440679E1  
 2.460005310000000E9    -7.955743003130527  -1.659801636405305E2  -6.257259661196775E1   3.568082435358554E1  -5.432792228414883E1  -7.807563543583844E1  -6.586941794543796  -1.750190160093397E2  
 2.490005265000000E9    -1.038151431062012E1   5.668367808599250E1  -5.344997370773183E1  -3.328617031213788E1  -6.290760911399381E1   8.835893772885385E1  -5.514175024390110   8.031073337548887E1  
 2.520005220000000E9    -7.279306321932562  -5.880080988707945E1  -6.833133998052789E1   1.033979047205034E2  -5.216556628327270E1   9.664502084747845E1  -6.806709463964666  -3.401442818851022E1  
 2.550005175000000E9    -7.873080786596868  -1.636014515051733E2  -5.905544394359188E1  -1.242156162936718E2  -5.584439772371233E1   4.851670725336233E1  -5.690464689415941  -1.515784421307540E2  
 2.580005130000000E9    -6.491253881730983   8.430853563608486E1  -5.535707989190026E1  -1.056853840500076E2  -5.961883657083998E1  -4.708849487648228E1  -5.326704510522128   1.102784549288946E2  
 2.610005085000000E9    -6.201943217353343  -2.294019308816361  -6.203103904110164E1   4.344767468557073E1  -5.661234413797685E1  -1.772661299188656E2  -6.827430440179859  -9.108099426651561  
 2.640005040000000E9    -9.034287506310605  -1.183786333736466E2  -6.694572831831653E1   5.539779438828657E1  -6.157933722122122E1   1.452937712069262E2  -5.312636771630571  -1.211114123597380E2  
 2.670004995000000E9    -8.203957572553136   1.203924239963953E2  -5.588515856658363E1   3.642887806644392  -5.220040465673792E1   9.892092654406288E1  -6.010842526178057   1.384626058599101E2  
 2.700004950000000E9    -9.799578066131362  -3.536285217080566E-1  -6.128465410758598E1  -8.847889161705385E1  -5.389765059973881E1  -4.135263238156715E1  -6.824533993077560   1.048847099879175E1  
 2.730004905000000E9    -7.483574804430874  -1.272860258802113E2  -5.429401672270812E1   8.857011005899196E1  -5.770136515341252E1  -1.028359001520473E2  -4.979377414827270  -9.464868378257530E1  
 2.760004860000000E9    -6.204134022176759   1.452040883049291E2  -6.195879123282677E1   1.170675869073726E2  -5.786470110526502E1   3.647762922634105E1  -6.406254278744060   1.609576920090314E2  
 2.790004815000000E9    -7.567560656296599   3.930672855367406E1  -5.278085562150098E1  -7.230357471641732E1  -5.856281689838133E1   1.676817730857636E2  -6.139486946756323   3.942631871537054E1  
 2.820004770000000E9    -6.700865740943917  -6.556962874408984E1  -5.317145673803309E1   1.797785610943139E2  -5.255546940614102E1  -6.126046748587211E1  -5.169820703449671  -5.871826231842606E1  
 2.850004725000000E9    -9.272863449961310  -1.675229277648256E2  -5.220748477232547E1   1.273242974045704E2  -6.183623171764562E1   9.736363496776352  -7.498591365118839  -1.764863590142666E2  
 2.880004680000000E9    -9.943855378400397   4.251249603976108E1  -5.916499804537018E1  -6.042672934774152  -5.502487169151230E1   9.829293286698727E1  -5.648546907611294   6.659760935453768E1  
 2.910004635000000E9    -7.498390673619552  -6.157366478761666E1  -5.201391325014882E1   1.410961885296808E2  -6.312535846182599E1  -1.468723574103770E2  -5.990204307986232  -3.313836136744379E1  
