!Keysight Technologies N9916A: A.08.06
!Date: Thursday, 30 May 2024 20:11:26
!Timezone: (GMT+10:00) Brisbane
!Model: N9916A
!Serial: MY53102361
!GPS Latitude: 
!GPS Longitude: 
!GPS TimeStamp: 0001-01-01 00:00:00Z
!GPS Seconds Since Last Read: 0
!CHECKSUM:1727619499
!Correction: S11(Rdy)S21()S12()S22()
!S2P File: Measurements:S11,S21,S12,S22:
# Hz S RI R 50
30000	0.0871470891675751	0.0227628194726548	1	0	1	0	1	0	
30029850	0.0122210387118369	-0.0784117133581042	1	0	1	0	1	0	
60029700	-0.0746123531462391	-0.0744291610883071	1	0	1	0	1	0	
90029550	-0.110760162008165	0.00399009049898421	1	0	1	0	1	0	
120029400	-0.0563042338673548	0.0784030874164844	1	0	1	0	1	0	
150029250	0.036484462358676	0.0700040029148109	1	0	1	0	1	0	
180029100	0.073866799270085	-0.0120514171707513	1	0	1	0	1	0	
210028950	0.0217773018461781	-0.0775434584307666	1	0	1	0	1	0	
240028800	-0.0630882839178686	-0.0531922819872478	1	0	1	0	1	0	
270028650	-0.0831153490725877	0.0416963217081792	1	0	1	0	1	0	
300028500	-0.00853462576633487	0.113054672503642	1	0	1	0	1	0	
330028350	0.0878812025672178	0.0878015686391404	1	0	1	0	1	0	
360028200	0.11507593859863	-0.00578912109931463	1	0	1	0	1	0	
390028050	0.0414932707719729	-0.0698994378948682	1	0	1	0	1	0	
420027900	-0.0570534352468094	-0.0325229265763542	1	0	1	0	1	0	
450027750	-0.0766271383236012	0.0803575508071814	1	0	1	0	1	0	
480027600	0.00839271769180442	0.147786164071649	1	0	1	0	1	0	
510027450	0.115450597482669	0.110222585528467	1	0	1	0	1	0	
540027300	0.136955035859038	-0.00402540305718792	1	0	1	0	1	0	
570027150	0.0437616659290485	-0.0853692696268438	1	0	1	0	1	0	
600027000	-0.0744572726893169	-0.0488244084815436	1	0	1	0	1	0	
630026850	-0.107342754054154	0.0667520939693933	1	0	1	0	1	0	
660026700	-0.0133477551566622	0.148554588961785	1	0	1	0	1	0	
690026550	0.108428068298969	0.101774094561995	1	0	1	0	1	0	
720026400	0.139168083648321	-0.0236388867653168	1	0	1	0	1	0	
750026250	0.0446181075944835	-0.134168723828723	1	0	1	0	1	0	
780026100	-0.0893512480262099	-0.102281556271718	1	0	1	0	1	0	
810025950	-0.127964550783018	0.0320508002380083	1	0	1	0	1	0	
840025800	-0.0263955682540196	0.139812750550771	1	0	1	0	1	0	
870025650	0.124019270508812	0.112629441028123	1	0	1	0	1	0	
900025500	0.191066905445482	-0.0363054876697687	1	0	1	0	1	0	
930025350	0.106358876167058	-0.174200224747235	1	0	1	0	1	0	
960025200	-0.0524299395398189	-0.175451639987012	1	0	1	0	1	0	
990025050	-0.128631903777811	-0.0310274810812606	1	0	1	0	1	0	
1020024900	-0.045848020624851	0.119256432979787	1	0	1	0	1	0	
1050024750	0.123376351398755	0.126382367800999	1	0	1	0	1	0	
1080024600	0.227611333782582	-0.0126351253749473	1	0	1	0	1	0	
1110024450	0.153016035927399	-0.18030927293619	1	0	1	0	1	0	
1140024300	-0.0343915529716925	-0.204919863439548	1	0	1	0	1	0	
1170024150	-0.170546266156953	-0.0509457818634572	1	0	1	0	1	0	
1200024000	-0.115428779505959	0.137442165776512	1	0	1	0	1	0	
1230023850	0.0812968406516121	0.209465023217062	1	0	1	0	1	0	
1260023700	0.232942190961678	0.0641205353378809	1	0	1	0	1	0	
1290023550	0.206502435491142	-0.146889998716551	1	0	1	0	1	0	
1320023400	-0.00566988800045844	-0.244632077566337	1	0	1	0	1	0	
1350023250	-0.19942062210115	-0.124052808805846	1	0	1	0	1	0	
1380023100	-0.211465409255665	0.10758346465798	1	0	1	0	1	0	
1410022950	-0.00403228964065655	0.237195445205834	1	0	1	0	1	0	
1440022800	0.206419256866466	0.101715861396873	1	0	1	0	1	0	
1470022650	0.224776917406499	-0.143960147737434	1	0	1	0	1	0	
1500022500	0.0105932997049165	-0.302124373963585	1	0	1	0	1	0	
1530022350	-0.243847009248514	-0.220616447689051	1	0	1	0	1	0	
1560022200	-0.311583653768675	0.0494699422417313	1	0	1	0	1	0	
1590022050	-0.106494722335893	0.246952365544333	1	0	1	0	1	0	
1620021900	0.189366339635322	0.167588819064772	1	0	1	0	1	0	
1650021750	0.264634267462627	-0.11784117221206	1	0	1	0	1	0	
1680021600	0.0573844474470259	-0.350728462610013	1	0	1	0	1	0	
1710021450	-0.240011913288183	-0.285417281529221	1	0	1	0	1	0	
1740021300	-0.370591596931721	0.00256577618234472	1	0	1	0	1	0	
1770021150	-0.190154577675621	0.284396239396958	1	0	1	0	1	0	
1800021000	0.170993147186724	0.295548265207313	1	0	1	0	1	0	
1830020850	0.350546746149473	-0.0135342440302479	1	0	1	0	1	0	
1860020700	0.174548318342844	-0.332457053876614	1	0	1	0	1	0	
1890020550	-0.182717062837842	-0.335245573160148	1	0	1	0	1	0	
1920020400	-0.388537479029404	-0.0240398189339197	1	0	1	0	1	0	
1950020250	-0.255050204865246	0.313877431493463	1	0	1	0	1	0	
1980020100	0.114573977577647	0.385045431319224	1	0	1	0	1	0	
2010019950	0.379934040732215	0.0945900553057718	1	0	1	0	1	0	
2040019800	0.238907465765121	-0.28462368365493	1	0	1	0	1	0	
2070019650	-0.166550554153851	-0.352973586006864	1	0	1	0	1	0	
2100019500	-0.431278991069469	-0.0657064130251898	1	0	1	0	1	0	
2130019350	-0.342349046437701	0.314165647461028	1	0	1	0	1	0	
2160019200	0.0329724128334888	0.467205021024873	1	0	1	0	1	0	
2190019050	0.375682183033711	0.207338695693187	1	0	1	0	1	0	
2220018900	0.318242484633881	-0.242568712524092	1	0	1	0	1	0	
2250018750	-0.100748068348004	-0.414151399049995	1	0	1	0	1	0	
2280018600	-0.441412412167447	-0.152905809922568	1	0	1	0	1	0	
2310018450	-0.42448688564702	0.265262874524349	1	0	1	0	1	0	
2340018300	-0.0655139749558823	0.494166752479036	1	0	1	0	1	0	
2370018150	0.35206350764663	0.311197067681981	1	0	1	0	1	0	
2400018000	0.420348907201891	-0.161026901780517	1	0	1	0	1	0	
2430017850	0.0332766428450622	-0.443549508993579	1	0	1	0	1	0	
2460017700	-0.384932377672187	-0.243671156341118	1	0	1	0	1	0	
2490017550	-0.448337122051187	0.194784901353819	1	0	1	0	1	0	
2520017400	-0.109476525479573	0.496398275805514	1	0	1	0	1	0	
2550017250	0.337409516457484	0.3958635922581	1	0	1	0	1	0	
2580017100	0.507520784455873	-0.0563538089390018	1	0	1	0	1	0	
2610016950	0.184621129626862	-0.430977697456155	1	0	1	0	1	0	
2640016800	-0.299326224808701	-0.332968642779195	1	0	1	0	1	0	
2670016650	-0.455716770843021	0.130450582833823	1	0	1	0	1	0	
2700016500	-0.171998375289866	0.498169173495811	1	0	1	0	1	0	
2730016350	0.290002022651499	0.478650597336775	1	0	1	0	1	0	
2760016200	0.539323977047852	0.0761974599076808	1	0	1	0	1	0	
2790016050	0.321727058177371	-0.365295972317762	1	0	1	0	1	0	
2820015900	-0.186267372983615	-0.395393019427417	1	0	1	0	1	0	
2850015750	-0.463505171275162	0.0254582442890305	1	0	1	0	1	0	
2880015600	-0.252612436452796	0.458631670462298	1	0	1	0	1	0	
2910015450	0.208972310317913	0.518082364659958	1	0	1	0	1	0	
2940015300	0.522275622184053	0.169721439412717	1	0	1	0	1	0	
2970015150	0.409501566881202	-0.301840878983918	1	0	1	0	1	0	
3000015000	-0.0618105434167456	-0.459532428552133	1	0	1	0	1	0	
3030014850	-0.439495753272464	-0.129854351949081	1	0	1	0	1	0	
3060014700	-0.342732356158217	0.346849052037795	1	0	1	0	1	0	
3090014550	0.094969211435722	0.513472896760155	1	0	1	0	1	0	
3120014400	0.476989645489704	0.248272814763494	1	0	1	0	1	0	
3150014250	0.484712152928677	-0.220563592153484	1	0	1	0	1	0	
3180014100	0.092259180887394	-0.486784549921864	1	0	1	0	1	0	
3210013950	-0.343929330377926	-0.280858330733357	1	0	1	0	1	0	
3240013800	-0.380316346956555	0.201772631197694	1	0	1	0	1	0	
3270013650	-0.00464367535524374	0.472180565250788	1	0	1	0	1	0	
3300013500	0.432153425899561	0.307227208981466	1	0	1	0	1	0	
3330013350	0.541123154645643	-0.125857995253247	1	0	1	0	1	0	
3360013200	0.253025286245947	-0.462288092480917	1	0	1	0	1	0	
3390013050	-0.193350357740459	-0.413984095035097	1	0	1	0	1	0	
3420012900	-0.396766014547767	0.0118908412098189	1	0	1	0	1	0	
3450012750	-0.128281882767026	0.401648054059888	1	0	1	0	1	0	
3480012600	0.328190848925222	0.371126959882995	1	0	1	0	1	0	
3510012450	0.539325877508691	-0.0122783879541623	1	0	1	0	1	0	
3540012300	0.35247851730136	-0.392398427372579	1	0	1	0	1	0	
3570012150	-0.0732505228113655	-0.473308921659067	1	0	1	0	1	0	
3600012000	-0.388687939365524	-0.16869284565506	1	0	1	0	1	0	
3630011850	-0.292890730127992	0.283889866913896	1	0	1	0	1	0	
3660011700	0.149299962346758	0.421105214386433	1	0	1	0	1	0	
3690011550	0.484397235693585	0.126574494852576	1	0	1	0	1	0	
3720011400	0.426223000139223	-0.297999419316972	1	0	1	0	1	0	
3750011250	0.0342215735817526	-0.513541771738771	1	0	1	0	1	0	
3780011100	-0.368203655823296	-0.319278819358442	1	0	1	0	1	0	
3810010950	-0.436058909892257	0.142731805518348	1	0	1	0	1	0	
3840010800	-0.0688268733570532	0.452259558400229	1	0	1	0	1	0	
3870010650	0.392367414804473	0.282264727645831	1	0	1	0	1	0	
3900010500	0.490923273199105	-0.187133582745072	1	0	1	0	1	0	
3930010350	0.168832074301851	-0.525558564811636	1	0	1	0	1	0	
3960010200	-0.285777680256299	-0.463630323143501	1	0	1	0	1	0	
3990010050	-0.499353406946197	-0.0400147486033688	1	0	1	0	1	0	
4020009900	-0.24944387444107	0.392642982514144	1	0	1	0	1	0	
4050009750	0.278254081945863	0.389397598459344	1	0	1	0	1	0	
4080009600	0.525434994789713	-0.0795243494309537	1	0	1	0	1	0	
4110009450	0.25358561159587	-0.507164733758226	1	0	1	0	1	0	
4140009300	-0.224479064594136	-0.530927199058027	1	0	1	0	1	0	
4170009150	-0.532088348263671	-0.166923610843063	1	0	1	0	1	0	
4200009000	-0.412666737690092	0.331541356501454	1	0	1	0	1	0	
4230008850	0.122176807027318	0.501815199694579	1	0	1	0	1	0	
4260008700	0.535561148859269	0.0889356947856335	1	0	1	0	1	0	
4290008550	0.394924709832671	-0.441137705671125	1	0	1	0	1	0	
4320008400	-0.116270566087001	-0.592660017232461	1	0	1	0	1	0	
4350008250	-0.526113298690832	-0.290339374456749	1	0	1	0	1	0	
4380008100	-0.532413214702279	0.24414117343998	1	0	1	0	1	0	
4410007950	-0.0530963674362582	0.572384574138856	1	0	1	0	1	0	
4440007800	0.494221958205874	0.292394534621649	1	0	1	0	1	0	
4470007650	0.496551634906997	-0.315347524965202	1	0	1	0	1	0	
4500007500	0.00396127482487633	-0.610663360562672	1	0	1	0	1	0	
4530007350	-0.495899499777533	-0.375740334736921	1	0	1	0	1	0	
4560007200	-0.59809549066555	0.166263855231069	1	0	1	0	1	0	
4590007050	-0.194966258383697	0.571245405289241	1	0	1	0	1	0	
4620006900	0.392665971516591	0.442743798543833	1	0	1	0	1	0	
4650006750	0.578783072926194	-0.150565574669824	1	0	1	0	1	0	
4680006600	0.154182150617049	-0.591113593971874	1	0	1	0	1	0	
4710006450	-0.426597690918657	-0.459753341474124	1	0	1	0	1	0	
4740006300	-0.630810198237459	0.0825649442264964	1	0	1	0	1	0	
4770006150	-0.328267079744524	0.562724429940793	1	0	1	0	1	0	
4800006000	0.26283337190533	0.603254538160092	1	0	1	0	1	0	
4830005850	0.638828562092449	0.0666809850363567	1	0	1	0	1	0	
4860005700	0.315168772368282	-0.536517146313013	1	0	1	0	1	0	
4890005550	-0.335556828813654	-0.530844711596111	1	0	1	0	1	0	
4920005400	-0.658184230105037	-0.027358034016247	1	0	1	0	1	0	
4950005250	-0.453457588528044	0.51143896857949	1	0	1	0	1	0	
4980005100	0.131813118837826	0.660941146283849	1	0	1	0	1	0	
5010004950	0.595581082271394	0.200454242384802	1	0	1	0	1	0	
5040004800	0.410152304678711	-0.452169185141851	1	0	1	0	1	0	
5070004650	-0.222767991909431	-0.595870606959404	1	0	1	0	1	0	
5100004500	-0.644431602954812	-0.146154657887124	1	0	1	0	1	0	
5130004350	-0.517182129130096	0.434509989536079	1	0	1	0	1	0	
5160004200	0.0498069172540517	0.671139339792493	1	0	1	0	1	0	
5190004050	0.576858978085634	0.316414680675698	1	0	1	0	1	0	
5220003900	0.570396351694745	-0.3108982065353	1	0	1	0	1	0	
5250003750	0.00960915197685971	-0.642234206812728	1	0	1	0	1	0	
5280003600	-0.553064790947444	-0.318016376320996	1	0	1	0	1	0	
5310003450	-0.548856322363706	0.33008887245064	1	0	1	0	1	0	
5340003300	-0.0101182452817022	0.656946437017673	1	0	1	0	1	0	
5370003150	0.549320042526611	0.409715640164195	1	0	1	0	1	0	
5400003000	0.665806054776701	-0.197066240008169	1	0	1	0	1	0	
5430002850	0.193813693413458	-0.645831443375011	1	0	1	0	1	0	
5460002700	-0.467985313215494	-0.441347591281485	1	0	1	0	1	0	
5490002550	-0.601399982801607	0.242892004002931	1	0	1	0	1	0	
5520002400	-0.116604138696624	0.676982675656524	1	0	1	0	1	0	
5550002250	0.487347458183485	0.535177265247741	1	0	1	0	1	0	
5580002100	0.726816481884664	-0.0526926743315136	1	0	1	0	1	0	
5610001950	0.315277223866191	-0.601919987209992	1	0	1	0	1	0	
5640001800	-0.405707775006221	-0.480733435742911	1	0	1	0	1	0	
5670001650	-0.616673663497178	0.203272471076328	1	0	1	0	1	0	
5700001500	-0.165591600552885	0.673459506591204	1	0	1	0	1	0	
5730001350	0.433627319783872	0.548239340227497	1	0	1	0	1	0	
5760001200	0.658720501787565	-0.0143871588454416	1	0	1	0	1	0	
5790001050	0.32169004160429	-0.516650237287145	1	0	1	0	1	0	
5820000900	-0.286389781515122	-0.497332503698194	1	0	1	0	1	0	
5850000750	-0.549013320157444	0.0153609107896902	1	0	1	0	1	0	
5880000600	-0.266706403246859	0.477604708179265	1	0	1	0	1	0	
5910000450	0.278268137292047	0.488271101970589	1	0	1	0	1	0	
5940000300	0.584580317638933	0.0326721316581334	1	0	1	0	1	0	
5970000150	0.380102783189849	-0.471512422890076	1	0	1	0	1	0	
6000000000	-0.160701554354191	-0.574100565280924	1	0	1	0	1	0	
