!Keysight Technologies N9916A: A.08.06
!Date: Thursday, 30 May 2024 20:19:17
!Timezone: (GMT+10:00) Brisbane
!Model: N9916A
!Serial: MY53102361
!GPS Latitude: 
!GPS Longitude: 
!GPS TimeStamp: 0001-01-01 00:00:00Z
!GPS Seconds Since Last Read: 0
!CHECKSUM:1001456627
!Correction: S11(ON U)S21(ON U)S12(ON U)S22(ON U)
!S2P File: Measurements:S11,S21,S12,S22:
# Hz S RI R 50
30000	0.010609525319989	-0.00717063027405781	-0.00521353827982233	-0.00731292264485724	0.00396014264760304	0.00603314315237125	0.0177486911208712	-0.0178734614484187	
30029850	-0.00050202878359598	0.00548263790358208	0.000117611282379335	0.000272304756984998	-0.00122547039468327	0.000123267811626161	0.00147370252957453	0.00594365070712367	
60029700	-0.00617666467975431	0.00366784495630691	0.000703487710609803	-0.00032828633160949	-0.000152404676578965	0.0010017919507569	-0.00685710033139253	0.0036775466495279	
90029550	-0.00614015730735	-0.00617550590884436	-0.00054791306114525	0.000750139134540192	0.00169642724234365	0.000195076580380333	-0.00595009765706531	-0.00544787731668291	
120029400	0.00379641078193418	-0.00371199172767197	-0.0009613238795693	0.00111032547492235	6.01697011080257E-05	-0.000602823725293528	0.00232980173972194	-0.00535614407948329	
150029250	0.00405140517426157	0.00389163904928778	-0.000930503221968413	0.000261345497211289	-0.00128435513981101	-0.000163701200767963	0.00540939431819796	0.00139813338630337	
180029100	-0.00308783734577951	0.0072456135835298	0.00178493640769388	0.000227055164133115	-0.000420788834073756	0.000104504556117882	-0.003036487554916	0.00694216914321736	
210028950	-0.0077476734659642	-0.000901200130909713	0.000418993387202261	0.000782998672317228	0.000395790372978818	0.000257657866599718	-0.00729565113735164	0.0016439464221255	
240028800	-0.0043394707184127	-0.00496700812889364	-0.000846700899080727	0.00127111221066739	0.000962933132693213	-0.000191166114195964	-0.00443207578929755	-0.00533873542474826	
270028650	0.00439197095342406	-0.00367780059788097	-0.00147323807028763	0.000363555372136406	0.000505133493761283	0.000595612067840061	0.00443613115997226	-0.00368917595965854	
300028500	0.00460078949388898	0.00196266826698542	-0.000217694340949461	0.00195089061397126	-0.000634320263882903	0.00146391128258191	0.00412785349687248	0.00254548967238007	
330028350	-0.0049650731280777	0.00522729729522717	0.000603097077496237	0.00156073036064116	2.04945970131858E-05	-0.00108003423500567	-0.00440892698813463	0.00752028325237206	
360028200	-0.00784682144654931	-0.00303896655092286	0.000674255372068775	0.000673964019546141	-0.0009965610820114	0.00020704872631851	-0.012500877932515	0.001067649213284	
390028050	8.44643350705292E-05	-0.00586976834338274	-0.000646799979105724	-0.00139802700082569	0.000158887546499934	-0.000958809950679965	-0.00292251149384495	-0.00795175789763206	
420027900	0.0050487715708424	-0.00433175393724582	0.000340272918005855	-0.0017606551266485	-4.48551998995908E-05	-0.00181104036781089	0.0037091923086527	-0.00244524784546827	
450027750	0.00177059395339539	0.00633618699147234	0.000169396049840291	0.000236792982760179	0.000690878498767513	0.00137122979078661	0.00629986605638051	0.00477947598098369	
480027600	-0.00757299851783899	0.00454508494165577	0.000411127129465531	0.000126174239613742	-0.000761252402221615	0.000406292753686119	-0.00034148446437424	0.00862921009038015	
510027450	-0.00724248647689978	-0.000705938096910889	0.0011468450840721	-0.00122558766728918	-0.0012587348832158	-0.000474983813917629	-0.00947866350579948	-0.000579984522665833	
540027300	-6.31058074622096E-05	-0.00745039800621988	-0.000562614429363071	0.000174566447912084	-0.000118063058729901	0.000381231889922387	-0.004579450250543	-0.00758507280854949	
570027150	0.00430958415452999	-0.00128450178835293	-0.00105241446382391	-1.00320794301869E-05	-0.00101829230514109	0.00112952054878137	0.00441737749575177	-0.00695062754241137	
600027000	0.000512044491368385	0.00730437680452403	0.00130319764581303	0.000787530349224623	0.000779725445572781	0.000866605349245275	-0.00063570990392444	0.0146966913563461	
630026850	-0.00730618936508056	0.00484985324914149	0.00260012889183059	-8.07090277771226E-05	0.00116047143370911	-0.000156593945116831	-0.00696747411013734	0.0083305728108276	
660026700	-0.00530938005786663	-0.00449492300066737	0.000227783460402197	0.00066686361799386	7.4851397626479E-05	0.00119971459105477	-0.0102107118674511	-0.000972434636360367	
690026550	0.00211301437117467	-0.00688312528525166	-0.000915142945200507	-0.000252659062759058	-8.73442256559548E-05	0.00124447954698223	-0.00511223370533618	-0.00778128259874312	
720026400	0.0054492178157338	-0.00249127844185792	8.52525670899157E-06	-0.000959640631796418	0.000476694872534143	-0.000146600178922164	0.00528909081489873	-0.00393700987174126	
750026250	-0.00221173485418224	0.00820927609343369	0.00023453135559548	9.58197676649905E-05	3.85641544392542E-05	1.24029104239968E-05	0.00335244976786445	0.00610027861111257	
780026100	-0.00925818287397384	0.00342913980372842	-0.00302126778475888	-0.000536591799241118	0.00149016141614413	0.00105690609282588	-0.00614205086959825	0.00571310603807039	
810025950	-0.0074392680457026	-0.00605444263609436	-0.000732013090762404	0.00220644463968289	0.000479248967134153	0.000128483173965142	-0.00884644752247718	-0.00328103549796825	
840025800	0.00256127434987858	-0.00336744969914588	-4.55769087443058E-05	0.000521690691965264	0.000592771949403917	0.00182522486734504	-0.00225759283207523	-0.00823297398729318	
870025650	0.00404362078402463	0.00429966032544158	-0.00137421561087674	0.000928948424505828	0.000396177620827578	0.000155180094172427	0.00563962739571855	-0.003835610178033	
900025500	-0.0046956969384577	0.00707090564038464	-0.000109753476760586	0.000278670205476749	-0.000974320591501785	-8.92206638113276E-05	0.003855856760604	0.00288756032981556	
930025350	-0.0104672763270749	0.00120162874501634	0.00039602699694117	0.000805743195971011	-0.000133336933369666	-0.00076218100200653	-0.00661104226917123	0.00691027602026118	
960025200	-0.00414897671672654	-0.00733600890706354	5.69446685648567E-05	0.000139392310152549	-0.000492963032231201	-0.000484241421461184	-0.0108738458926079	-0.00399757888340891	
990025050	0.00565642653917467	-0.00381889180240501	0.000616252373411751	0.00143681975075689	-0.00200560390980372	0.00279536876003662	-0.00342327802020555	-0.0119859692599937	
1020024900	0.00139059611593118	0.00642973587900237	0.000655119014329769	0.00086359186857984	-0.00114511967778756	0.000493675607287507	0.00821824705438585	-0.0012167793260438	
1050024750	-0.00389428086007117	0.00629399894414877	0.00128810578454364	0.00112833365231761	-0.000157006648619206	-6.62038199781923E-05	-0.00289029087448591	0.00966218816348089	
1080024600	-0.0121177512106994	-0.00373862827237592	0.000168578956682047	-0.00013546650025599	0.00107626375319372	0.00158575784831135	-0.0113815913417138	0.00381630040538974	
1110024450	-0.000523791190030844	-0.0114222922134433	-0.000724006597164199	0.000816748320921816	-0.000194264433638994	-3.31312451759041E-05	-0.00945580508704957	-0.00891268782142377	
1140024300	0.00927613322702742	-0.00302591760720516	0.000867092429337696	0.00119474570040318	0.000967369617402016	0.000244231760533448	0.00396260581140404	-0.0110042668507579	
1170024150	0.00259847772284078	0.00672745327678824	-0.00144209709456648	0.00113046995974725	0.000491735840293212	0.00151174238505965	0.00693746728326551	-0.000406918477458309	
1200024000	-0.00754942420641295	0.00478386887983162	0.000283343177083985	-0.00034421406014384	-0.000542368615099985	0.000961640067453241	0.000702329626629036	0.00605159744368909	
1230023850	-0.00852551282950236	-0.0042342129571364	-0.000208072650718449	0.000916624227660819	-0.000786803577562988	0.000471382348513223	-0.00513695430798832	0.00811388335668984	
1260023700	-0.0016353044674754	-0.0115405608361735	0.00235133985752968	-0.00138500874546736	0.00191280223629229	-0.000807556746237122	-0.0123813736352532	-0.00503324984206416	
1290023550	0.0070834336679302	-0.00317940191576233	0.00140100328598212	0.000811415840870856	-0.000564729997039869	-0.00101921984048958	0.00343664806110538	-0.0123444975803128	
1320023400	0.00343253511192312	0.00419458099871408	0.00166392175059628	-0.000724166379179721	-0.000660950739551564	-0.000711957518790715	0.0138391153124832	-0.0151194934107618	
1350023250	-0.00996888303645736	0.00232007355627816	0.000327572894554653	-0.000887701361900941	-0.000781211039495238	0.000900074709411353	-0.00479512045682294	0.00919445540525799	
1380023100	-0.00727152435100449	-0.0107311678211733	-0.000808183181142856	8.42379188864297E-05	0.000804331418701267	-0.001743932299502	-0.0098201988970706	-0.00285575164927439	
1410022950	-0.000611062321377212	-0.0154806872575978	0.000583789629604625	-0.00180983791497198	-0.00176759499036231	0.000101693102519728	-0.00543085803535825	-0.0105145623632556	
1440022800	0.00650463846299577	-0.00412237523785179	-0.00160470519869614	0.000312180386619411	0.00119373104610012	-0.00224589083012033	0.00623032496954508	-0.0116967720245917	
1470022650	-0.00118931297060224	0.00478626760883352	0.0012097240478054	-0.00189337389931651	2.49255104170719E-05	-0.00121659295950692	0.0101775374064041	0.00183932068417593	
1500022500	-0.010904869279332	-0.00129045210348541	-0.000774252230626052	-0.00163796490393788	-0.00134748897633115	-0.00286704774368964	0.00209005450771285	0.00607105116421493	
1530022350	-0.00244392346533957	-0.0115054349293448	-0.00254003956150675	0.000103787253790648	-0.00111608067897868	-0.00253167519696387	-0.00615178825123153	-0.000578350002242145	
1560022200	0.00526774132566059	-0.0131436399917253	-0.000100631998692302	0.000102235253314963	-0.00031204466654053	-0.00158245056336647	-0.000938441044150687	-0.014203699346669	
1590022050	0.0152367404233366	-0.00737609581454451	-0.000555827315196915	-0.00228417062116886	-0.000386186952720709	-0.00250621593020772	0.00600297176939161	-0.00986424964894585	
1620021900	0.000877739259269212	0.00521573647015487	-0.00110521183426254	-0.002414980587043	-0.0023947457398697	-0.00186968338985154	0.00941341258970267	0.000995996695150008	
1650021750	-0.00645591203704601	-0.00393504443464468	-0.00236720802431349	-0.00219168078623384	-0.000644814748841464	-0.00142214800454074	-8.96883168313848E-05	0.00534290847086735	
1680021600	-0.00246735941063199	-0.0109773879699229	-0.0021148365515054	7.60572155210487E-05	-0.00159687932666939	0.00110250692911535	-0.0111344678205691	-0.0122024876645626	
1710021450	0.00906905926859734	-0.0120301050306839	0.000531381351642776	0.00122385077365104	-0.00137131543494935	3.33723376824839E-05	-0.00105066254171775	-0.0124328586083418	
1740021300	0.0127313888578433	-0.00229628404420577	-0.00264838007873029	-0.00230190723404097	-2.43004946554039E-05	0.000415938081311699	0.0165090836386094	-0.0104723951276451	
1770021150	0.00331755705553933	0.00718508855219244	-0.00136502221966756	-0.00150816512214183	-0.000926444178298484	-4.52291546857942E-06	0.0149035678312287	0.00535596805775073	
1800021000	-0.00508283907282207	-0.000995262072408668	-0.00167567014451185	-0.00217542283407308	-0.00111037327765167	-0.00238349719039452	0.00183843197452117	0.00663834565021471	
1830020850	0.000185687598933547	-0.0116359465443627	-0.00184865957121751	-0.000540117616825623	8.00519139605405E-05	-0.00187277629028781	-0.00741553814225145	-0.00722319058820756	
1860020700	0.0104621623983297	-0.0106442139731102	-0.0010935764647571	-0.00230947481860009	-0.00206127329034526	0.000937441752157265	0.00583024685078581	-0.015520991979559	
1890020550	0.0105823984070083	-0.00164091474842412	0.00152459952791829	0.000738459756178086	-0.00155023812225325	-0.000949212767870193	0.012220710549936	-0.00634644901768867	
1920020400	0.0162297017401353	0.00821380266501059	2.58103316292396E-05	-0.00115230234538609	-0.00114079032629736	-0.00251550769025008	0.017176639880418	-0.00218092644321817	
1950020250	-0.00590305280642755	-0.0065096131930144	-0.00153600699572416	4.83447644872473E-05	0.000931840305099752	-0.00261478233079332	0.00113266522650959	0.00840183017883539	
1980020100	0.00280547005766723	-0.0136098672119402	0.000936343244457269	-0.00284146431114977	-0.000774230900532707	-0.00142082592661166	-0.00291926829743433	-0.00331723461600978	
2010019950	0.0152970853872636	-0.00917288814143882	-0.00048040228175313	-0.00259151701934866	-0.000956179806475554	-0.00223097142827182	0.0073607429890392	-0.0167854038027876	
2040019800	0.00927874026276138	0.00600311639951826	-0.000563329458090076	0.000279658842455168	-0.000708681351380413	-0.000491447212131894	0.0218709424311581	-0.00601099582238098	
2070019650	0.00773483840103093	0.00767215218478722	-0.000351449763748707	-0.000886839572442496	-0.00337901096241169	-0.00262953026412268	0.0223372521976969	0.00162720853863033	
2100019500	-0.00416260016025424	-0.010625410430672	-0.00186763742665752	-0.00112112657604649	-0.00347359152912734	-0.00206189895419128	-0.00028080134819097	0.00301508568675456	
2130019350	0.0126596141223861	-0.0106448857018505	-0.00100901813938312	0.00119284009586211	-0.00142646036714109	-0.000599415222610073	-0.00229174052273326	-0.000648986759682203	
2160019200	0.0145667486021034	-0.00620477377973298	-0.00590621047593919	-0.00228107586604756	0.000369482357720851	-0.00163832707157363	0.0128535569037235	-0.017900091971461	
2190019050	0.0104527170084143	0.00139469204330578	-0.00110640411396041	-0.00255102609248173	-0.000230400632487801	0.000716733140896221	0.0251259000927876	-0.00470760985178667	
2220018900	-0.00614330632465387	0.0055729390971715	-0.00155099260760133	-0.00103693243330342	-0.00202693236203028	-0.000398868913435359	0.0268587395892119	0.00547571364648921	
2250018750	-0.000169256267946789	-0.0144418959361793	-0.00193763032107634	-0.00178067285775786	-0.0022418711321255	-0.000764091984653328	-0.00248966033364082	0.00794938122066276	
2280018600	0.0143492621921848	-0.0133549555584319	-0.00167881335402228	-0.00187001887158169	0.000774740899725941	0.000819403087012895	-0.00348122609842847	-0.0127570906176315	
2310018450	0.0242224955148763	-0.0119081286015116	-0.00192605331798081	0.00117831689764105	0.00229680002545567	0.000358142922883504	0.0176567986825264	-0.0148532558120714	
2340018300	0.00961828775834089	0.00223224919405797	0.000310314469561914	0.0021302445472419	0.00140784448262529	-0.000581338068768088	0.0298818598683742	-0.00246839624928655	
2370018150	0.00133638994268653	-0.00416561109120784	0.00150431891008135	0.00341279960664025	-0.00172548910859185	0.00184936358486484	0.0205557059879705	0.00783779599628256	
2400018000	-0.00369619810349074	-0.00835993123839902	0.000405023253272774	-0.00150162899667821	-8.42495037118582E-05	0.00204336853007512	-0.0041084213960702	0.00403806803206941	
2430017850	0.00573689325969994	-0.0160081753237646	-0.00366684356272397	0.00301660863802411	-0.00259018539761419	0.00172402565339789	-0.000789117496186557	0.00257207159902841	
2460017700	0.00767915244350326	0.00269568891785358	1.8199597823527E-05	0.00103851268588213	-0.00251269720601974	0.000695883205999778	0.0162698176593058	-0.0176842878430622	
2490017550	-0.00290874855764365	0.00186173401764123	-0.00129935394182527	0.000931165831364518	-0.00150221301308345	-0.00256471689976525	0.0309887819239583	-0.000559152105970043	
2520017400	-0.0016691014041233	0.00682315219866118	-0.00203942981364189	-0.000626907968344085	0.000544142010015247	-0.00089508186396402	0.0310396309721202	0.00716122653356943	
2550017250	0.00562952667814602	-0.0107160115734611	-0.00100177581802744	0.000370022575625217	-0.00166797389116279	-0.000575203300969772	-0.00576037988858641	0.0055144877976241	
2580017100	0.0173411450321848	-0.00728450890137903	-0.000160887205149467	0.00118829143283836	-6.00124193098927E-05	9.68410740893372E-05	-0.00561165868022314	0.00132868522952493	
2610016950	0.0199692443403451	0.00532078397574229	0.00179734858699881	-0.000464657743880443	-0.00256800527006721	-0.00173424274420824	0.0148049058715112	-0.0124517937451956	
2640016800	0.00290393168831941	0.00397005679072648	2.70318585378344E-05	-0.00138649991182742	0.000457894259737029	0.00193042066272788	0.0280401786398767	0.00113096753270763	
2670016650	-0.00120142060896235	0.00712306736210859	0.00274822318962481	-0.000453940997653837	0.00466490409805656	0.00210786935022925	0.0258590817081766	0.0111890774280307	
2700016500	0.0122124610813785	-0.0194256782735866	-0.00222763036991266	-0.0012410882633558	-0.00183393736888882	-0.00392129617753509	-0.0117385985011556	0.00412920677792926	
2730016350	0.0235458441779148	-0.00300019601868961	-0.000187093130090565	0.00167600956279505	0.000609241965972571	0.000707206206916998	0.00103496361637568	-0.00606189028059049	
2760016200	0.0196453058784776	0.00935599722050368	-0.00231719492288743	-0.000490544078257583	0.00217051482609871	-0.000230717575094019	0.0145453151192556	-0.00633418238861287	
2790016050	0.00210372691827909	0.00561883673712317	0.000159858824288432	-0.00265789326659916	-0.000604548809999613	-0.00118569195430894	0.0326012513928846	0.00714142790033679	
2820015900	-0.00327529551043427	0.00120732149987186	6.27583524428356E-05	0.000783687559360085	0.000607860573667931	-0.00058018548339495	0.0212162396823134	0.0194433076530775	
2850015750	0.00318256411909635	-0.00612326227049259	0.00182627277447584	0.000797943786900575	0.000614400068842914	-0.00127325216119889	0.00346299312082471	0.0175051828977075	
2880015600	0.0167443524841092	0.00112022833941963	-0.000682388082740472	-0.00253379518528601	-0.000646291291706771	-0.00208281247081433	-0.00907392961341446	-0.00237363106670744	
2910015450	0.0211958169349962	0.00356892644556378	6.93242220497859E-05	-0.0014106743361573	0.000568166831923099	-0.00299561592186123	0.0109768898488566	-0.00914718693963988	
2940015300	0.0207991800780717	0.0226357504053116	-0.00047868915553853	-0.000668939109676328	0.00272619903135903	-0.00502184854825064	0.0142011582640696	0.00957331478495828	
2970015150	-0.00396112245917648	-0.0125682588907465	0.0019622107739607	-0.0021359233094361	-0.000856915741174862	-0.00153416433545665	0.0128338524464148	0.0181914047654189	
3000015000	0.00750140740926625	-0.00667917408715167	0.00320243219149003	-0.00294504102911846	-0.000873650374681927	-0.00174283826205181	-0.00448375367511927	0.00140823717682665	
3030014850	0.0156053628852363	0.002566199295305	0.00116010763038578	-0.00168439238887754	-0.00109227059745487	-0.00501747726710158	0.00125398252014788	-0.00266120697494829	
3060014700	0.0161945983874693	0.013970359863762	-0.00167274121251606	-0.0027790427168026	0.00167403259918927	0.000482140850358059	0.00788206068066047	-0.00514120758420822	
3090014550	-0.00721498011876579	0.000356847684653199	-0.00170057474283637	-0.00248081522188277	0.000274093535818738	-0.00300864428544462	0.0180692006262313	0.00748387032133241	
3120014400	0.000241829248592501	-0.00271906042343655	0.000919531894072613	-0.00398863310068016	-0.000854895236986381	0.00110153684012092	0.00874517306835672	0.0227134284020202	
3150014250	0.00439682170956405	-0.00278489738902776	-0.000701914478508693	-0.00407141005037089	0.000659074865047839	-0.000529415012254751	0.00022699038525068	0.0136242066624439	
3180014100	0.0167651974416658	0.00573589638431082	-0.000708349389720605	-0.00134013316387201	-0.00157441087565429	-0.00214887171289949	0.00117856602491294	-0.0027701882452492	
3210013950	0.00878145303165711	0.0147406928550537	-0.000956369640665841	-0.00507747281223717	-0.000765588585805774	-0.00142872015409798	0.00782742742052498	-0.00336176172486714	
3240013800	0.00156791048646845	0.00493349536896788	-0.00068707804497741	-0.000500930592867634	0.00101491383811123	-0.00471818842883426	0.0224564547835079	0.0166966423347065	
3270013650	-0.00329416339704563	-0.00620342153274427	-0.000562797097682243	-0.00414193526000981	-0.000524339002612626	-0.00366018342094104	0.00784957379802059	0.0253767911676133	
