#  HZ   S   DB   R     50.0 
! Rohde & Schwarz ZVL13 2Ports - Version 3.20 - 1303.6509k13 SN: 100953
! Date: 2024-10-09 07:56:13
! Data & Calibration Information:
! Trc1:S11(TOSM) Trc4:S21(TOSM) Trc2:S12(TOSM) Trc3:S22(TOSM)
! 
! 
! 
 9.000000000000000E3     9.319591841591165E-3  -5.899535153405245E-2  -5.667402544311872E1   5.107162587498021  -6.197265610136530E1  -1.229097913784263E2   6.519718810886287E-3  -6.215657086279286E-2  
 3.000895500000000E7    -2.353279458259329E-2  -8.354883703717746E-2  -4.379763295818178E1   7.546317684975591E1  -4.619803199257959E1   1.380216963649434E2  -4.584346939650955E-2  -6.229450855356792E-1  
 6.000891000000000E7    -9.323419892023123E-2   1.046911918089848E-1  -5.602876723340809E1   5.614307540071755E1  -5.985573342960747E1   5.722513573144670E1  -3.547787109113296E-2   1.322888284841394E-1  
 9.000886500000000E7    -6.801780470168801E-2  -1.020160542664466E-1  -4.606596455658261E1   7.408615447451842E1  -4.342216977217738E1   1.018732295329110E2   1.737078243158155E-2  -5.659436056032112E-1  
 1.200088200000000E8     1.859130780807350E-2   3.164686328319197E-1  -5.482759875580627E1   4.853034132446144E1  -4.102740816682133E1  -8.669870933417354  -6.020808647701190E-2  -3.196573398423263E-1  
 1.500087750000000E8     2.376587423725624E-3  -5.229933282629456E-1  -4.290394754327755E1  -1.132707281867335E2  -6.099514094813156E1  -4.031804020851472E1   3.968901709472239E-2  -4.698420194516295E-1  
 1.800087300000000E8    -8.926680073136172E-3   4.926492490297291E-1  -4.682703261955168E1   1.782137048612925E2  -5.035692501862540E1  -7.979412370632055E1   4.507514551136919E-2   2.839669878607357E-1  
 2.100086850000000E8    -2.946418011231126E-2  -4.634266087595440E-1  -5.370112832768018E1  -1.564188079000954E2  -4.754759879049678E1  -4.586819894318897E1   4.424526365483768E-2   6.210177384746680E-2  
 2.400086400000000E8    -1.787483656184747E-1   1.564011218281381E-1  -4.963102611292634E1   9.056167257708744E1  -6.109980785909136E1  -2.106022059989119E1   1.063542483315308E-1   3.898792404356595E-1  
 2.700085950000000E8    -5.136663392715263E-2  -2.817550708935868E-1  -5.231722896881437E1  -6.590557162545083E1  -5.675833330595367E1  -5.098234713240087E1   2.314761056599814E-1   4.002437852300804E-2  
 3.000085500000000E8    -7.111937205474858E-2  -1.210938438375037  -4.676224430238244E1  -1.168018595316339E2  -4.771020963713504E1   1.411242051204222E2   3.204301638872192E-2   4.626370232619690E-1  
 3.300085050000000E8     3.631751955089529E-2  -1.527914201142770E-1  -6.998077341943855E1   1.392819881119905E2  -4.045302167821126E1   1.609927233097810E2  -1.111083592526199E-1  -3.497636189330308E-1  
 3.600084600000000E8     5.421620615966001E-2  -2.339495569362272E-1  -5.952242155887524E1   1.958808017070419E1  -4.595935278898349E1   1.353079126163349E2   1.748818159389418E-2  -3.588476065584784E-2  
 3.900084150000000E8    -5.336584198774486E-2   6.960251293234460E-2  -4.280650513828817E1   8.109361679851064E1  -4.184357755508395E1  -3.106468455607127E1  -1.212455785283772E-2   2.914615651399169E-2  
 4.200083700000000E8    -1.240649329223325E-1   6.266504026968399E-2  -4.509989795083498E1   6.354634111285494E-1  -5.506267610989673E1   1.064737724001443E2  -9.465361593961674E-2  -9.406674618445895E-1  
 4.500083250000000E8     7.945475079518115E-2  -8.965458679466606E-1  -4.024055335019902E1  -8.329352427218390E1  -5.369810718708450E1  -3.674279253099412E1  -5.900399372326071E-2   1.242113885353025E-1  
 4.800082800000000E8    -7.083723867474275E-2  -5.106318243927066E-1  -7.414047683124218E1   1.075975767758461E2  -5.170887794685786E1   2.336030235264004E1   1.510927125185940E-1  -8.628927161950946E-1  
 5.100082350000000E8    -9.999052842303470E-2  -9.807884288233103E-1  -4.542025615557544E1  -8.784819475899585E1  -4.485165764702565E1  -1.758966953794694E2  -5.146222623301803E-2  -2.210368467069084E-1  
 5.400081900000000E8    -6.463095338142799E-2   4.207884402896318E-2  -5.575485279803250E1  -1.605695774783421E2  -4.586498687678626E1   3.647359290240714E1   8.634662920163855E-2  -3.249041695923502E-1  
 5.700081450000000E8    -2.792422854153613E-2  -2.167003136748016E-1  -4.718653790682247E1  -8.697256946261743E1  -4.164597117825517E1   1.705220409332677E2   1.839287174100739E-1   1.699679773428878E-1  
 6.000081000000000E8    -2.087413266301001E-2  -8.197539231406527E-1  -5.057604924075350E1   3.648404271757462E1  -4.332687441753909E1  -3.174143244911899E1   1.174567782090724E-1  -3.801772502727390E-1  
 6.300080550000000E8    -9.827021684035397E-2  -4.439840309701753E-1  -6.138306854069310E1   1.319619250399779E2  -4.425140930108462E1   1.766142147835552E2  -1.949702329380193E-1   2.667443572991969E-1  
 6.600080100000000E8    -1.316122263375397E-1  -1.650621217330583  -5.010137628283183E1   6.923997700732539E1  -3.876316505248291E1   1.155311503779681E2   7.089631224965529E-2  -9.712205082984177E-1  
 6.900079650000000E8    -4.283376842102175E-2  -5.307114693962939E-1  -5.938134803770163E1   9.736310638751858  -4.567223129663509E1   6.718106993919891E1   1.122056076441298E-2  -4.398731607951386E-1  
 7.200079200000000E8     3.762535428363140E-2  -8.264378408704736E-1  -5.301065700876323E1  -8.650413657283509E1  -4.949367973919235E1   1.646105021490504E1  -2.440705973915313E-2  -1.127937699816061  
 7.500078750000000E8    -1.449221405999169E-1   5.043277219849327E-1  -5.061265295883931E1  -1.577259863739639E2  -4.883412815803332E1  -1.330460649752688E2  -7.168617877555519E-2  -3.260984560649454E-1  
 7.800078300000000E8    -1.195039200312417E-1  -8.069185001978853E-1  -4.301041185380701E1   7.210107729295704E1  -4.199800491775764E1  -8.777345829451919  -2.172229638592866E-1  -8.070975218319390E-1  
 8.100077850000000E8    -1.123147664350811E-1  -1.893397181684012  -3.906806533454041E1   9.091425505891878E1  -5.285469156335770E1   3.864404250168549E1   3.720877699632988E-2   7.038343743973125E-2  
 8.400077400000000E8    -1.021482867695021E-1  -8.848509746337605E-1  -4.880293641381054E1  -1.018548441427010E2  -4.607831131169521E1   1.073636864275989E2   2.175250008821887E-2   3.994078535300920E-1  
 8.700076950000000E8     1.407685491615296E-1  -1.267248489467571  -4.636352117771766E1   5.910335057328415E1  -4.221853175105799E1  -6.307307041778303E1  -7.231356988252288E-2  -2.876405689222613E-1  
 9.000076500000000E8    -6.476359180769648E-2  -5.510597546730861E-1  -4.497707382538496E1  -1.616869466333053E2  -4.033456785991390E1  -4.783799305753031   8.680874080054145E-2   9.798532031892054E-1  
 9.300076050000000E8    -4.812996232742591E-2  -1.709610224416497E-2  -5.937617639411301E1   5.237361581903773E1  -4.241033137991854E1  -3.324130258240029E1  -3.261633193543495E-2  -6.917351100780957E-1  
 9.600075600000000E8    -1.033335913116702E-2  -5.279835309724332E-1  -5.254639546987591E1   4.738479824941386E1  -4.090821318608666E1  -9.617579737850583E1  -7.970143632307206E-2   9.798633024580973E-1  
 9.900075150000000E8    -6.414482140569081E-2  -9.803085414142000E-1  -5.241921459815793E1   1.717847298178275E2  -4.234310503394097E1  -1.427219535289337E2  -1.864747961738860E-2  -3.501912345215173E-2  
 1.020007470000000E9     2.372245100050168E-2  -1.221614627296433  -5.245926110702693E1  -2.846616275985441E1  -5.518626929613336E1  -7.669787809431816E1   9.011574670876546E-2  -5.180762620788627E-1  
 1.050007425000000E9     9.600069434745877E-2  -5.710379328666931E-1  -6.179405066553696E1   7.180266610886044E1  -4.221804389792114E1   1.339920744460741E2   1.906958564007990E-1   7.118004280792659E-1  
 1.080007380000000E9     6.682096385079932E-2   3.771305829343160E-2  -5.101321486494136E1   1.736344191480067E2  -4.582701391770136E1   4.396916185136634E1   1.750520883803794E-1  -3.836510337929852E-1  
 1.110007335000000E9    -3.006697252929961E-2  -1.021844006724256E-1  -4.552147509348107E1   1.332924979158371E2  -3.922976696940975E1  -1.563104170403523E2  -1.050022343109629E-1   1.073422553191880E-1  
 1.140007290000000E9    -6.559249501657458E-2  -2.875716178033278E-2  -4.816530668475006E1  -1.321968869289505E2  -5.700261588649099E1  -1.439352866840677E1   4.021346903447800E-2   6.408640260196447E-1  
 1.170007245000000E9    -2.593051058320255E-1  -5.963578923148588E-1  -4.228855401377442E1   6.955214172827140  -3.591146712195756E1   1.377427558764235E2   3.831903232992688E-2  -7.392389103961845E-1  
 1.200007200000000E9    -8.925217777348085E-2  -9.351618084487550E-1  -4.969552107247447E1   9.620937126388306  -3.978920857118981E1   3.734872657748915E1  -2.475221705756522E-2  -5.933122156872503E-1  
 1.230007155000000E9    -1.408959055284539E-2  -1.634152740454053  -3.980710473051164E1  -2.676040782197683E1  -4.655649733668728E1  -2.140533312105746E1   1.527655623733870E-1  -8.366209540202926E-2  
 1.260007110000000E9    -5.029659362283987E-2  -2.291757357410200E-1  -4.870339174835738E1   6.238024532703866E1  -3.996910948175130E1  -1.532984407052501E2   5.070699084293579E-2   3.708306954278387E-1  
 1.290007065000000E9     2.070051390338143E-2  -2.197827326092654E-1  -4.495258803472920E1   1.051209789123220E2  -4.953279355649943E1  -1.616795014390739E1  -7.029916543231107E-2   4.453718540248441E-1  
 1.320007020000000E9    -7.516455640441776E-2  -4.884503051599247E-1  -4.497275053795022E1  -1.359346868013938E2  -5.279718179072895E1   2.964890760483705E1   1.083141018193804E-2  -2.784998396082477E-1  
 1.350006975000000E9    -1.565257191767299E-1   3.473930132408973E-1  -5.200755329031222E1  -1.404955183785276E2  -4.202387174877968E1   9.196408567605417E1  -9.897799295009112E-2  -6.472518748382893E-1  
 1.380006930000000E9    -1.589105263337317E-1  -8.325106544579944E-2  -4.908359751336406E1   7.543098117470275E1  -4.166450164152675E1   1.042491814288029E2   7.302474005552875E-2   6.907216778856624E-1  
 1.410006885000000E9    -7.995762592817526E-2  -1.036238479094377  -5.941887478735811E1  -8.128489412112826E1  -3.772349991593610E1   1.129005520514132E2  -1.025017960363702E-1  -1.226456869940692  
 1.440006840000000E9     2.016858122457634E-1  -8.771009759355913E-1  -4.615754642416587E1   6.536152111687406E1  -4.649357156134325E1   9.965573436696818E1  -6.352482379702590E-2   2.537459494053077E-1  
 1.470006795000000E9     1.027028357650722E-2  -8.728959644613656E-1  -4.893638514183670E1   5.818265220808018E1  -4.077911219372400E1  -1.505356358846112E2   7.985741616759470E-2   5.886845187124866E-1  
 1.500006750000000E9    -7.699062417880948E-2   8.197594709096602E-2  -4.509991655460316E1   1.170987540335873E2  -5.157178708370962E1  -1.669737232411269E2  -7.341036252251527E-2   8.821749404390235E-1  
 1.530006705000000E9    -1.442298101559451E-1  -1.661412942816066E-1  -5.003792455139816E1   1.084090605176569E2  -5.027885715234790E1   3.276050386403579E1  -1.594489714662100E-2   2.316840197796937E-1  
 1.560006660000000E9    -8.231609615191125E-2  -4.684723016848456E-1  -4.956187082075081E1  -5.741607201777782E1  -3.825005225085837E1   1.356132342223910E1  -1.515061076770853E-2   1.486553507911184E-1  
 1.590006615000000E9    -1.026656412511148E-1   4.362974114646219E-1  -4.103117704122131E1   6.054199260955632E1  -3.661368744039454E1   3.904196279709232E1  -3.813358456121196E-2   2.112989850997654E-1  
 1.620006570000000E9     3.623290827545159E-2  -2.196413881718521E-1  -4.593058946286546E1   3.018581786488565E1  -4.621246159093744E1  -4.117092105267759E1  -4.195167789258512E-3   6.007583928786928E-1  
 1.650006525000000E9     3.399160296896685E-2  -5.939768037848822E-1  -3.440267814378854E1   2.016570158316636E1  -4.140733580632972E1  -9.536513483243894E1   1.623008847054519E-1   3.735171971456514E-1  
 1.680006480000000E9     2.127955870531221E-2   1.381468185715616E-1  -5.006998326864440E1   1.067410063019782E1  -4.092639043830341E1  -1.298521451210546E1   1.443970526042406E-2   2.922080488596828E-2  
 1.710006435000000E9    -6.874667706144162E-2  -1.184582733957157E-1  -4.698936699743414E1  -6.886359003560111E1  -4.600813231776072E1  -5.241732922233430E1   7.093594207911730E-2   9.494074081334045E-2  
 1.740006390000000E9    -7.461457738235910E-2   1.341480686655301E-1  -3.901664735958246E1  -1.615949770215234E2  -5.722760209587074E1  -6.420538441618380E1  -1.857778472522730E-2   4.626507412914192E-2  
 1.770006345000000E9    -3.931977863357792E-2  -4.250565262712156E-1  -4.864069321095786E1  -4.219800880413327  -4.513112469460478E1  -1.313528379424836E2   4.745249465681685E-2   1.361311850709348E-1  
 1.800006300000000E9     4.795035049299014E-2  -6.056633668317516E-1  -4.128105263309427E1  -1.122566559600667E2  -4.057032587728514E1  -4.344070252850057E1  -4.124620746419899E-3  -1.643478292061137E-1  
 1.830006255000000E9    -4.814800227625033E-2   4.895534577740512E-2  -4.512280638717962E1   6.442449938525433  -4.918664994573137E1   5.988198573834173E1   4.910070093595521E-2  -3.386827436088447E-2  
 1.860006210000000E9     1.019839075922404E-2  -2.968275358840591E-2  -3.912456164546366E1   6.533160935452938E1  -5.042965195977229E1  -1.093284566005713E2   1.406548950060057E-2   2.998905689315579E-1  
 1.890006165000000E9    -5.516635423861222E-2  -5.678308734510978E-2  -4.789059244450885E1   1.749659318841134  -4.369547488677351E1  -6.222284175644106E1   3.535844193235746E-2  -8.771431791017456E-2  
 1.920006120000000E9    -4.599042353966138E-2  -3.984463959762487E-2  -4.263484553063115E1  -9.281457649427810E1  -5.793601450710931E1   5.844036438693416E1   3.455371626058788E-2   4.461061185955097E-2  
 1.950006075000000E9    -4.055280067930300E-2  -3.165584699265370E-1  -5.032173224360047E1   1.279640261358438E2  -5.169832072356579E1  -4.454995063597190E1   4.996214799222317E-2   2.604892805800803E-1  
 1.980006030000000E9     3.390451764514860E-3  -3.368738725067584E-1  -5.109465805945953E1  -1.569803126214234E2  -5.248166404343770E1   1.452193219853644E1  -2.096360463071154E-2  -1.040699407336010E-1  
 2.010005985000000E9    -1.495141456890381E-2   1.162291756606061E-1  -4.709313549924506E1  -8.378174290665601E1  -4.382200816988184E1   4.372051873123758E1   5.335109895912259E-2   1.298619344497143E-1  
 2.040005940000000E9     2.669735679785190E-2  -1.459068685793386E-1  -6.541786878817035E1   4.906659920549048E1  -4.563871495810873E1  -1.485030449056343E2  -1.660904040431373E-2  -3.292544887585033E-1  
 2.070005895000000E9    -1.313034441645598E-1   1.400741504093275E-1  -4.858293014941780E1  -1.303207133840177  -4.039025408949675E1  -4.851544023873949  -2.472266730898065E-2   1.845168452951135E-2  
 2.100005850000000E9    -4.807160874515786E-2   2.927802814522200E-1  -4.178664771345601E1   1.235941744326545E1  -5.225544736508691E1  -1.469747797826620E1   2.551470246257086E-2  -5.884180657303414E-1  
 2.130005805000000E9     9.970552861474823E-3  -2.807642739796801E-1  -4.062405957404705E1   1.416778132448716E2  -5.035768325968679E1   9.609996860919777   2.891784081497967E-2  -3.312335645628217E-1  
 2.160005760000000E9     1.002499690470257E-2   3.218145998766697E-1  -5.124481122893113E1  -6.710373856389559E1  -5.152458820186703E1   6.067593421568927E1  -2.033515385009604E-2  -1.366572743520931E-1  
 2.190005715000000E9     3.781864615633554E-2   7.273669703297351E-1  -5.255642753488596E1  -1.147237300725391E2  -6.238872379026336E1  -1.795304516087616E1   3.721607254992484E-3   1.350829706782902E-3  
 2.220005670000000E9    -4.067830117648025E-3   6.746871690604521E-1  -5.127033911298651E1   9.698047281020179E1  -4.135549168095758E1  -6.167916453844948  -1.476323668889034E-2   2.823132777543566E-1  
 2.250005625000000E9    -7.915240714372382E-2   5.881115387681433E-1  -5.407280173134986E1  -7.929171829169412E1  -5.396899509166380E1   5.535854501875014E1   1.715303861210511E-2  -1.406636946674069E-1  
 2.280005580000000E9    -6.332952785858054E-2  -2.209211166676169E-1  -4.678729217817060E1   1.300558184258994E2  -4.899416644107389E1  -3.241408878617951E1   4.073519232232833E-2   1.021424236181125E-1  
 2.310005535000000E9     2.480839780613765E-2  -5.270143768540217E-2  -5.043867141702377E1   8.572682522728786E1  -4.074386383205418E1   1.586702487251793E2  -2.224324876051149E-2  -4.609280973490375E-3  
 2.340005490000000E9    -1.433099860286481E-4  -2.204593595172023E-1  -4.434817038359601E1  -2.671065221494776E1  -4.108860197276062E1   9.332586917658317E1  -3.632214221109341E-2   8.756687510942465E-2  
 2.370005445000000E9     3.449260911311346E-2   9.108930586631826E-1  -4.483289555808841E1  -2.881642082404882  -4.600972609592950E1  -6.081889226700580   5.341324790674481E-2   1.603919008091503E-1  
 2.400005400000000E9    -8.703164536777359E-2   8.234939490768756E-1  -4.443927233118504E1  -5.219425736346202E1  -5.037861635009743E1  -4.592869702848074E1  -4.301691272585663E-2   3.241468319723372E-1  
 2.430005355000000E9    -7.008064313091539E-2   5.706639561662757E-1  -4.852457736711060E1   1.525972454621087E2  -4.976110175938579E1  -1.080002746398184E2  -1.193200279376293E-2   2.674889608466474E-1  
 2.460005310000000E9    -3.380822122083917E-2  -2.701094251338107E-1  -3.911688576076703E1  -6.609454725288380E1  -5.195904590969003E1  -1.478202243178467E2   2.747133577459218E-2  -4.599147749488068E-1  
 2.490005265000000E9    -6.145081366828165E-2  -6.710822018723447E-1  -4.889104731284471E1  -1.448488899635842E2  -4.532879863513814E1  -1.282619374406543E2   7.374519829093503E-3  -1.585500200900701E-1  
 2.520005220000000E9     5.954241321454677E-2  -5.156638765248935E-1  -4.564173492636392E1  -1.128468829121735E2  -4.456294964149330E1   7.710283035740220E1   1.364021104519313E-2   8.712115301318310E-2  
 2.550005175000000E9    -1.272351967677740E-1   6.634274588271834E-1  -4.602894066485973E1  -3.956607745009139E1  -4.713507173307708E1  -1.022014982519610E2   3.379591390012551E-2  -3.277748028720555E-1  
 2.580005130000000E9    -2.003372118414836E-2   1.553016423316832  -4.226687988761405E1   1.261529837112238E2  -4.585127531112720E1   1.606934125792591E2  -1.066028470894731E-3   2.487077244943619E-1  
 2.610005085000000E9    -3.873508487524289E-1   5.626638220580363E-1  -3.434204411261062E1  -7.662881613418308E1  -5.184842086557831E1   1.123043724408487E2   3.248311388595264E-2   8.417511101929487E-2  
 2.640005040000000E9    -8.818250511081084E-2  -2.434586476149157E-1  -4.403479386229328E1   7.510909697435544E1  -3.964613376536138E1   1.601308593916478E1   4.167523105818762E-2   5.035905555181247E-1  
 2.670004995000000E9    -8.547950543488261E-2  -1.751642816082139  -4.791751767252523E1   3.721338145877063E-1  -5.236076661351896E1  -3.863178083922009E1   2.713571319270184E-2   6.042496279107159E-1  
 2.700004950000000E9    -7.812765042040813E-2  -8.316062867842914E-1  -4.750677196926020E1   2.602565750687936E1  -4.158032573625823E1  -1.770762483659708E2   7.490874228322535E-2  -6.856182188456423E-1  
 2.730004905000000E9     4.390424001867013E-2   6.264412201014271E-1  -4.273048199689537E1  -1.456381319502201E2  -4.154624996330715E1  -1.152677008093493E2   5.686073713973753E-2   6.806329283408038E-1  
 2.760004860000000E9    -3.215666671186691E-1   1.688781973499594  -3.773275906682105E1  -2.247178612024760E1  -4.239372902335223E1   5.206337141511305E1   2.613062083322493E-1   1.001343273086637  
 2.790004815000000E9    -3.090326155504972E-1  -1.163772838495250E-1  -4.658179229872329E1   7.218093351374124E1  -4.439520971949989E1  -6.553196094932754E1  -6.224278271362008E-2  -1.171029512335335E-1  
 2.820004770000000E9    -2.880977538064000E-1   5.751715222240943E-1  -3.661528514126481E1   4.910314925344667E1  -4.358481856966305E1  -5.143567155914687   6.523230937118060E-2  -5.301796879320135E-1  
 2.850004725000000E9    -1.293604294821493E-1  -8.317244987597683E-1  -4.166254722217001E1  -1.058920901825497E2  -4.971568392329383E1  -1.381048803388794E2  -6.997496379357227E-2   3.773556779050968E-1  
