#  HZ   S   DB   R     50.0 
! Rohde & Schwarz ZVL13 2Ports - Version 3.20 - 1303.6509k13 SN: 100953
! Date: 2024-10-09 07:56:30
! Data & Calibration Information:
! Trc1:S11(Cal Off) Trc4:S21(Cal Off) Trc2:S12(Cal Off) Trc3:S22(Cal Off)
! 
! 
! 
 9.000000000000000E3    -1.445122573742484E-1  -7.794453024239162E-1  -7.129209041426609E1   9.820737328604955E-1  -6.805298572816739E1  -2.155447157589167E1  -1.604575768154949E-1  -7.041023309708624E-1  
 3.000895500000000E7    -7.818215631201561E-1  -1.188582729859204E2  -5.767666835447449E1   9.086087940969817E1  -6.128533981405312E1  -1.798462125664165E2  -5.327472459621924E-1  -1.185381143336563E2  
 6.000891000000000E7    -9.104931774489385E-1   1.249984371294503E2  -6.898816380522266E1  -1.075840671844227E2  -7.734855373190139E1  -1.796333975542136E2  -8.888452820259631E-1   1.256822128680309E2  
 9.000886500000000E7    -9.530355561576245E-1   1.003563754265144E1  -5.600534323231810E1   1.037646925508425E2  -7.322179823559739E1   3.252121696674898E1  -8.854871818516974E-1   1.121330172330399E1  
 1.200088200000000E8    -1.022351088718857  -1.016642646561870E2  -6.270214534084072E1   2.137538479801286E1  -5.932223237063504E1   1.377305456806090E2  -1.088663106490629  -1.003614030684139E2  
 1.500087750000000E8    -1.113453506063198   1.423008444716569E2  -6.255341985817501E1   1.236274425895970E2  -6.772740469245832E1  -6.544591765584107E1  -1.115091582806551   1.424132813064117E2  
 1.800087300000000E8    -9.842739934494762E-1   2.810369090721776E1  -8.537636917998431E1  -3.701608329557843E1  -6.926518857127040E1   1.180534813753053E2  -9.357350298134892E-1   2.735186190719181E1  
 2.100086850000000E8    -1.177153932206805  -9.117525464698881E1  -7.040995426843882E1   1.082501454970150E2  -6.685887269612782E1  -2.152477120895785E1  -1.160689019269813  -8.935634676363615E1  
 2.400086400000000E8    -1.571801178384733   1.529013390006978E2  -6.956761555914319E1  -1.144709319323670E2  -6.227790526817217E1  -8.601400431382052E1  -1.408153218454958   1.526491004436576E2  
 2.700085950000000E8    -1.647228367859003   3.641866607984634E1  -6.226434361402576E1  -1.730316930978101E2  -6.947893085392524E1   1.501658430526821E2  -1.465127148370489   4.048072602002143E1  
 3.000085500000000E8    -1.383665024983533  -7.566941354200914E1  -5.592892756383546E1   1.775220396322758E1  -5.775675867371971E1   6.882611582771560E1  -1.526124265509146  -7.380532733896150E1  
 3.300085050000000E8    -1.577962571232513   1.738910399385564E2  -5.960555597546475E1  -2.938832234574959E1  -6.059843536103909E1   9.655888203865905E1  -1.533700728476238   1.749998022198094E2  
 3.600084600000000E8    -1.573273913961785   5.692627851442208E1  -6.423933843004366E1   1.451606870281221E2  -7.148202294318207E1   4.615296020586719E1  -1.651727516122987   5.974903960916500E1  
 3.900084150000000E8    -1.676315699089264  -5.760174504049681E1  -6.394916602478676E1   1.214375834397246E2  -6.049924068972261E1   2.421234693509888E-1  -1.664167130020041  -5.933322804688511E1  
 4.200083700000000E8    -2.104970943229257  -1.786516917219136E2  -5.534612064655632E1  -1.605719284882032E2  -6.061651462922193E1  -8.282005693187832  -1.917218754410502  -1.711224163826718E2  
 4.500083250000000E8    -2.095716319169892   6.717910898941452E1  -5.743745002647933E1   1.498638903836396E2  -5.688365734025050E1   8.120813115577219E1  -1.994534117625074   7.070248178199219E1  
 4.800082800000000E8    -1.999415247611396  -4.416812775014036E1  -6.156680800590452E1  -8.419842532617377  -6.916997138121921E1  -2.369285069595469E1  -1.753521013307716  -4.068157617646731E1  
 5.100082350000000E8    -1.820797203482949  -1.554439345256719E2  -5.844006962630242E1  -1.441913792553072E2  -5.519327974454622E1  -7.505449197269702E1  -1.888675520349674  -1.513244921855007E2  
 5.400081900000000E8    -2.005317612451307   9.447354551078138E1  -7.233820461133347E1   1.634779015892925E2  -6.403608937820599E1   1.198911389541778E2  -1.966514066921449   9.244945666067895E1  
 5.700081450000000E8    -2.163822582676735  -2.610325448996943E1  -6.250628580233088E1   1.550761091392349E2  -6.293176161632917E1  -1.777109860426583E2  -1.902939054462954  -2.060570446272664E1  
 6.000081000000000E8    -2.549024224339725  -1.404500544580143E2  -5.571430500298436E1  -1.171488860021629E2  -6.698115683989556E1  -1.591617682826039E2  -2.306396173927886  -1.382644511890028E2  
 6.300080550000000E8    -2.629983719581003   9.925412273167318E1  -7.144737470068259E1  -4.945869514730920E1  -6.196712874201009E1   1.321115323925995E1  -2.296870255465076   1.063519883946068E2  
 6.600080100000000E8    -2.205432301239914  -1.171918462551799E1  -7.342104816638705E1  -1.602275732672225E2  -6.654630431758676E1  -1.423526684653081E2  -2.429685805295985  -3.583326215106625  
 6.900079650000000E8    -2.242673907415259  -1.189145576232464E2  -5.684354468324475E1   7.272341811094100E1  -6.065391025445868E1  -4.964596267745932  -2.204000663875985  -1.199258964796963E2  
 7.200079200000000E8    -2.205396981983003   1.266818337691628E2  -6.968858485407785E1  -1.755931795112843E1  -6.063254081419979E1  -1.752852164758984E2  -2.283372358382461   1.317115710945213E2  
 7.500078750000000E8    -2.532026275075014   1.506667898753483E1  -6.961247142257756E1   1.582968464652048E1  -6.142584633184290E1   7.350792404344089E1  -2.503318903362212   1.728551052705883E1  
 7.800078300000000E8    -2.737889981546022  -1.075639500832023E2  -5.843414051157144E1  -1.439909824489170E1  -6.159464611325608E1   1.332035620544401E2  -2.628698828818084  -1.006966399823050E2  
 8.100077850000000E8    -2.989001233299925   1.390324476866435E2  -6.601470829434845E1   1.088350431956542E2  -7.543380334327733E1   1.515746214096280E2  -2.832394194330213   1.495296686111505E2  
 8.400077400000000E8    -2.781050930085982   2.548415881627367E1  -5.870681905335471E1   1.527925005155575E2  -5.608704632476154E1  -5.782157755483861E1  -2.784492019426451   3.170940330987306E1  
 8.700076950000000E8    -2.460973675778022  -8.403339003233613E1  -5.640812866509813E1   1.429768706375658E1  -6.109979662695292E1   1.724286402781640E2  -2.625057076149965  -7.844156859695453E1  
 9.000076500000000E8    -2.551322356826691   1.700263000082736E2  -7.174407534045339E1  -5.170095129217866E1  -5.472866606553388E1  -8.443700047516187E1  -2.652905429490434   1.705983345490341E2  
 9.300076050000000E8    -2.880342316504522   5.094548830238495E1  -5.406583988343535E1  -9.364608117792511E1  -6.773487732930460E1  -5.207940101133036E1  -2.789137497104177   5.552206092971274E1  
 9.600075600000000E8    -3.230061267426201  -6.517824314651827E1  -5.985487462254877E1  -1.429237123793596E2  -6.548310039989659E1  -1.731341062485288E2  -2.782370628732434  -5.662399419951833E1  
 9.900075150000000E8    -3.390371832430444   1.737057597106938E2  -5.435539611259383E1  -1.426162815351076E2  -7.535475064259508E1   6.611904396242549E1  -3.012087084643897  -1.736209724227578E2  
 1.020007470000000E9    -2.996347035647365   6.352480682151253E1  -5.340948827916246E1  -1.436093762317994E2  -7.139480912942588E1  -6.768650056245766  -3.029749523888953   7.364764822464113E1  
 1.050007425000000E9    -2.908580771401303  -4.279352122613848E1  -7.515215808781909E1  -1.429649799408614E2  -5.583449480451662E1  -1.648766054720650E2  -2.995016354223729  -3.619598720980419E1  
 1.080007380000000E9    -2.870614647531904  -1.553696229143060E2  -6.382800261261224E1   4.525678552490827E1  -6.077103606157461E1   5.782903485533816E1  -2.760263837505861  -1.515797660941459E2  
 1.110007335000000E9    -3.319548991362752   9.560322768046306E1  -6.399332283214708E1  -1.281953089601192E2  -6.245118232350579E1  -1.057979769124520E2  -3.056383732192444   9.935127566029695E1  
 1.140007290000000E9    -3.576603670047928  -2.756215287949587E1  -6.055985152651576E1   1.847308363819667  -5.749045684077903E1  -1.526162120770514E2  -3.257145965914700  -1.582388748050339E1  
 1.170007245000000E9    -3.905985577615637  -1.448137113519991E2  -6.717890471553919E1  -1.681635621461003E2  -6.972684785051615E1  -1.390617272289242E2  -3.423866644764783  -1.340772894265437E2  
 1.200007200000000E9    -3.526441005177119   1.033620105642576E2  -6.242540076317219E1  -1.165557418787072E2  -6.560570093352943E1   1.743508305721088E2  -3.350276223598903   1.173281656541983E2  
 1.230007155000000E9    -3.306029754105034  -6.907079165526198  -5.287829300142658E1   5.854988808608220  -7.070884670267348E1  -1.852551373712787  -3.261668155043130   1.619228144144438  
 1.260007110000000E9    -3.334663018466838  -1.130421338345442E2  -6.199993957846300E1  -6.207850080237961E1  -5.770595934961979E1  -1.240957431680506E2  -3.432130506814725  -1.091305606356376E2  
 1.290007065000000E9    -3.779896443528302   1.308072303117658E2  -5.498832261514924E1  -1.036367886023257E2  -7.005803421806496E1   1.468285500927839E2  -3.481098639346642   1.417953465437406E2  
 1.320007020000000E9    -4.415296836588327   1.537014111730177E1  -6.338849001899038E1   1.347095909646253E2  -6.068356565796322E1  -1.480426933094257E2  -3.812817105410555   2.198734113252668E1  
 1.350006975000000E9    -4.399567619955692  -1.069127104324428E2  -6.079327878547146E1  -2.537108778275227E1  -5.965872537413775E1  -8.254399333565657E1  -3.930626723447000  -8.961003189876767E1  
 1.380006930000000E9    -4.415994105721053   1.388935931570294E2  -6.362558374073882E1  -1.207093066764334E2  -5.535087711491669E1  -5.478095104805880E1  -3.840739919423466   1.559938657847925E2  
 1.410006885000000E9    -3.770629377719392   3.459322495880833E1  -8.336336613791187E1  -1.727277399283519E2  -5.701659498498123E1   8.301933051970288E1  -4.249120295407503   4.390570326995862E1  
 1.440006840000000E9    -4.267996561229769  -7.836076229725552E1  -6.401529701647623E1   1.587254622600575E2  -6.671312194289391E1   5.447094497173744E1  -4.009355941949714  -6.567874745206466E1  
 1.470006795000000E9    -4.508418223343938   1.707349123077588E2  -5.103926973205774E1  -1.308986850288163E2  -6.306391810238008E1   1.163713471762303E1  -4.360934175651713   1.791084414779433E2  
 1.500006750000000E9    -5.148448285905086   5.227775736243776E1  -5.539395041820728E1   1.057740491594377E2  -6.118862622673482E1   5.222696556533421E1  -4.628060236643517   6.687198889803055E1  
 1.530006705000000E9    -5.802037205338278  -6.931459064066775E1  -5.674126832656194E1  -8.503712061319317E1  -6.452389042289445E1  -7.057243962439904  -4.662537573500648  -4.878968555228976E1  
 1.560006660000000E9    -5.080309607580522   1.775096404690329E2  -5.899655321781072E1  -1.601937437515136E2  -5.820992046279204E1  -1.166311803928939E2  -5.060048681449386  -1.658944350343853E2  
 1.590006615000000E9    -5.332141856403346   6.638324341937639E1  -5.376894984994810E1   5.985631805789651E1  -5.493492463950827E1   1.273989451828428E2  -4.686607462421925   8.574761538450353E1  
 1.620006570000000E9    -4.945059380525692  -4.038138689899172E1  -6.675337248325002E1  -4.925935037622693  -5.594110714386626E1  -6.306290060773754E1  -5.436403601567817  -2.992139055234155E1  
 1.650006525000000E9    -6.391959285389908  -1.556192067896808E2  -6.508965260594611E1  -4.284087612773236E1  -5.083643360775519E1  -1.728527999113672E2  -5.519828116275496  -1.438134836030711E2  
 1.680006480000000E9    -6.529026616652589   8.130177604149772E1  -6.737955312845190E1   1.817818440870111E1  -5.311397798503256E1   5.252829224234176  -5.521143849342070   1.054203864505645E2  
 1.710006435000000E9    -7.057891675583843  -3.509030411037647E1  -5.878152311951330E1  -9.863106356855271E1  -7.303583779734389E1   5.267742035801980E1  -6.606638308551204  -1.609992179672437E1  
 1.740006390000000E9    -7.008025371056564  -1.569729555836605E2  -6.676953881891066E1  -4.463563075419826E1  -6.457498093813362E1  -1.497881639082126E2  -5.987264836536643  -1.302624624639844E2  
 1.770006345000000E9    -5.994905780217262   9.872151564018569E1  -5.385805867997785E1  -2.045028594583910E1  -5.812038213024743E1   2.188159877471084E1  -6.773315865487437   1.183444750699553E2  
 1.800006300000000E9    -7.788574815808736  -1.466423475383741E1  -5.909501843632213E1  -1.372061044662555E2  -6.305358829166302E1   5.783551871312888E1  -7.213144655443563   1.751861680244610  
 1.830006255000000E9    -7.936646809812363  -1.340614216583151E2  -5.581014903676914E1   7.633455433445768E1  -6.291037754324054E1   9.886399099689760E1  -7.344604864972004  -1.121198742273330E2  
 1.860006210000000E9    -9.966177420657438   1.034446988461864E2  -5.414313381006215E1   1.201848380941558E2  -5.489467083705220E1   5.388219664788013E-1  -8.759476544708397   1.268636926930599E2  
 1.890006165000000E9    -8.775718640237351  -2.645776447306621E1  -6.303514103228105E1  -5.239095112417146E1  -6.675055956740278E1  -1.206691974180811E2  -8.318007438143271   7.247992598287837  
 1.920006120000000E9    -8.555162261367993  -1.331264193096475E2  -5.440374302377639E1   1.418184844431897E2  -5.799592548188690E1   4.409931362885135E1  -9.102863499975861  -1.071171702372069E2  
 1.950006075000000E9    -9.238995118685011   1.031521936580617E2  -7.276815583520364E1  -1.520711218516405E2  -5.639762141407179E1   1.859188245308302E1  -9.607452635925545   1.292042681198207E2  
 1.980006030000000E9    -9.237640349956687  -1.081788722327647  -5.556701786205064E1  -8.063626561219499  -5.473392189905100E1   1.697749603377056E2  -9.593367554137249   1.996216563680420E1  
 2.010005985000000E9    -1.347657885381812E1  -1.417221682972250E2  -5.592151694015515E1  -2.305324019658239E1  -5.642005589179507E1   8.036686426478732E1  -1.212649409462083E1  -1.071434058623363E2  
 2.040005940000000E9    -9.630363361246385   9.236865848004042E1  -6.777685825627698E1   5.094560658394038E1  -5.868677466798802E1   8.780506507555202E1  -1.024484790563534E1   1.283840176022321E2  
 2.070005895000000E9    -1.065782656335852E1  -2.473306176807931E1  -6.153538171449628E1   6.985567102177359E1  -5.737045994204050E1   4.396432815936378E1  -1.239535879373250E1   1.373243458698878E1  
 2.100005850000000E9    -8.491945985746574  -1.430660072204299E2  -5.425837434056576E1   1.111000708536542E2  -5.714554734142737E1  -1.311983822324376E2  -1.194975718536415E1  -1.265737275164890E2  
 2.130005805000000E9    -9.958768077866624   1.191024682860618E2  -5.728211579599847E1   1.268230900933364E2  -6.118648417595244E1   9.610185790804404E1  -1.105603121865664E1   1.264967541399674E2  
 2.160005760000000E9    -1.129540895765608E1  -2.485937046819342E1  -7.061804511506172E1  -6.695643547460249E1  -5.989335872848948E1   1.120486187405405E2  -1.320114960576653E1  -1.049693212726706E1  
 2.190005715000000E9    -1.053957648212339E1  -1.403094821989286E2  -6.568396911951335E1   1.513829842276745E2  -6.460197776157038E1  -1.604149197260013E2  -9.920740449566811  -1.302345338797256E2  
 2.220005670000000E9    -9.946969552804161   7.945643547372792E1  -6.279057298364997E1   1.371231971360263E2  -6.277583003739070E1   9.873941963485460E1  -1.100038231570816E1   1.167865341588256E2  
 2.250005625000000E9    -7.005866355523097  -1.986778459964810E1  -5.877558424876876E1   9.994173573409279E1  -6.676459858633884E1   5.365124080638187E1  -9.803745259150126  -1.291943888152190E1  
 2.280005580000000E9    -9.295967203911062  -1.287229856405477E2  -6.436023473451253E1   1.270962195249963E2  -7.001522916448214E1   1.486521133617848E2  -8.926644668421110  -1.182712502981390E2  
 2.310005535000000E9    -8.011565975517227   1.043284203375359E2  -6.346550272386842E1  -1.385319402681076E2  -5.849941312782450E1   4.223574343956248E1  -1.025400893738747E1   1.124192854369193E2  
 2.340005490000000E9    -9.229273176762421  -8.307338649927235  -6.949419054231126E1  -1.201750259263571E2  -5.960687110562263E1   4.275139227154909E1  -7.875791987456628  -6.992140466419551  
 2.370005445000000E9    -7.930791010520036  -1.520221924246585E2  -6.547076800561064E1   2.660201421879921E1  -6.254767869430590E1   1.586475694253829E2  -8.451112351782724  -1.194388145564542E2  
 2.400005400000000E9    -6.229189519564612   1.095826911128736E2  -5.526457560682418E1   4.073085132165535E1  -5.842435757774326E1   7.525151121670515E1  -7.213834737889242   1.161930144413718E2  
 2.430005355000000E9    -6.613755871115974  -4.566638975244959  -6.423654570829433E1   1.437573885118850E2  -6.220319576557338E1  -1.641687895187785E2  -6.340142866645971   1.386252449729263E1  
 2.460005310000000E9    -5.474179861093195  -1.087029601967946E2  -5.558316618369283E1   8.152934573373278E1  -6.027449089902604E1  -5.803931584967160E1  -7.610876322240856  -1.054957270386118E2  
 2.490005265000000E9    -7.470687263586823   1.419974651063642E2  -5.926164756389513E1  -7.816578616538041E1  -5.974979678326584E1  -1.342248063465860E2  -6.277401858211074   1.354020354375422E2  
 2.520005220000000E9    -6.616265546463453   1.916113610536363  -7.721332181184329E1   1.699302385410474E2  -5.512498747754287E1  -1.031201751837887E1  -6.331301169150065   2.799978447700584E1  
 2.550005175000000E9    -6.239060502571938  -1.094431926071933E2  -6.239280757051343E1  -1.533699897556520E1  -7.675162964543775E1  -1.574479176574818E2  -6.375489564306464  -1.006198879724277E2  
 2.580005130000000E9    -5.803017824585321   1.267933749290566E2  -6.377838296563233E1   6.557354501075861E1  -6.458518666332014E1   8.267186112070898E1  -4.940477926410374   1.554543032570254E2  
 2.610005085000000E9    -4.249960214307887   3.305567192669894E1  -5.615680712313638E1   6.289574993753783  -5.447832090251871E1  -6.416968324553120E1  -6.051887761522270   4.385065858434609E1  
 2.640005040000000E9    -5.221590240212841  -7.055473749379370E1  -5.997733400769747E1  -1.156865002337371E2  -5.433682307336506E1   1.204932075299790E2  -5.181236775875641  -7.859325855035648E1  
 2.670004995000000E9    -5.362230036990286   1.687054124947637E2  -5.229557165095591E1  -4.137067583331646E1  -5.660158411924175E1   7.975648404128975E1  -4.539019698094764  -1.783999714067124E2  
 2.700004950000000E9    -5.753694222225987   5.446826583049547E1  -5.526517122216213E1  -6.769853767460157E1  -5.997479443096268E1   1.541053624101364E2  -6.078879948202533   5.800254292965000E1  
 2.730004905000000E9    -5.900026640994643  -8.427228480504216E1  -6.479693245521081E1  -1.059674167663818E2  -5.274711982979997E1   1.733158381685991E1  -4.445480583552626  -5.747547258420223E1  
 2.760004860000000E9    -4.264501707193293   1.746542316479768E2  -6.071373570766491E1   7.009585546642751E1  -6.102396986449347E1   1.354740769927827E1  -4.488641375401094  -1.593953605977214E2  
 2.790004815000000E9    -4.824441222822054   7.139037830067400E1  -6.143372004539263E1   6.910184027482596E1  -5.752336289265823E1   1.060190498942410E2  -5.373039591696410   7.649845792148473E1  
 2.820004770000000E9    -4.058385589866719  -3.756149129872206E1  -5.502502241827166E1  -5.567869125426446E1  -5.291606146795579E1  -8.645385296604161E1  -3.792226046671960  -2.656276492936203E1  
 2.850004725000000E9    -4.238306102259743  -1.351927968352875E2  -6.287246403758520E1  -5.609863790919503E1  -5.704365722690890E1  -2.762707236415414E1  -5.248889228318277  -1.366957729423475E2  
 2.880004680000000E9    -6.222250190200414   8.924217833154289E1  -5.933894556688132E1   1.697206978605105E2  -6.880468140522385E1  -2.329958018192022E1  -4.551069356542513   9.946270948479162E1  
 2.910004635000000E9    -4.433051132450533  -2.896990248805924E1  -5.962382492351789E1  -3.643579820567364E1  -6.588263655464988E1   1.730413116314015E2  -3.829199488558004  -1.545153192168485  
 2.940004590000000E9    -5.863900175996476  -1.503337715697728E2  -5.203742426154749E1  -1.708395453429064E2  -5.841331744980697E1  -8.270245348033281E1  -5.688857660834070  -1.260330280846742E2  
