!Keysight Technologies N9916A: A.08.06
!Date: Thursday, 30 May 2024 20:18:47
!Timezone: (GMT+10:00) Brisbane
!Model: N9916A
!Serial: MY53102361
!GPS Latitude: 
!GPS Longitude: 
!GPS TimeStamp: 0001-01-01 00:00:00Z
!GPS Seconds Since Last Read: 0
!CHECKSUM:1771145555
!Correction: S11(ON U)S21(ON U)S12(ON U)S22(ON U)
!S2P File: Measurements:S11,S21,S12,S22:
# Hz S RI R 50
30000	1.00002747992434	-0.000403176952756786	-0.000224408248743629	0.000204729377651703	0.000513012143805723	-0.000887633023856398	1.00016164726622	-0.000389607631198099	
30029850	0.997127101562613	-0.0100547310007614	-0.000131053691355539	0.0010029960440904	-0.000254513160744463	-0.000103056169226693	0.992802353049234	-0.00850722961030558	
60029700	0.988534330256992	-0.0233375006063568	0.00092542134628245	-0.00114463781163907	-0.000666654534063227	-0.000950490015826325	0.981001304783633	-0.0215165002117139	
90029550	0.991836645946143	-0.0374608929284794	5.91791057528288E-05	0.00114080571542891	0.00157826157769964	-0.000194686356646683	0.987403901566319	-0.0366682632749503	
120029400	0.997489019526816	-0.0518375822278571	-0.000348811352582204	-6.42379713651057E-05	-0.000311660710224853	0.000328197485321272	0.993863548488766	-0.0515817171566986	
150029250	0.996908593647949	-0.0580581476142254	0.00051653099546491	0.000430638043534203	-0.000111002402767281	0.000328489766358927	0.996821815255319	-0.0573637379493629	
180029100	0.991010586705823	-0.0684839080631493	0.000605799592638042	-0.000276207533062751	0.000454597324126482	-0.00010408748406019	0.990063252016572	-0.068765899084293	
210028950	0.9838271236221	-0.0847812364553511	-0.000374305610410027	0.00155640491074348	-0.000609604866889	0.000362238914645485	0.981636872686706	-0.0824938757995383	
240028800	0.987092395831962	-0.0989600834395217	-0.0011767833058703	0.00104836335640381	3.72230526552394E-05	0.000777593847261334	0.984972917924915	-0.0988757497493789	
270028650	0.99437734022451	-0.108593037598514	-0.000543749566253704	-0.000216904369713775	-0.000195778227242632	0.000691922445615901	0.995118402152289	-0.108804529512276	
300028500	0.992461428589227	-0.118195892669535	0.000129459481506701	-0.00055123187004849	0.000458232802043804	-4.97366948111582E-05	0.992470220224064	-0.117947598729977	
330028350	0.981727242805686	-0.128184880719659	-0.000109557159182631	0.000328058813007145	0.00087518970606359	-0.000218353140781339	0.977095076999643	-0.124229621718491	
360028200	0.977912951731296	-0.144062380943383	0.000822886580445785	0.00143970669561765	-0.000477963340334333	-7.69380705500096E-05	0.97309999171861	-0.14013353983381	
390028050	0.984154969969128	-0.157820851293746	-0.000680628437725583	-0.000142002930931488	-4.24683618051235E-05	0.000210163267070197	0.977247594590093	-0.158857943626906	
420027900	0.98680596744822	-0.167542219430117	-0.000149101645992082	0.000126442421284676	0.000646851999690867	-0.000570555671844625	0.987917456919902	-0.167891783758243	
450027750	0.979844600390186	-0.17431033287067	-0.000400070992100629	-0.000355522687273503	0.000614591147657475	0.000552588691073477	0.983241178673946	-0.174239837695621	
480027600	0.968225821816373	-0.190358994365154	0.00282778025416111	-3.78623918758607E-05	0.000567335518114036	-0.00131150131075247	0.971287555610139	-0.1859917317106	
510027450	0.965709821751589	-0.202631889675968	-0.000426344554802847	-0.00134953526619374	-0.00176393283478564	-0.00114961194692033	0.958014214023433	-0.199060391511969	
540027300	0.971914078399947	-0.215842562934934	0.000350812045429555	0.00100729124183286	-0.000506134669899651	0.000685005164498788	0.968138176741337	-0.212720186491739	
570027150	0.976169583664685	-0.225225116663281	-0.000104663726512586	0.000233217766863293	-0.00094067126223851	0.00041641566659258	0.974206617819388	-0.230252239227756	
600027000	0.965990683055429	-0.231734345908111	0.00140050938201074	0.000577958004773125	-0.00111878154065474	0.000254939872844646	0.965957883491875	-0.219581185612221	
630026850	0.955024468364694	-0.246147527637815	0.000638618156060136	-0.000977904594963677	0.000128979765125943	0.00123503816967635	0.952381648987825	-0.240974797583075	
660026700	0.955155195195453	-0.263123017205294	0.000164398924707315	0.000127066690405314	-0.00048355483879097	-0.000836664675672142	0.944488568805395	-0.260907268589592	
690026550	0.960169766898623	-0.273516781444381	9.44008775132975E-05	0.000846547571812214	0.000437947763780518	-4.83105050120909E-05	0.95239566482659	-0.274728205199934	
720026400	0.960687595194653	-0.284192367882851	0.000171761640990379	-0.000452535941363787	5.80012103118288E-05	0.000400423712626261	0.96012186594526	-0.283095401974628	
750026250	0.945584903878906	-0.289427802824087	-0.000495680952996644	1.65806523194361E-05	0.000565524052168859	1.18301657810644E-05	0.951875071921028	-0.287528760808052	
780026100	0.939287947149131	-0.304534807714709	-0.000424106194660794	-0.00182179954841666	-0.000610458460359932	1.24657947938296E-06	0.936291384069257	-0.29792988219556	
810025950	0.936788590596039	-0.318526491398249	0.00104719498557478	0.000661346613904711	0.00128572058274844	0.00119671030112764	0.929186582522411	-0.313131094349826	
840025800	0.945308340280345	-0.33121553412896	0.000645887590053999	-0.000204981793361868	-0.000270605379093568	0.000116622164940494	0.933028140703089	-0.331235418294255	
870025650	0.940868288209397	-0.336117555551192	-0.000171612303803101	-0.000331411057254679	-0.000691569845172907	0.000641088519936701	0.940722636581951	-0.342585785377116	
900025500	0.928385407918578	-0.347301590010346	0.000289821378331669	0.000983526609843149	0.000448859261236724	0.000436726548346537	0.931412509803196	-0.347801280253953	
930025350	0.916716625919144	-0.359798654825334	-0.00247179855444186	-0.0028866559719688	0.000411960529822128	-0.000630549040545953	0.917133133309904	-0.354366413230302	
960025200	0.921994207187064	-0.378947813950477	0.000648559947163587	0.000309848241867599	0.000275653797649408	-0.000374964019768022	0.909900732316497	-0.368904141972525	
990025050	0.923130195626322	-0.386579522619198	-0.000820192351807499	0.000779006616495491	4.4482025215406E-05	-9.01590925627403E-05	0.914853217420284	-0.385092332191203	
1020024900	0.916181454465731	-0.387128119894144	0.00070998613300478	0.00129856457585118	-5.49863495258684E-05	0.00118590195526901	0.920255913995353	-0.396525355836378	
1050024750	0.901291483955654	-0.403244184033083	0.000288591291233487	0.00119250512105748	-0.00145662390030841	0.000131818549072948	0.911966662126223	-0.39575780351844	
1080024600	0.892905186402389	-0.422769107228347	-0.00100236835521159	-0.000778822469387889	0.00216445345607478	-0.000749342545364465	0.892376208713646	-0.409046632199572	
1110024450	0.897665160001155	-0.431261862695179	0.000722575880302271	0.00168699691395556	-0.000427446201305916	0.000219678786009203	0.885595764217298	-0.424018591633809	
1140024300	0.902814279560098	-0.436264080216688	0.000232586036009966	-0.000330769155817181	-0.000386956957286429	-0.000959710351863725	0.89487996719448	-0.439833535209532	
1170024150	0.89192195912007	-0.445035966698906	5.71777378721462E-05	-0.000265662591693393	0.000821121217764507	0.000550238096344476	0.89428392300177	-0.447334093980666	
1200024000	0.874938318878231	-0.456957834883713	0.000299259031353343	-0.000804486495339327	0.0013481610119932	0.00041330085761322	0.883867735156647	-0.456973206714037	
1230023850	0.869803431983727	-0.471358384052666	0.000481176333658784	-0.000907248805219316	0.000569765113499727	-0.000731061642956381	0.871888439101678	-0.461306920853391	
1260023700	0.872981295742797	-0.485234077519906	-2.49911876068709E-05	0.000459819780505962	-0.000232077745812275	0.000798715914118032	0.855681666394908	-0.478494529392379	
1290023550	0.874213305146042	-0.488719470527607	-0.000752164944153067	0.00095436170745802	0.000465269804630505	-0.000237471743154226	0.863998591466312	-0.4947156869345	
1320023400	0.863762885500908	-0.500080563011826	-0.000299144574862012	-0.000366960465863361	-0.000305282699991935	4.19419984690987E-05	0.857872227978132	-0.511237756105779	
1350023250	0.84802180031961	-0.510604706879007	-0.00111583095149961	0.000886143219397114	-8.16347034768349E-05	0.00121676004415438	0.857082345286002	-0.500412626289804	
1380023100	0.845644534790029	-0.525562199487011	0.0009948290366954	-0.00162950658463321	-0.00121446776777659	-0.000760915340369484	0.839688651199537	-0.512168918269275	
1410022950	0.845223953776967	-0.538129164915279	-0.000283302789304773	0.000519812042326638	-0.000870205364906483	-7.38788750092613E-05	0.833212385468596	-0.530750913473277	
1440022800	0.842367109875983	-0.539230353150823	-0.000658384526659783	-0.000595647139721172	0.000262490854392753	-0.000699424700189541	0.837599559476632	-0.545047120752415	
1470022650	0.82836034354765	-0.548061525416285	-0.000740775083132254	-0.00049033381994841	-0.000507600161080406	0.000242115201476946	0.835001287457891	-0.552168776093452	
1500022500	0.81647357747054	-0.561089478201748	-0.000796503678258691	-0.000736512582076808	-0.000891027901902227	-0.000675035578393092	0.825415089131761	-0.556281806472876	
1530022350	0.813273716924111	-0.575551935841962	-0.00067765504925051	-0.000325587116100955	-0.000501007857683456	6.74357169100598E-05	0.811371779599116	-0.565995181949543	
1560022200	0.813192926886625	-0.586158644559162	-0.0021471406435338	-0.000266945923514161	-0.00170965756339246	-0.00024184166378188	0.802780488535181	-0.580282840297606	
1590022050	0.808210432981686	-0.597546999399005	-0.00156691809827984	0.000872931298303112	-0.00177114587349241	0.000968851201141398	0.803721961195752	-0.594641647049281	
1620021900	0.794581526723395	-0.597775815591699	-0.00182104764240735	0.00154772494437469	-0.000807106027328899	0.0012082531256519	0.802232552008317	-0.599206221574921	
1650021750	0.784364879261035	-0.611579285163908	-0.00126570409810962	0.0023981621950141	-0.000371709739146732	0.000176127166704092	0.790415438938703	-0.605213715588161	
1680021600	0.77906163940948	-0.625667218147821	-0.00113171515628297	0.000454032259142777	-0.000622579079664509	0.000333592803142531	0.775949643965681	-0.615003278878962	
1710021450	0.779028015727913	-0.628581009832676	0.000636666390578828	0.000441165905396392	0.00014474789374237	0.000398504872175085	0.769849912315358	-0.629225092927729	
1740021300	0.770670154980001	-0.638001348501329	-0.000444624662190476	0.00102469695287319	0.00019839711462945	0.000204120616051506	0.769665456652335	-0.64079933072609	
1770021150	0.758054598973822	-0.64569752665009	0.00013176356720849	0.000323770704926297	-0.000481757204116134	-0.000392027738195364	0.764535039411066	-0.647217463690815	
1800021000	0.747128779554678	-0.659068015510478	0.00039821516272674	4.19509749081898E-05	0.000289363812316133	0.000164598143591569	0.751281374033657	-0.652033082795334	
1830020850	0.746750453621321	-0.668314588463707	-0.000412233558867035	0.000396844882992269	0.000613722191715231	0.000207820646442375	0.738903411339365	-0.6636069295819	
1860020700	0.739603162881944	-0.674325517615797	0.000737177297195126	0.00021135651935872	0.000106105031539189	-0.000275322820273818	0.735469384330205	-0.677006552841787	
1890020550	0.729840278253422	-0.681269058608427	-0.000396210171424321	0.000701480840725414	0.000446200749167909	0.000616200301542738	0.731213652075687	-0.684890739452766	
1920020400	0.718805583416387	-0.688960655890777	0.000698221808217937	0.00082862268777469	-0.000176323613429663	0.000785361110377921	0.723834772168452	-0.690879419626446	
1950020250	0.711268018713418	-0.701946696654414	0.000393093363085586	0.000532988525307536	1.38467950303068E-05	0.000341377992384022	0.711431840873026	-0.69569780093398	
1980020100	0.70540262568641	-0.71176047234386	1.10456058936373E-05	0.000449506204048984	-0.000273097942005528	0.000377054600679375	0.698867420145733	-0.705834430746513	
2010019950	0.698695333221514	-0.715208671686774	-0.00113089869921998	-0.000529692055724062	-0.000248142974828212	-0.000569529566989927	0.695457328388318	-0.719650459658083	
2040019800	0.686925454012474	-0.721687214511356	-0.000430647291057522	0.000320543727206407	-0.00012392628584639	-0.000257692953649837	0.690799440603766	-0.725951303944069	
2070019650	0.673748713487696	-0.732807339823627	-0.000310715970701368	0.000109588977325038	2.54129214154491E-05	-0.000288300216469498	0.681995897817683	-0.730424904864722	
2100019500	0.669797758970381	-0.744206316120934	-0.000216966387599903	-0.000392793971334215	1.94176405813767E-05	0.000249953955972698	0.668165090667613	-0.736975537748798	
2130019350	0.663505197767455	-0.751015269034254	-0.000102115635323471	0.000456053178219354	0.000505758275853965	-0.000136856941483742	0.657737250909761	-0.748896679861179	
2160019200	0.65318090577374	-0.753282713475927	0.000254832585566424	-0.000457359205360572	0.00025072542294588	0.000275524712473981	0.655091356008908	-0.759054051540117	
2190019050	0.638838339282194	-0.761730808002956	-0.000402230498026546	0.000811223902857217	0.000180709959834407	-0.000236521105713537	0.646227152721855	-0.765386139790385	
2220018900	0.630625472583996	-0.773501755075139	-0.000835485608687873	0.000256323135262596	0.000795752509406776	-2.22522326044918E-05	0.635345576057211	-0.769180363216755	
2250018750	0.627443494591795	-0.781787203036654	0.000647543152544107	0.000874953574431663	0.000279190403981359	0.000124476259854319	0.621861318825849	-0.776683173335192	
2280018600	0.618556677230061	-0.78314721895148	0.000656427155188356	-0.000379955613542514	-0.000133369127030843	0.000538677587836797	0.61432228384194	-0.787419010520053	
2310018450	0.604125419374598	-0.79079164390303	-0.000303632739122264	-0.000171381551577509	-0.000317523354877086	0.000485210650254447	0.607134483694648	-0.79635374427015	
2340018300	0.591401070457079	-0.800632379368144	-0.000152051258694065	0.000481227880831772	5.44439418107917E-05	0.000131523733997325	0.600645753973874	-0.796309989715498	
2370018150	0.582290689440632	-0.811723173455172	-0.000145257068455642	0.000701881272642704	-0.000818415792398174	7.03075032569238E-05	0.587123817042717	-0.801674962551674	
2400018000	0.578638350623359	-0.816035178226803	-0.000929445518872027	-0.000733098903297354	0.000226650168870946	0.0010654076616308	0.57490885538319	-0.812252223904468	
2430017850	0.569280918887887	-0.825821280646363	-1.56917411831378E-05	0.000347178225981338	-0.000816547699273492	6.00752938755571E-05	0.563536688379012	-0.82152286188219	
2460017700	0.550989285078985	-0.825710980896761	0.000195732984944806	0.00014855696441984	-9.50989777288659E-05	0.00013441038269409	0.563468016424283	-0.827782038967679	
2490017550	0.540587727778686	-0.836808756764503	-0.000304766090111273	-0.000631285098562083	-0.000720307795717284	0.000476324211036646	0.550391237429947	-0.829391912329267	
2520017400	0.534906728050197	-0.846610153247538	-0.000461025110395943	0.0010783362808554	0.000545519141459768	-2.44480538793199E-05	0.53557702905474	-0.832441556173967	
2550017250	0.532058555549919	-0.847808235342238	-0.000282272980806843	0.000318237614896856	-0.000655367230257237	0.000225233681961599	0.523854970631672	-0.847108047953239	
2580017100	0.514587922108581	-0.848565183133399	-0.000264040294466125	0.000531284935180474	-0.000302811033865577	0.000105393546048011	0.512193928444434	-0.855781012599545	
2610016950	0.495769398225894	-0.857745272410068	0.000512483168340774	0.000681352506699073	0.000833081343470881	0.00092247375267273	0.510444556207387	-0.859150955107215	
2640016800	0.489633552032258	-0.868975475226265	0.000344730031517612	0.000732987217010267	0.000604748066907512	0.00121090551649885	0.500009988758076	-0.855560358705255	
2670016650	0.479925630930369	-0.881159368826787	0.000128681358054405	3.84904846695406E-05	0.00101789007434999	0.00102582285162766	0.481395901202304	-0.859947028816155	
2700016500	0.481582360384959	-0.870006224155125	0.00126542543496155	0.00141396977781997	-0.00126403265021163	0.0012390265179095	0.473740170226967	-0.874269980351898	
2730016350	0.456502259211637	-0.870828021908222	-0.000847205636803632	-0.00144758202841047	-0.000337257007142298	-2.00261785043503E-05	0.463232545693246	-0.884864832935715	
2760016200	0.437147805746546	-0.88234457644748	0.000536108561934747	-0.000184214821516599	-0.0016051488570135	-0.000564278976734718	0.45923997496252	-0.88729954084915	
2790016050	0.438493477552818	-0.897435266303446	-0.000795177250813301	-0.000494490041401724	-0.00226533631091054	0.0017173709063376	0.446432571561892	-0.881567463382825	
2820015900	0.433139878172237	-0.907366848324726	-0.000820348819776155	0.000265157021364785	-0.000517142586748335	0.000150606658951034	0.42768347794962	-0.882539113726049	
2850015750	0.425713342372575	-0.902103309139354	-0.00259988735422614	0.00109912906186088	-0.000180352152643354	0.000107828281640381	0.413209300688629	-0.896765488143742	
2880015600	0.399275516469705	-0.894623703699147	-0.00310859217054774	0.000594834666415046	0.000335446307670529	-0.00137794132871212	0.412303832244544	-0.911305987046756	
2910015450	0.382365919106113	-0.918635582754167	-0.000637859987857664	-0.000174853373707924	0.000541895931506737	-0.00144375866036032	0.409441269577878	-0.910966465551078	
2940015300	0.349864994597631	-0.920945251716278	-0.000222021023231916	0.00146300243267418	-0.000548499738033884	0.00303205559190358	0.3787747040809	-0.919710634508048	
2970015150	0.386340758364693	-0.912715834807816	-0.000595624590423143	5.48357428940868E-05	0.000538526147141147	-4.90682124179131E-06	0.371682905767022	-0.906960227893382	
3000015000	0.371611079745637	-0.916867033215608	-0.00134888009832099	0.00406558858340268	0.00208797359678475	-0.000123494496729904	0.362157150703524	-0.925221728023175	
3030014850	0.340330899553214	-0.924947592107901	-0.00137616794531432	-0.000558043057357336	-0.000197517600744155	0.000693101607627258	0.355991184594772	-0.931839580209101	
3060014700	0.31243270765478	-0.934280497589186	-0.00297364737012492	0.00289835683512688	-0.000194468276409843	-0.00240140648637948	0.344195942850754	-0.934677108050601	
3090014550	0.336826367020345	-0.942578254179226	-0.00158514734795724	0.000351642375143353	-0.000302792865224171	0.00209986512013712	0.330985164968412	-0.930827774800937	
3120014400	0.331799751266666	-0.948140918674791	0.0024907000672574	-0.00271836918249585	-0.00365807306693625	0.00272023707994921	0.316189772000701	-0.929318201475113	
3150014250	0.310604109672708	-0.947204107837956	-0.000868013149405471	0.00187815582962113	-0.00122834274867851	-0.00146593002297956	0.301783304820422	-0.939514389895865	
3180014100	0.273925107919653	-0.939883089561491	-0.000851483074114539	-0.000382260994431812	0.00178975115578146	-0.00104376211203478	0.301320384005312	-0.947375013773497	
3210013950	0.258538620192036	-0.956043553092248	-0.000453765103403145	0.00300958685561776	-0.0034743256114787	0.00101168230195214	0.299384962687064	-0.94719483216373	
3240013800	0.272987032752971	-0.967824421688571	-3.68519369063566E-05	-0.00302070680295614	-0.00184809712361851	0.00199020413149853	0.273614387221367	-0.938778300330299	
3270013650	0.273718854320661	-0.96125013209977	0.000790032148074511	0.00178569805805059	-0.00453738611841364	0.00138522662021814	0.256312684119538	-0.945128698021202	
3300013500	0.249732821676063	-0.978878541511574	0.00287322331013102	-0.00473988168766592	-0.00153171208926399	-6.15125215701132E-05	0.225454138361771	-0.937509350198575	
3330013350	0.208419650198184	-0.945476405320922	-3.35843287771227E-06	-6.03548715729841E-06	0.00169200590512252	-0.00224771004616157	0.252557453187957	-0.978221210037169	
3360013200	0.186960061281298	-0.981364753673627	0.00548501040259244	0.00302593506209899	0.00179337487813743	-0.0019241398680784	0.241738729215878	-0.967213920912457	
3390013050	0.187134452041445	-0.994902894720121	-0.000590345984963979	0.00402687042039226	0.00370141148354686	0.000315091189437588	0.220015534440194	-0.956283952596806	
