#  HZ   S   DB   R     50.0 
! Rohde & Schwarz ZVL13 2Ports - Version 3.20 - 1303.6509k13 SN: 100953
! Date: 2024-10-09 07:55:16
! Data & Calibration Information:
! Trc1:S11(TOSM) Trc4:S21(TOSM) Trc2:S12(TOSM) Trc3:S22(TOSM)
! 
! 
! 
 9.000000000000000E3    -1.314180453247332E-2  -1.798426614423799E2  -4.805659785182793E1  -4.577305970003076E1  -6.045356375739109E1  -4.904853897352600E1  -1.122035130609122E-2  -1.798909633047707E2  
 3.000895500000000E7    -4.577146346712527E-3   1.798412679367177E2  -5.965951406837558E1   1.781844076944861E2  -6.634216420209135E1  -1.196031900330267E2  -9.225297044962098E-2   1.796459827288105E2  
 6.000891000000000E7     1.143036065688130E-1   1.790099067151419E2  -5.091463416754849E1   4.236417487157090E1  -6.035278820480215E1   2.031134495172264E1  -1.049756623060004E-1   1.796706802651540E2  
 9.000886500000000E7    -4.638890171772341E-2  -1.794526612134617E2  -6.196783034068452E1   1.190696620687134E2  -6.680731029562048E1   1.185468465501978E2   4.663182597922800E-2   1.791751651900076E2  
 1.200088200000000E8     5.703702362109679E-2   1.790065925448382E2  -6.920443637752587E1   1.506303104652441E1  -6.471749852747000E1  -1.136535282925409E1  -1.931498787801543E-1  -1.795078965811908E2  
 1.500087750000000E8     1.737529997046079E-2  -1.799565995895862E2  -5.012772596224505E1   1.655400346418149E2  -6.549220016068988E1  -8.496264957303458E1   5.880873632305483E-2  -1.796109835222549E2  
 1.800087300000000E8     8.659572515661811E-4   1.794142816869616E2  -6.153193022811903E1   1.475878615525928E2  -6.870643614984594E1  -1.179245173780379E2  -1.161893522886190E-1  -1.797660328930866E2  
 2.100086850000000E8    -5.863147432439646E-2   1.790371805334194E2  -5.473968970633786E1  -8.766470676647745E1  -5.884940048595399E1  -3.215190210670813E1  -7.410731331788503E-2   1.791057494598872E2  
 2.400086400000000E8    -3.203057443622566E-2   1.796227476133162E2  -5.966884625837308E1   8.938500192819778E1  -6.150228982169178E1   1.196866307744984E2  -2.980164437913482E-2  -1.798695723967782E2  
 2.700085950000000E8     1.344678459238203E-2   1.795609971685381E2  -5.325912442319355E1  -1.521929751739427E2  -6.401215831136517E1   5.815319102548498E1   1.077190132274812E-1   1.799991236768295E2  
 3.000085500000000E8    -7.248069068403129E-2   1.794337414020347E2  -5.589235744973832E1   1.196180594128292E2  -5.825537423065210E1   1.308144521108989E2  -8.378770153533371E-2   1.792383573812966E2  
 3.300085050000000E8    -1.204748559243372E-1   1.794998637645368E2  -5.767117049715855E1  -7.585529283078969E1  -6.033912108084326E1  -3.629020575833831E1  -4.658406337572220E-3   1.793323353238428E2  
 3.600084600000000E8    -1.242974203804462E-1   1.794502846589133E2  -6.101713467485535E1  -1.657118725167240E2  -7.591869902101161E1  -1.621904804934277E1  -5.935453795491012E-2  -1.785574954072251E2  
 3.900084150000000E8    -5.432595990395973E-2   1.785705875792489E2  -4.869799773340267E1   1.468828843594732E2  -6.525267528317201E1  -8.015558149718657E1   1.361910484053446E-2   1.792481804163776E2  
 4.200083700000000E8     1.156577990284675E-1   1.787409864435308E2  -5.633293319050475E1   1.468407717241538E2  -5.962981476905085E1  -1.136672347212303E2  -7.891495059282727E-2  -1.790537411541658E2  
 4.500083250000000E8     6.438294370072778E-2  -1.796015001351519E2  -4.518305746847476E1   1.789336657739501E2  -5.915625015755128E1   6.526038186322180E1   1.058831240223863E-1  -1.795737244942114E2  
 4.800082800000000E8    -2.086873325210488E-2  -1.797274106296161E2  -4.932268127285750E1   1.785641996209116E2  -6.452124427921916E1  -3.523852913453125  -2.461217726818816E-1  -1.796083076687996E2  
 5.100082350000000E8    -1.595806019351838E-2   1.797578719169453E2  -5.700761982689554E1  -1.135768352088320E2  -6.300644027283919E1   5.298463430219262E1  -4.642203946095613E-2   1.788226973742250E2  
 5.400081900000000E8    -2.493536038830324E-1  -1.796563781278864E2  -4.440664830890601E1   1.652398124906214E2  -5.569475849105344E1   2.756743393660519  -8.738315840542490E-2  -1.794073972647232E2  
 5.700081450000000E8    -1.672567590834441E-1   1.789200908058198E2  -5.103630975566760E1   1.499834757162996E2  -5.504321364465154E1  -3.140534357697442E1   7.703955279963431E-2  -1.797901836770427E2  
 6.000081000000000E8    -9.581240967153966E-2   1.796545072481187E2  -4.845053086153316E1  -1.761772010420990E2  -5.420048605739758E1  -3.473863419936596E1   3.284067713717842E-2   1.791893840538238E2  
 6.300080550000000E8     2.828952515778253E-1   1.791384086290969E2  -4.526843498679266E1  -6.501339729133318E1  -6.426608177052489E1  -1.431802555877733E2  -5.941824944028318E-2   1.792910824642264E2  
 6.600080100000000E8    -4.995144711686284E-2  -1.797256248772286E2  -6.514307177014314E1  -1.503886682298704E2  -5.853183939195898E1  -1.580724917830229E2   2.053069833203157E-1   1.794953860619222E2  
 6.900079650000000E8    -1.428414837191565E-1  -1.798737858529819E2  -5.797907001516046E1   4.751783669450328E1  -5.674113400953408E1   1.598369855792077E2  -9.773222858766956E-2  -1.792721562932657E2  
 7.200079200000000E8    -2.407750219310663E-1   1.792902111966569E2  -6.407744350326721E1   1.393465107262567E2  -6.625630340260022E1  -4.925084510445383E1  -1.116011985472026E-1  -1.799519989307085E2  
 7.500078750000000E8    -3.288560821225622E-1   1.798561577978802E2  -4.958403057565022E1   8.031248646741156E1  -6.583824458661512E1  -8.752958099279805E1  -6.520062592270982E-2  -1.793962958549082E2  
 7.800078300000000E8     1.421960069621156E-1   1.782895244768805E2  -6.049563223561788E1  -1.224105707955902E2  -5.894756475809192E1   5.377455302319020E1  -5.389070657313148E-2  -1.794646777308030E2  
 8.100077850000000E8    -3.972681915682027E-2   1.791508832040012E2  -4.844041391702611E1  -1.268034995265631E2  -6.305761658764518E1   1.725138880954296E-1  -4.334714954057242E-2  -1.799358668532823E2  
 8.400077400000000E8    -1.497433563195080E-1  -1.799356708761958E2  -5.739338689375723E1  -4.890660930828875E1  -6.016690875175825E1   1.704715541753091E2   2.252100709109486E-1  -1.790649782761759E2  
 8.700076950000000E8    -1.999833469759783E-1  -1.793349755254889E2  -4.555418242903751E1  -1.652664626530963E2  -6.494305259575430E1   6.723045790434919E1   4.786417303676193E-2  -1.795681580165314E2  
 9.000076500000000E8    -9.163866699961594E-3  -1.791415961974394E2  -4.893740053655603E1  -7.911652311566823E1  -5.120708967085610E1   1.407010389241798E2   9.211017117668349E-2  -1.791283876516762E2  
 9.300076050000000E8    -9.918138426091202E-3  -1.796678617574503E2  -4.404410259593112E1   1.497135780468700E2  -6.528392513161440E1  -1.618692175717188E2   7.907888810319454E-2   1.790177037985970E2  
 9.600075600000000E8    -7.273240177791830E-2   1.785325581191251E2  -4.436383624847110E1   6.948313916509505E1  -6.064257152283065E1  -4.420017267961310E1   3.241578536051455E-1  -1.799304715857354E2  
 9.900075150000000E8    -1.055102973109176E-1  -1.797657190224445E2  -4.739606521530876E1   1.098989772304935E2  -5.662648139531559E1   1.725019538617001E2   4.779955299548596E-2  -1.795670340060320E2  
 1.020007470000000E9    -6.663371280507895E-2  -1.797526178657205E2  -4.815528192709950E1  -4.716347014307875E1  -7.372260986749505E1   1.358096593221293E2  -5.381433903057065E-2   1.796301718208446E2  
 1.050007425000000E9    -1.226075379096428E-1   1.790026239656905E2  -4.778296644067471E1   7.016996817760439E1  -5.818460652412690E1   6.593581587183337E1  -3.696188756024323E-2  -1.796487003846639E2  
 1.080007380000000E9    -2.548186485013441E-1   1.793077425051434E2  -5.595509002369285E1   1.046960939298737E2  -6.332125083842940E1  -2.247577106564026E1   7.595379272902152E-2  -1.797917942815208E2  
 1.110007335000000E9     1.997039462280655E-2   1.788406850544267E2  -4.414535720757828E1   8.823873761342942E1  -6.729778089645527E1   2.685996278305687   6.053443709970778E-2  -1.798728757628255E2  
 1.140007290000000E9    -8.513573184153855E-2   1.795386839296660E2  -5.551736029019192E1  -1.697056701317122E2  -5.447463226570613E1   1.594461779587710E2   1.828903186590728E-1  -1.785739449497733E2  
 1.170007245000000E9     2.053487819670136E-1   1.796369294133422E2  -4.028548758488815E1  -9.320049877268959E1  -5.287527682689544E1   7.634028229821611   7.696044723314351E-2   1.797884858019299E2  
 1.200007200000000E9    -1.174360989939259E-1  -1.786209664703045E2  -4.105084313461666E1   1.862567523437522E1  -5.224338288396643E1  -4.400396480106326E1  -1.892309120433676E-1   1.798599051437516E2  
 1.230007155000000E9    -2.305368254319395E-1  -1.789519070027233E2  -4.503702490534275E1   4.328958817969212E1  -5.320828689928396E1  -1.601967176370755E2   8.849418987299958E-3   1.797966324978539E2  
 1.260007110000000E9    -3.214691969550292E-1  -1.798234330913368E2  -4.339757225677116E1   1.092745677901994E2  -5.636290565586830E1  -1.478234974865268E2  -7.118014223717742E-2  -1.788336101525088E2  
 1.290007065000000E9    -3.156338281788197E-1  -1.794276563828427E2  -5.309381229125656E1  -7.032665440884193E1  -4.642667571557057E1   3.003206964508802E1   6.965681740241142E-2   1.787060791298374E2  
 1.320007020000000E9    -9.490731377931018E-2  -1.781001866344499E2  -4.277788445480969E1  -1.304487517819197E2  -5.596609569011207E1  -1.291831826940519E2   3.330033257909725E-2  -1.796431435077483E2  
 1.350006975000000E9    -1.694830533733577E-2  -1.788532881448666E2  -4.001021523719785E1  -5.372318224840510E1  -5.264404276507478E1   7.692956615447457E1  -1.236145125501517E-2   1.786616609501054E2  
 1.380006930000000E9    -7.531958201490785E-2  -1.790664875850625E2  -4.457097313650022E1  -6.851206637033845E1  -5.187866930651504E1   9.510682527325308E1   2.195434052328169E-1  -1.796723343025262E2  
 1.410006885000000E9     7.196723685268924E-2  -1.796444757904367E2  -4.064770297145881E1  -8.722414328844806E1  -4.812735967658875E1  -9.227618127650443E1   5.416401639601553E-2   1.796399693772834E2  
 1.440006840000000E9    -4.408697088659757E-1   1.799136095853295E2  -4.574324245641866E1  -1.135551942888149E2  -5.235237339015376E1  -1.040732221619277E2   2.987428434213105E-2   1.795063006806819E2  
 1.470006795000000E9    -2.466518509828928E-1   1.775629156257072E2  -4.913515964881734E1  -6.231552558449202E1  -4.397962034508776E1   1.121324816539234E2   1.385779598721072E-2   1.799695877486435E2  
 1.500006750000000E9    -2.437903641581061E-1   1.799790198242050E2  -3.669612832043116E1   1.379118570343211E2  -6.050090604131889E1   9.133085465703285E1   4.240289708179719E-1  -1.779781185409419E2  
 1.530006705000000E9    -2.942554645343257E-1   1.796639467973561E2  -4.729943470516180E1  -7.437004128492812E1  -5.251684528478694E1   1.363026341278784E2  -4.346782350565858E-1   1.794616422731865E2  
 1.560006660000000E9    -1.971869381002283E-1  -1.798909944811789E2  -4.029221016607757E1  -1.477007905817289E2  -4.573660542571304E1   1.565569511880712E2  -1.333241137045232E-2   1.792535578796894E2  
 1.590006615000000E9    -4.095778276576507E-1  -1.763288024075944E2  -5.804770191540258E1   2.268948627237517E1  -3.939059148353886E1   1.024511327786068E2   5.136593807852839E-2  -1.781606453640731E2  
 1.620006570000000E9    -5.914141469439764E-1  -1.785953392511644E2  -4.037766306078636E1  -8.006691778812990E1  -3.984603607941170E1   2.168674440364727E-2   2.697991235224205E-1  -1.797258407733353E2  
 1.650006525000000E9    -5.280844868823909E-1   1.785530827162028E2  -4.222372768465100E1  -2.251435428750134E1  -5.324816962787600E1  -6.943795642730919E1  -2.276792696231594E-1   1.798607951268855E2  
 1.680006480000000E9    -8.884838229296939E-2   1.789840063403175E2  -3.833948377206368E1   1.192104717177653E2  -6.218202586331350E1   7.055435959746326E1   8.811541415838742E-2   1.798138821790428E2  
 1.710006435000000E9    -9.708560021334792E-2   1.773899252196610E2  -3.828121771848238E1   4.561866345455595E1  -4.866996810880787E1   1.371118109075194E2   7.810767842140950E-2   1.790676817341380E2  
 1.740006390000000E9     8.264834227850060E-2  -1.787645845909406E2  -3.316872062862028E1   1.572953086651598E2  -3.843927776600929E1  -7.126740536913489E1   5.242181140985124E-1  -1.786378561649384E2  
 1.770006345000000E9    -1.726393379970614E-1  -1.751335269225581E2  -3.307295210892343E1   1.486071375845636E1  -6.682706860215173E1  -4.331193881840174E1   1.036020831091645E-1   1.778137536168894E2  
 1.800006300000000E9    -6.591238247232870E-1  -1.766527801561917E2  -4.604112930768233E1   1.042124318812015E2  -3.437657256421029E1   3.019317356658831E1   7.293058889226939E-1   1.773666873001875E2  
 1.830006255000000E9    -4.554652389280672E-1   1.795858539590421E2  -4.256084617412539E1   8.527299378247227E1  -5.482576137824410E1   1.108816843662746E2   6.489148237838389E-2   1.782662045337571E2  
 1.860006210000000E9    -7.682021368797573E-1  -1.792929231689868E2  -4.001483017359205E1   1.145089918415651E2  -4.259612948871713E1   3.534696709036508E1  -9.597913010165428E-2  -1.780807579023486E2  
 1.890006165000000E9    -2.094874406203877E-1   1.774281480263285E2  -3.552010385857930E1  -3.275712293061584E1  -3.889597157961280E1   2.858328860579794E1  -9.877940972335765E-2  -1.758574841336142E2  
 1.920006120000000E9     4.183079442323678E-2  -1.780547480324501E2  -3.211751925091698E1  -6.845143953361743E1  -4.013294566881523E1   1.562630181552750E2   8.619857473804754E-2  -1.796877601137419E2  
 1.950006075000000E9    -3.694410964842298E-1  -1.767154305076035E2  -2.861421176110748E1  -1.753296926433113E2  -5.067068939255474E1  -2.614418110055089E1   7.081781183327816E-2   1.790986057157514E2  
 1.980006030000000E9    -7.983976312524957E-1  -1.744430279396155E2  -3.919054419002162E1   1.326588129774785E2  -3.259417837267652E1   2.830195664441082E1   3.115264776196498E-1  -1.794802948957123E2  
 2.010005985000000E9    -8.735413169603310E-1  -1.794047168465131E2  -3.437971371485458E1  -6.789626578887530E-2  -4.028797680373188E1  -1.151035256544154E2  -3.680780787185096E-1   1.795894326384077E2  
 2.040005940000000E9    -1.287699593582784  -1.758006874570979E2  -2.882146048366336E1   5.175527143895370E1  -3.859793993493277E1  -8.858702913507395E1  -2.185256986950460E-3  -1.789568912994581E2  
 2.070005895000000E9    -3.789976254230923E-1   1.785398627097667E2  -3.716821260427635E1   2.748529444791600E1  -4.080597367729864E1  -5.803251734614364E1  -4.943055866404716E-2  -1.761808360391910E2  
 2.100005850000000E9    -9.189886928816607E-2   1.777314282367444E2  -3.520282876708161E1  -2.654479557321207E1  -3.963787780966690E1   1.103191341958692E2  -5.523064261697975E-1   1.796822349463523E2  
 2.130005805000000E9    -5.310527501799189E-1  -1.740489903404240E2  -3.295186639727017E1   1.305544526557790E2  -3.223879498018528E1   8.461554938312635E1   1.193926538243410E-2  -1.788116934164597E2  
 2.160005760000000E9    -4.307319258731444E-1  -1.762097709263731E2  -3.763981038528615E1   1.319616325683455E2  -3.404164470256927E1  -1.667716052520505E2  -5.455237988142644E-1  -1.768834561766979E2  
 2.190005715000000E9    -7.075212264252334E-1  -1.738047332920328E2  -3.511691434768734E1   9.716750495896352E1  -3.976449311674406E1  -5.259800700537130E1  -6.323417289551501E-1  -1.789805079505016E2  
 2.220005670000000E9    -4.352590900780705E-1  -1.771160256762882E2  -3.835976102549991E1   7.895964435766150E1  -4.759507308700919E1  -1.564855979989545E1   1.201117830544601E-1   1.753391146205144E2  
 2.250005625000000E9    -3.121197273543030E-1   1.798507144896545E2  -3.000802224795987E1   5.391785926121526E1  -3.575393020609610E1   3.566480442305539E1   6.651541855061237E-1   1.796216426660601E2  
 2.280005580000000E9     2.615673477833294E-1   1.753764018065048E2  -3.383032481033397E1   4.500221834925600E1  -3.539298418894984E1  -1.286691950272127E1   6.106495105943151E-1  -1.782048661321409E2  
 2.310005535000000E9    -1.290807246268464E-1  -1.782856414955764E2  -3.568995632776709E1   3.164044004140472E1  -3.870858959587500E1  -1.250595207113730E1   3.517043359371464E-1  -1.783818274193542E2  
 2.340005490000000E9    -3.055687511466916E-1  -1.798907418169827E2  -3.703442730061916E1   1.108105224779877E2  -3.882074764450061E1  -4.638243228426025  -3.639757091421131E-1  -1.789875439894291E2  
 2.370005445000000E9    -3.342192360392890E-1  -1.726064342362338E2  -3.630574063835851E1   1.206774679368665E2  -3.431520475706474E1  -7.089200738856346E1   4.868268717881398E-2  -1.754168083987190E2  
 2.400005400000000E9    -1.984564383571467E-1  -1.760198582343365E2  -3.296216415200980E1  -7.942454647360107E1  -3.848761078454355E1  -1.780917152248652E2  -2.720563333995009E-1  -1.774399240597092E2  
 2.430005355000000E9    -7.764397774475116E-1  -1.784500170918417E2  -3.010689843156181E1  -3.042482528149520E1  -3.711018516020778E1   4.129910783944946E1  -2.712160306387156E-1   1.792442781825920E2  
 2.460005310000000E9    -6.349588440708499E-1   1.789937464403295E2  -2.988536525853349E1   1.845179258501568E1  -4.443414447233196E1  -1.408345341709236E2   6.951927057248609E-2  -1.774923900184150E2  
 2.490005265000000E9    -2.261107223414097E-1  -1.753853798769646E2  -3.336594745026342E1  -5.592479002998035E1  -3.014321055207078E1  -3.205037648859069E1  -7.698763864033628E-2  -1.773082572261263E2  
 2.520005220000000E9     4.638907186681308E-2  -1.739306943122010E2  -2.980065547742407E1  -2.115480406456209  -4.366256944103547E1  -7.554785746358721  -6.870931605101661E-2  -1.769995565262130E2  
 2.550005175000000E9     5.041768020258761E-1  -1.775037088537909E2  -2.777658384785251E1  -7.367622913600836E1  -3.577626590937905E1   4.379436321392099  -2.835516852831729E-1  -1.798385467602489E2  
 2.580005130000000E9    -8.839827497105750E-1  -1.721431159778707E2  -3.394893975513077E1  -1.523336340186877E2  -3.307147948913686E1   1.366302413502760E2  -4.549712602137847E-1  -1.761162970335308E2  
 2.610005085000000E9    -6.623249905089457E-1  -1.787169728455031E2  -2.730274112297070E1   1.112854873787252E2  -4.297464829783939E1   4.087542957696948E1   1.287955877559500E-1  -1.774129748536649E2  
 2.640005040000000E9     5.179810348771760E-2   1.755002786878069E2  -2.895012058605870E1  -1.345299847305681E2  -3.772860727180692E1   4.260072197886472E1  -7.371479722259796E-1  -1.736101300793647E2  
 2.670004995000000E9    -8.130987067504358E-1  -1.788786971533072E2  -2.975780795024172E1   1.406236673201452E2  -4.246064466786073E1  -1.404514430768560E2   9.087284067541344E-1   1.789158194890154E2  
 2.700004950000000E9     2.532644723406085E-1  -1.769906663101667E2  -2.667754704557715E1  -1.093888101851774E2  -3.551641824496905E1  -9.764283805278994E1   5.447834044170941E-1  -1.777243195203064E2  
 2.730004905000000E9    -5.340751159855681E-1  -1.651825998724160E2  -3.820178550670065E1  -1.718791455427144E2  -3.111998318189578E1  -4.803121445611919E1  -8.041070661290750E-1   1.797578581095838E2  
 2.760004860000000E9    -8.243215010252880E-1  -1.740921286526143E2  -2.505047176171996E1  -1.998857747120936E1  -2.939891767231989E1  -9.829899882061575E1   2.731405475073487E-1  -1.780180578946986E2  
 2.790004815000000E9    -1.008251832348897  -1.737824499729064E2  -2.936412425926424E1   1.433454286819546E2  -4.047758559944180E1   5.058885298070009E1  -6.238622271193862E-1  -1.768702023238838E2  
 2.820004770000000E9    -6.738306578089222E-1   1.794025671685510E2  -2.701015029462970E1  -4.150344498679885E1  -2.786487795399470E1  -1.306174788539634E2  -6.082430277570128E-4   1.792599956029083E2  
 2.850004725000000E9    -3.664420374221198E-1   1.774355307013132E2  -2.595243604274926E1  -1.950854930676067E1  -3.138540234666571E1   4.481535827122931E1  -3.754252673948950E-1  -1.773477308908252E2  
