#  HZ   S   DB   R     50.0 
! Rohde & Schwarz ZVL13 2Ports - Version 3.20 - 1303.6509k13 SN: 100953
! Date: 2024-10-09 07:55:46
! Data & Calibration Information:
! Trc1:S11(Cal Off) Trc4:S21(Cal Off) Trc2:S12(Cal Off) Trc3:S22(Cal Off)
! 
! 
! 
 9.000000000000000E3    -3.466317733571786  -1.762364551534888E2  -6.337019331008363E1  -2.498295218838204E1  -6.330697716388713E1  -5.782074956382436E1  -4.306441024698261  -1.763820708381296E2  
 3.000895500000000E7    -4.621198741042318   6.436984636575312E1  -6.001181399320949E1   3.876465342550045E1  -6.665112772454768E1   8.565651195544020E1  -5.343435465147517   6.434933408995966E1  
 6.000891000000000E7    -4.663864877427780  -4.904058939435572E1  -6.066944678484219E1  -1.817088700729398E1  -5.575441189701154E1   6.419515693585872E1  -5.476681854698702  -4.948305812591057E1  
 9.000886500000000E7    -5.253325835014672  -1.638120720174618E2  -5.800866658514945E1   1.723836431337965E2  -5.831938856066546E1  -1.159195936381293E2  -5.882566554876907  -1.632497570705250E2  
 1.200088200000000E8    -5.219979176442307   7.837369449492171E1  -6.633907316783427E1  -2.186791952557550E1  -6.472888775189566E1  -2.951745423183882E1  -5.805470753298088   7.707354365763243E1  
 1.500087750000000E8    -5.263050120186144  -3.669930177042220E1  -6.311762669634121E1  -6.060899690682854E1  -6.435486790365665E1  -4.448693476066335E1  -5.617863339494660  -3.631425260300457E1  
 1.800087300000000E8    -5.304205235306873  -1.532576318121384E2  -6.753267216951896E1   1.151749581380879E2  -6.518041783880059E1  -4.360643634227202E1  -5.864524065259146  -1.504215313371774E2  
 2.100086850000000E8    -5.333513600652611   9.659051788821631E1  -6.122171402646987E1  -1.364801022822291E2  -6.545174669470424E1   1.675156403293618E2  -5.813507925837357   9.689320193028560E1  
 2.400086400000000E8    -5.313118816834503  -1.657868738743563E1  -6.256742497661178E1  -1.417264801685219E2  -6.225995958827088E1  -3.587100307477632  -6.038821180319551  -1.558955113626870E1  
 2.700085950000000E8    -5.561908112321463  -1.300335230518469E2  -8.863210727388503E1  -1.362993216005697E2  -6.474170927514894E1  -6.714828940618308E1  -6.182892203625897  -1.318862172562473E2  
 3.000085500000000E8    -6.156623610044280   1.145745389053954E2  -6.314549640994827E1  -1.138230034075414E2  -7.409086342803138E1   8.342981146784241E1  -6.528105148342579   1.132568737643107E2  
 3.300085050000000E8    -6.048351984973108  -6.072001648438865  -7.346760574691112E1  -1.740794500211834E2  -6.740803741382283E1  -1.731913377577950E2  -6.766635469091143  -4.987317628346001  
 3.600084600000000E8    -6.079799362411404  -1.176807024266957E2  -8.463410082598327E1  -1.523450589772259E2  -7.551301964379012E1   6.612697640748162E1  -6.270761559536327  -1.207622750131371E2  
 3.900084150000000E8    -6.046748634272310   1.247377401862073E2  -6.194375853967891E1   1.354329021276027E2  -6.164811947333543E1   1.367530333252859  -6.526383776258650   1.303229404139791E2  
 4.200083700000000E8    -5.601531733002362   1.742341357529089E1  -5.417626633226750E1  -1.488028522381716E2  -6.427744600064352E1  -9.717103267984989E1  -6.842192175192198   1.251123294104646E1  
 4.500083250000000E8    -6.300027563457024  -9.509677441832508E1  -6.829205109042617E1   1.796738246274316E2  -6.815083335001350E1  -3.651456403186323E1  -6.348378560270180  -9.730149738940276E1  
 4.800082800000000E8    -6.445430514302825   1.485350651993755E2  -6.830612460336980E1   1.759768429023526E2  -7.364806853521939E1   1.112142357674003E2  -7.446497351418256   1.464678062825309E2  
 5.100082350000000E8    -7.302025677846429   2.920730860358978E1  -5.836068289095768E1  -5.594911700325312E1  -6.001264887748165E1  -7.039929017829195E1  -7.264425856535535   2.627062416098125E1  
 5.400081900000000E8    -6.648672838178112  -9.215517930592797E1  -5.446851796146871E1   1.116671251050389E2  -8.859747323952416E1   1.158221433628219E2  -7.142774627066450  -8.684112727453847E1  
 5.700081450000000E8    -6.589439280092505   1.598193349888742E2  -5.848090807945048E1  -1.365006753064769E1  -6.601956124009239E1  -3.892507359924639E1  -7.206249116884462   1.558751195109149E2  
 6.000081000000000E8    -6.407099597875225   4.543851661413724E1  -6.329181440489374E1   1.175938739519930E2  -7.340522423860416E1  -1.422024775804933E2  -6.867558649120303   4.399361807490987E1  
 6.300080550000000E8    -6.299017950367623  -6.156742085619995E1  -6.947939485022704E1   1.653830456805348E2  -6.478479949769078E1   5.053362279936341E1  -7.285950319474626  -6.875653894699204E1  
 6.600080100000000E8    -7.940071631314031  -1.779073960831636E2  -6.677706251820685E1   2.461116754473358E1  -6.964962631346396E1  -1.439661548436275E2  -7.316318274233113   1.718751818802827E2  
 6.900079650000000E8    -7.824917066849038   5.791819253817220E1  -5.977254897651153E1  -9.057103550527552E1  -6.921914291438891E1   2.910606095367008E1  -7.948085800376499   6.014965876736203E1  
 7.200079200000000E8    -7.857274089759599  -5.831317959670170E1  -5.595345597511773E1  -7.169956601803415E1  -5.897600507349021E1  -5.830256862040050E1  -7.876707828891569  -6.483463052503139E1  
 7.500078750000000E8    -7.245535768924944  -1.756041076418873E2  -6.503037087695431E1  -4.448464809727799E1  -6.318581364509758E1  -8.749011199881777E1  -7.029597514551120  -1.776500105531176E2  
 7.800078300000000E8    -6.924246430919997   7.894785816275127E1  -5.937230643524939E1   8.699247817182621E1  -7.421902030573438E1  -1.992739531708850E1  -7.470464621036125   7.200278188383430E1  
 8.100077850000000E8    -7.439076952947514  -3.745345026835636E1  -5.958445164643261E1   1.264977962504234E2  -5.794218551431751E1  -5.166884060375018E1  -7.139564707769007  -4.806310753733195E1  
 8.400077400000000E8    -7.688675094868551  -1.507929168793128E2  -6.780865345470227E1  -4.460817572650995E1  -5.796977638915684E1   1.369244588282000E2  -7.563951256977297  -1.586527187523388E2  
 8.700076950000000E8    -9.221429374912948   8.575379691571682E1  -7.346148706472904E1  -1.303115846792123E2  -6.244570307317624E1   8.373017627184372E1  -8.077474897380451   7.866063528167895E1  
 9.000076500000000E8    -7.843013135540502  -3.903395902657648E1  -6.722403694946773E1   1.168732696197857E2  -7.522111564673284E1   1.692447473401390E2  -7.306356502373784  -3.702870288619649E1  
 9.300076050000000E8    -7.412868370235700  -1.469322170066751E2  -6.578945417438585E1  -1.574521805512448E1  -7.618006793475186E1  -6.075179377938059E1  -7.581955227691998  -1.516703248110668E2  
 9.600075600000000E8    -6.935807622628312   9.984394400903315E1  -5.288541186526431E1   3.305317293553277E1  -5.934161133322078E1  -4.278330137486244  -6.989813608916176   8.954217210326662E1  
 9.900075150000000E8    -7.359214535520596  -6.587833216943235  -6.766862719183166E1   6.130897978178674E1  -6.283998609031801E1   1.012723675104175E2  -6.999899365614248  -2.132155749236057E1  
 1.020007470000000E9    -8.689579860054408  -1.287753990290092E2  -6.375142809530468E1  -1.642156000013599E2  -5.903269822081604E1  -1.735046963370427E2  -7.242146349779736  -1.393778980796048E2  
 1.050007425000000E9    -8.411546059835876   1.072012653512712E2  -6.739745807046043E1   3.493293892104065E1  -6.658042366862715E1  -5.162036492190109E1  -6.931487250693965   1.032947387289195E2  
 1.080007380000000E9    -8.049129851071246  -1.002768004779229E1  -7.001696657544332E1   1.620916413818751E2  -6.289471234620228E1   1.685829041044472E2  -7.198992576867060  -1.306771537612896E1  
 1.110007335000000E9    -6.914623645128303  -1.260390737157233E2  -6.529044193200117E1  -5.817892537038178E1  -5.508017292627177E1  -1.850322228197583  -6.388961338865192  -1.345096296199320E2  
 1.140007290000000E9    -6.675409066256968   1.298337982064919E2  -7.646148785831329E1  -4.238858764125061E1  -8.495005010125406E1  -5.837397878272657  -6.061453500161317   1.194701309368768E2  
 1.170007245000000E9    -7.244274554417284   1.592824819857612E1  -6.103882067966465E1  -4.344972629296157E1  -6.277507762853767E1  -1.088299002600294E2  -6.466698667336859   2.475062401353994  
 1.200007200000000E9    -7.913438428753676  -1.020500356710585E2  -6.165923308733812E1   1.565405222388461E2  -6.041175356390867E1  -1.485024183593525E2  -6.284521078131411  -1.164477188545477E2  
 1.230007155000000E9    -8.054707516572668   1.346286604657903E2  -6.113268800533834E1  -2.398941044663977E1  -5.841066448369735E1   5.184790395516265  -6.253508736304366   1.322272624041079E2  
 1.260007110000000E9    -7.419501145676539   1.402830703299709E1  -6.553770337526538E1   8.833130523628253E1  -6.204347323694812E1  -3.664074325083919  -6.064352837211483   1.174493243137365E1  
 1.290007065000000E9    -6.425062455917132  -9.425245442507017E1  -6.403950477131117E1   6.731657125968286E1  -7.484276360187668E1   3.699103859778165E1  -5.590495428332644  -1.013150501088936E2  
 1.320007020000000E9    -6.273897038347463   1.555614431562586E2  -6.348763835986798E1  -1.779470817336468E2  -6.550800518400574E1  -1.161190612983812E2  -5.338428311718173   1.484734222733837E2  
 1.350006975000000E9    -6.623611251547378   4.581512928832972E1  -6.650706933053304E1  -1.578862037886125E1  -5.341905736408587E1   9.887411325583736E1  -5.700914006735102   2.969403734010386E1  
 1.380006930000000E9    -7.286407637660808  -7.304158065663712E1  -6.114811167690866E1  -5.888704426801514E1  -5.144817418798517E1   3.911558208800051E1  -5.447339526143266  -8.288741438804752E1  
 1.410006885000000E9    -7.406585610276075   1.614326842302636E2  -5.978440594368372E1  -1.741597489587009E2  -6.013980088642463E1   2.564574767976908E1  -5.277889653885292   1.584453206700934E2  
 1.440006840000000E9    -6.256391626155552   4.880908015603838E1  -6.405463631846779E1  -5.885594827530622E1  -5.911852758066353E1  -8.344245231159349  -5.190878714697687   4.422722538714471E1  
 1.470006795000000E9    -6.116629508865209  -6.500293906458319E1  -5.243964100386583E1  -1.025555142650246E1  -6.659470097784843E1  -1.534236262732627E2  -4.681820672386789  -6.620296791715904E1  
 1.500006750000000E9    -5.387792172940239  -1.701246141917724E2  -6.616469921124555E1   1.304374314697640E2  -6.084228908656397E1  -1.689403266397174E2  -4.803436428099848   1.785769674944254E2  
 1.530006705000000E9    -5.992002501947729   7.911377578797934E1  -5.811347318618974E1   6.461825635114707E1  -5.977795214174291E1  -6.788897335690491E1  -4.629646594825633   6.909664714502931E1  
 1.560006660000000E9    -6.488804220951806  -3.952269862907713E1  -6.557116767825839E1  -8.669157577902777E1  -5.631736848062532E1  -1.232993511138612E2  -4.753129016533070  -4.710892015294625E1  
 1.590006615000000E9    -6.314755452818012  -1.592750276506868E2  -6.321492694312973E1   3.433045563678580E1  -5.627532232632564E1   8.523043457561427E1  -4.860135498727262  -1.649750607275088E2  
 1.620006570000000E9    -6.319037470931597   8.246680856696401E1  -5.749329847197110E1   2.918597415288896E1  -8.517703902413587E1  -1.728585938803467E2  -4.125279638969522   8.586625087575756E1  
 1.650006525000000E9    -4.886157040207427  -2.294753236795900E1  -6.041454281218935E1   4.165720789947590E1  -5.982425162438860E1   1.275123679061596E2  -4.831066756318873  -3.037756874462882E1  
 1.680006480000000E9    -5.486589228812896  -1.322287474908686E2  -5.455250710166254E1   7.873159545995698E1  -6.008183680662371E1   1.507018544947287E2  -4.072624643914668  -1.398976883536115E2  
 1.710006435000000E9    -5.141482469104795   1.148817322022720E2  -6.656881946090213E1  -2.353593474058217E1  -5.285150494327331E1   4.303520605184098E1  -3.876341693720570   1.104153382434825E2  
 1.740006390000000E9    -5.638037081410961   2.634245025658715  -6.108848649302137E1   3.154057628230232  -5.136533733435174E1   1.010435006018527E2  -4.647193299764908  -8.231588255295577  
 1.770006345000000E9    -6.091544913675407  -1.230780508383636E2  -6.293463285700037E1   1.229008834594245E2  -6.538820332624036E1   1.028672574983158E2  -3.771227253487471  -1.211816723891588E2  
 1.800006300000000E9    -4.793090614209223   1.274960509677991E2  -5.581113645309566E1   3.114727066581749E1  -5.320602443603659E1   1.355051423397433E1  -4.117058403024146   1.266080180196012E2  
 1.830006255000000E9    -5.254114646900388   1.627142477810368E1  -5.902145097413849E1  -8.994155873223019E1  -5.397516417237249E1   4.786767726598023E1  -3.947234945363454   1.418018348079011E1  
 1.860006210000000E9    -4.091052953354232  -9.108857354554968E1  -7.380448146423366E1   1.320243504731733E2  -6.229037286710133E1   1.707769524092095E2  -3.553694511634558  -9.426676805498047E1  
 1.890006165000000E9    -4.891699502415371   1.614399933039102E2  -5.898412191351380E1   8.366146785380219E1  -6.000402980273994E1  -1.308752092929348E2  -4.215665470373944   1.508207427006999E2  
 1.920006120000000E9    -5.000244250907566   3.934814391208533E1  -5.993179181724477E1  -8.961960115583966E1  -5.921986704207318E1  -1.030525306106009E2  -3.689452493434354   3.815180343543983E1  
 1.950006075000000E9    -5.000437953084782  -7.339847903805914E1  -5.363062147467596E1   8.134701010774515  -5.119256353437172E1   1.469591219837302E2  -3.759222799074927  -7.397253248336207E1  
 1.980006030000000E9    -5.503547148677814   1.641724784397356E2  -5.644835872754725E1  -2.634326559532486E1  -6.039994962346540E1  -8.730576496610651E1  -3.987640773230141   1.688728991095748E2  
 2.010005985000000E9    -3.824345792407407   6.193552468148130E1  -5.875977208196631E1  -1.076444834320247E2  -5.492763727728657E1   5.667051786343728E1  -3.196751080406639   6.114490993823710E1  
 2.040005940000000E9    -4.667250342043799  -4.172367934124483E1  -5.530700376171711E1   5.521497734577477E1  -5.536882090834782E1  -1.668797727842600E2  -3.902022338096523  -5.119614553205458E1  
 2.070005895000000E9    -4.395090864007244  -1.589380888769157E2  -5.975830112467695E1  -1.355514961521343E2  -6.637862447348060E1   1.279883747368539E2  -3.485772629687626  -1.661763129946194E2  
 2.100005850000000E9    -4.726758473597772   9.310771634993063E1  -5.547084532367087E1  -6.680501541085890E1  -5.498469405794437E1   5.267082624107182E1  -3.263081221552827   8.776754410126895E1  
 2.130005805000000E9    -5.417664886127067  -3.714376213399866E1  -5.813969143933367E1  -1.366371013960691E2  -5.454117296297593E1   1.296693756400192E2  -4.184765599686950  -3.028578484927927E1  
 2.160005760000000E9    -4.265951771400041  -1.455390623613520E2  -5.626880249407584E1   1.273209677267862E1  -5.791816054260197E1  -2.491547026254407E1  -3.254180870337836  -1.409113251037194E2  
 2.190005715000000E9    -5.047162515347003   1.040134880548955E2  -5.905173912121766E1  -1.061679983895231E1  -7.039844089095108E1   1.985486519284745E1  -3.629799672059798   1.123355616354059E2  
 2.220005670000000E9    -3.637712258888058  -3.583918571200517  -6.358007626035695E1   1.649830664241328E1  -7.005662876055384E1   1.149176254856522E2  -3.895979726118443  -6.764661313273372  
 2.250005625000000E9    -4.387860910917236  -1.032435712132275E2  -6.610254294874176E1  -1.351248506289417E2  -6.418159851153837E1   1.339427407014209E2  -3.219871856919589  -1.131358662071065E2  
 2.280005580000000E9    -4.910046890627441   1.279347686257576E2  -5.717657651865594E1  -9.693045248110462E1  -5.945694904563264E1  -9.665699503438130E1  -4.200447752355823   1.326226002847488E2  
 2.310005535000000E9    -4.320923168856061   1.880805340246791E1  -5.683381328269039E1  -7.896685865828979E1  -6.235253945138584E1   1.368352531377578E2  -3.421324489286794   1.460044003613727E1  
 2.340005490000000E9    -5.395553141586580  -1.053673003264254E2  -5.571954035722597E1   1.249791616426652E2  -6.453581485564122E1  -1.436762854673770E1  -3.306675043396431  -8.987145460440280E1  
 2.370005445000000E9    -3.843441231705759   1.476245754385293E2  -6.514409656541979E1   6.476226190594775E1  -6.860811022236098E1  -3.676099229960253  -3.951059763788287   1.545261123435938E2  
 2.400005400000000E9    -4.051911025634911   5.276335706419608E1  -6.302889504847074E1  -1.047676635003178E2  -5.268405119212292E1   8.064354849141508E1  -3.176035373544169   4.670794055849650E1  
 2.430005355000000E9    -4.088986087947435  -6.349443762187536E1  -5.258506313828587E1   1.376548719939299E2  -5.951891852936703E1   1.221647432639205E2  -3.850241311298479  -6.034201914132112E1  
 2.460005310000000E9    -4.255107789008514  -1.675448150993524E2  -5.771587748433453E1  -2.505873944251921E1  -6.937342478087018E1   1.026609172354441E2  -3.946756155297686   1.771514225835304E2  
 2.490005265000000E9    -5.563711898708355   6.110717484642822E1  -5.773620215044063E1   1.227624096055726E2  -5.680774644967821E1   4.635575299208799E1  -3.280882514499079   7.187462550923318E1  
 2.520005220000000E9    -4.172862389470975  -5.533213948015660E1  -6.331464116861791E1  -1.604155822254791E2  -5.604774691380768E1   4.034462618065856E1  -4.211009753289370  -4.373762729778237E1  
 2.550005175000000E9    -4.916814850775833  -1.623541576688776E2  -5.942756479896177E1   3.575570868970478E1  -5.605165404549904E1  -6.751491692350213E1  -3.514345918660862  -1.585608150560048E2  
 2.580005130000000E9    -4.080946127203224   8.676682645867422E1  -6.163136927169944E1   1.349072189273504E2  -6.374285736022019E1   1.624785432462358E2  -3.415314977864292   1.016369801331153E2  
 2.610005085000000E9    -3.533610810901418  -3.941995898277970  -5.222255399224097E1  -1.084509237530858E2  -5.523704528855097E1  -6.378709352367704E1  -4.491782276487469  -1.982652149637177E1  
 2.640005040000000E9    -5.034335658601751  -1.221651477640411E2  -6.288415698205853E1  -1.528994969827818E2  -5.006341499341078E1   1.656971788975531E2  -3.476909255011646  -1.287381108345995E2  
 2.670004995000000E9    -4.573113585556706   1.192538218290655E2  -6.286611828385573E1  -1.464051773408750E1  -5.293896899103622E1   1.752767521458233E1  -3.869142846139465   1.277526027165530E2  
 2.700004950000000E9    -5.484212108501060  -1.952226127449765  -7.966061573563600E1  -1.670095849069448  -6.116155952761162E1   1.449604850551083E2  -4.464981617576405   6.831320445331888E-1  
 2.730004905000000E9    -4.661330920091842  -1.250633127206812E2  -5.373159709997660E1   1.503816340897204E1  -6.240374165825504E1   3.987800891898203E1  -3.185372236328412  -1.033404653088748E2  
 2.760004860000000E9    -3.857743425342144   1.446375183893249E2  -5.497495845198689E1  -1.623556001185422E2  -5.528690889676151E1  -1.397205237541646E2  -4.486971286910237   1.485135772558225E2  
 2.790004815000000E9    -4.753796804125893   3.587471740486820E1  -5.684490096386877E1   1.636824962585038E2  -7.177301781599392E1   2.697756926503895E1  -4.138671924977868   2.905256926821833E1  
 2.820004770000000E9    -3.926928647732175  -6.985734008687629E1  -5.280806544970722E1  -1.374890513616669E2  -5.516119044875864E1   9.329803158673917E1  -3.641247507525356  -7.032495643740381E1  
 2.850004725000000E9    -5.280703998321854  -1.787177894398627E2  -6.328545468112861E1   7.083155776359948E1  -6.276004371548079E1   3.442034151274051E1  -5.323751466402209   1.687651855760792E2  
 2.880004680000000E9    -5.784087037235660   4.100286289798953E1  -5.484672439173555E1  -1.577578078470817E2  -5.290367998574234E1   1.137432540500175E2  -3.787996500419140   5.569288233903627E1  
 2.910004635000000E9    -4.503932805904006  -6.653941294277934E1  -5.534774905486679E1  -1.308583392600438E2  -5.211873588388103E1   9.959820147821465E1  -4.368591006693926  -4.792145030672656E1  
 2.940004590000000E9    -5.651622193064103   1.772608398578473E2  -6.845431088857083E1  -9.811821199875999E1  -5.959184916551561E1  -5.436962811625022E1  -5.397767683158562  -1.748208294794280E2  
