#  HZ   S   DB   R     50.0 
! Rohde & Schwarz ZVL13 2Ports - Version 3.20 - 1303.6509k13 SN: 100953
! Date: 2024-10-09 08:06:38
! Data & Calibration Information:
! Trc1:S11(Cal Off) Trc4:S21(Cal Off) Trc2:S12(Cal Off) Trc3:S22(Cal Off)
! 
! 
! 
 9.000000000000000E3    -1.894954376009808E1  -1.339451720165935E1  -1.170290644873021   7.378963964107907E-2  -1.174153009743922  -3.277527465975201E-1  -1.872280741119231E1  -9.692985522913920  
 3.000895500000000E7    -1.332234359753318E1   7.788278347421338E1  -2.567354837954595   1.567323261804596E2  -2.582046041904359   1.562720286177737E2  -1.339684499492739E1   5.422292734673921E1  
 6.000891000000000E7    -9.144393784114035  -1.212293199951011E2  -3.316332359428085  -4.476667022792059E1  -3.337784778249961  -4.456539326360240E1  -7.407573751827560  -1.760650215323132E2  
 9.000886500000000E7    -3.504274479882026   4.982169704330961E1  -6.305942740466058   1.039806265884950E2  -6.337482151594120   1.041514287145710E2  -4.612841038963986  -2.709082049584146E1  
 1.200088200000000E8    -1.791146237821768  -1.391534667084217E2  -1.841922817654073E1  -8.870698878291654E1  -1.846869098883947E1  -8.801960707532381E1  -6.805436960963234   7.305749079804295E1  
 1.500087750000000E8    -4.073985612994569   3.574776330117235E1  -1.056537164609846E1   1.510806878409093E2  -1.055685104039438E1   1.509756593904047E2  -6.557161939730657   1.142232873865184E2  
 1.800087300000000E8    -4.663596565006663  -1.467794808132091E2  -1.121072549218909E1  -4.961900610922560E1  -1.123346087412262E1  -4.954302688092650E1  -8.920047790102618  -1.413577870945336E2  
 2.100086850000000E8    -3.586167876340993   2.904535531363030E1  -1.255057747255245E1   1.209983568313876E2  -1.262026980991306E1   1.205619131151896E2  -7.382475677228740  -1.826450978635843E1  
 2.400086400000000E8    -2.044718898112850  -1.676019107539585E2  -1.702414245001011E1  -6.751840024345675E1  -1.712644492017274E1  -6.759966810830454E1  -6.657827137626263   1.290475156936292E2  
 2.700085950000000E8    -2.393996117471805   5.706001060806013  -2.023512128176886E1   1.509544454824825E2  -2.022881288525793E1   1.506752756222938E2  -9.784892392260666  -5.626933182646838E1  
 3.000085500000000E8    -3.937614733350992  -1.627816336138127E2  -1.638643996527286E1  -5.010048594438254  -1.624826142868232E1  -4.875302912898347  -1.829953211037789E1   5.821843731367043E1  
 3.300085050000000E8    -5.441907684945376   2.328280032563188  -1.313571999598359E1   1.696160141781063E2  -1.304122710109787E1   1.689699452616738E2  -1.184423900271767E1  -1.773667646196481E2  
 3.600084600000000E8    -4.506110471895150   1.534753622002897E2  -1.113573341245861E1  -2.268817647366165E1  -1.114245277005871E1  -2.290257646835459E1  -1.381637188173608E1   1.060891232207439  
 3.900084150000000E8    -3.426025939941856  -5.158171567921964E1  -1.102667338401419E1   1.405058490490868E2  -1.099577208386591E1   1.406569191298262E2  -1.907146820295425E1  -1.603237832962375E2  
 4.200083700000000E8    -4.786124181034691   1.154361334850398E2  -1.232861606501399E1  -4.793515025236167E1  -1.245266890099881E1  -4.858221413580387E1  -2.022997561699917E1  -1.045182911146664E2  
 4.500083250000000E8    -6.660422742114154  -6.960905755708276E1  -1.248851038209345E1   1.295967934299800E2  -1.243601959605278E1   1.300947758616406E2  -1.260249661227472E1   7.038815346463039E1  
 4.800082800000000E8    -5.543823287685362   5.404593263379070E1  -1.282367645866382E1  -6.175028111809654E1  -1.286426909218198E1  -6.201910822653131E1  -1.021810287724836E1  -7.431850735854418E1  
 5.100082350000000E8    -3.038609570084923  -1.482522060715070E2  -1.525199401185618E1   1.104488276866213E2  -1.521871450107351E1   1.102738165987266E2  -1.385244538935553E1   1.424394796833744E2  
 5.400081900000000E8    -4.270372220563261   3.912879887498132E1  -1.712724667472428E1  -6.255362500920660E1  -1.713712169470800E1  -6.322460415269270E1  -2.053210140015321E1  -1.394974637597110E1  
 5.700081450000000E8    -5.379194053861540  -1.390040045235333E2  -1.787964905642130E1   1.259295902681804E2  -1.802648812096983E1   1.260454230768488E2  -1.987148077435905E1   3.409149271254910E1  
 6.000081000000000E8    -5.359307788665104   2.337546698225276E1  -1.718356577245213E1  -4.884518460472160E1  -1.707794742377543E1  -4.914860910253275E1  -1.352166574891425E1  -1.236526624067858E2  
 6.300080550000000E8    -4.263301080261811   1.689598967032114E2  -1.735775817187318E1   1.252596121220644E2  -1.730675768583198E1   1.249922109664875E2  -1.015084046669650E1   8.471206575216685E1  
 6.600080100000000E8    -3.041539289915740  -1.428706791324927E1  -1.937207670226086E1  -4.925684800559802E1  -1.937912325246255E1  -4.800338864293219E1  -1.208373101535790E1  -5.216270856017584E1  
 6.900079650000000E8    -4.079026576646798  -1.701272266626847E2  -1.899000240235727E1   1.484762745639517E2  -1.907647515360709E1   1.487794489936437E2  -1.546078638864573E1  -1.731479035373014E2  
 7.200079200000000E8    -6.218906875657795   1.682570636557543E1  -1.694542144378075E1  -2.109111912183012E1  -1.711619819449158E1  -2.153107026312549E1  -1.966948063915720E1   1.322679537144338E2  
 7.500078750000000E8    -5.875426974537835   1.594488337742892E2  -1.421052598452046E1   1.548512599155115E2  -1.425718821805515E1   1.547745903092540E2  -1.781513916272955E1   3.097991087463374E1  
 7.800078300000000E8    -4.484023171792296  -6.106816928666859E1  -1.302997129272382E1  -4.248217508596694E1  -1.312789566513560E1  -4.275170920177049E1  -1.201538644787845E1  -1.026207139597809E2  
 8.100077850000000E8    -5.171019256737699   1.128097765458470E2  -1.445779928658351E1   1.356686614988103E2  -1.444731875994843E1   1.359529098204308E2  -1.250840368220508E1   1.292899407267798E2  
 8.400077400000000E8    -8.287751599175717  -6.925715756752742E1  -1.278141748012934E1  -4.312786027968660E1  -1.282252732495230E1  -4.279411093084710E1  -1.277840655306635E1  -2.622460294358665  
 8.700076950000000E8    -9.331292926294122  -1.222748344485985  -1.127235949739016E1   1.166894774868839E2  -1.131752774222352E1   1.168111021564538E2  -1.442628619714242E1  -1.196979215848250E2  
 9.000076500000000E8    -4.796165220170897   1.726360153348342E2  -1.375228245231867E1  -7.718451891413402E1  -1.379166471579542E1  -7.720516298393929E1  -1.822799847634295E1   1.749134579025583E2  
 9.300076050000000E8    -6.043057858955612  -8.099037018451556  -1.574233468438024E1   1.024991825101003E2  -1.571835095832964E1   1.021959617510965E2  -1.352782114081292E1   5.860210872683248E1  
 9.600075600000000E8    -7.332030919554783   1.612412280711815E2  -1.609449595554239E1  -7.053445225671436E1  -1.610177256805194E1  -7.016930362418587E1  -1.278812793319202E1  -6.108569388592319E1  
 9.900075150000000E8    -6.133120768675672  -5.551559920281974E1  -1.528454031345181E1   1.039938552088550E2  -1.535529981613586E1   1.043499378829859E2  -1.286237624158473E1   1.663992186481511E2  
 1.020007470000000E9    -3.779240017089593   9.503864462852933E1  -1.775463083611113E1  -8.614752132928928E1  -1.777803368569325E1  -8.691460941651164E1  -1.344130145929745E1   4.427853848630016E1  
 1.050007425000000E9    -4.084257387704711  -5.996363850509476E1  -1.925641466183915E1   1.061336463315050E2  -1.923254282738506E1   1.073796845663922E2  -1.771212285303239E1  -5.755849094472873E1  
 1.080007380000000E9    -6.066598844709596   1.429238515819648E2  -1.938205745284651E1  -6.226144873842045E1  -1.933666146757328E1  -6.301090499786515E1  -1.466513301382143E1  -1.455126960911959E2  
 1.110007335000000E9    -8.234830219485746  -4.985621438057670E1  -1.800200059901554E1   1.243067593639006E2  -1.798335824994850E1   1.246780583597323E2  -1.231383743004312E1   1.084440557987056E2  
 1.140007290000000E9    -5.370768163683661   1.061616703576909E2  -1.654845149426927E1  -5.714617436003928E1  -1.641503134190294E1  -5.737793169814666E1  -1.354183662780745E1  -2.440379443658867E1  
 1.170007245000000E9    -4.388072685471651  -1.045609009849476E2  -1.718313818349066E1   1.090623365185828E2  -1.712918555555490E1   1.085808060954315E2  -1.284151617586055E1  -1.553144953754171E2  
 1.200007200000000E9    -4.758355789644789   8.873701511981032E1  -1.833025779612358E1  -6.231620654920588E1  -1.839466370339230E1  -6.334272029323964E1  -1.678252506102412E1   9.079263700334448E1  
 1.230007155000000E9    -6.975603786244456  -6.747598201439372E1  -1.737039458023627E1   1.283564737105489E2  -1.744692680452964E1   1.292805267784309E2  -1.892671199636938E1   9.771514232930345  
 1.260007110000000E9    -1.035904795659795E1   7.637091809397647E1  -1.505068443060359E1  -5.392250771244351E1  -1.502826758036873E1  -5.470147772374762E1  -1.362651451699540E1  -9.136335568993802E1  
 1.290007065000000E9    -5.311594714278382  -1.433949571399514E2  -1.372915328320074E1   1.131097899875546E2  -1.367766628142367E1   1.128984516368439E2  -1.334749415375942E1   1.542839123182484E2  
 1.320007020000000E9    -6.269303894189184   2.212607852121721E1  -1.520555957259941E1  -7.813918823779054E1  -1.519690586099800E1  -7.832996406439827E1  -1.388519281919905E1   1.953460328212817E1  
 1.350006975000000E9    -7.804939546443806  -1.675768883590607E2  -1.609698554150711E1   1.053838226064222E2  -1.615638376983905E1   1.056011733959200E2  -1.507342263785115E1  -1.113434039458442E2  
 1.380006930000000E9    -9.568862315966527   1.389785502139956  -1.444346540926700E1  -6.882571065257913E1  -1.446870073358992E1  -6.843365721546570E1  -2.254738215823743E1   1.532177420893305E2  
 1.410006885000000E9    -6.510964526834616   1.180340170916549E2  -1.390182952493927E1   9.396831164184609E1  -1.390183791750122E1   9.416244401439312E1  -1.853152355723676E1   7.278449019277343E1  
 1.440006840000000E9    -5.831712391309933  -6.044777705311372E1  -1.562278758585723E1  -9.516190164923604E1  -1.559009449466332E1  -9.520553021831115E1  -1.433000993792729E1  -2.653947043623938E1  
 1.470006795000000E9    -8.673053513614448   1.241998271792280E2  -1.664789780218868E1   8.948744656468701E1  -1.657034154394733E1   8.887127987641243E1  -1.287291992962409E1  -1.542645373193845E2  
 1.500006750000000E9    -9.637990450945866  -8.161719964757495E1  -1.729578441682542E1  -8.343544869263954E1  -1.723020745482559E1  -8.423722069257110E1  -1.423846690091954E1   7.062155454774839E1  
 1.530006705000000E9    -6.583363961101711   9.348093100349539E1  -1.554234136382058E1   9.829452289542888E1  -1.548930696407860E1   9.846086138027287E1  -2.168526060646253E1  -7.408221630101683E1  
 1.560006660000000E9    -5.120743191706460  -1.141530591882944E2  -1.498455273698212E1  -9.115607048219783E1  -1.490220857846798E1  -9.226823988616530E1  -3.269708819409291E1   1.518829815786997E2  
 1.590006615000000E9    -7.074808202048892   6.480893095359339E1  -1.645899138502820E1   8.604938845622773E1  -1.647159390500540E1   8.553882999903433E1  -2.005198247445573E1   1.594144971574936E2  
 1.620006570000000E9    -1.092142037050482E1  -1.161524251345091E2  -1.612219915123525E1  -8.980677515351260E1  -1.614520653757767E1  -8.944710695647487E1  -1.436036339922139E1   4.384036750467823E1  
 1.650006525000000E9    -8.548995816413614   2.608688300774806E1  -1.579085570594350E1   9.238052622991960E1  -1.576951641608782E1   9.273549192379356E1  -1.400266026311060E1  -1.062614656652887E2  
 1.680006480000000E9    -6.913390245800087  -1.554106152970144E2  -1.419580923156333E1  -9.268100494982032E1  -1.422830204918564E1  -9.323924868835518E1  -1.837425566905323E1   1.271448101289442E2  
 1.710006435000000E9    -9.289378050541670  -3.095588776335672  -1.435194349769068E1   7.299631809229386E1  -1.435669493142570E1   7.257250678990449E1  -3.062740527545794E1   1.795684958481133E2  
 1.740006390000000E9    -1.043841732431151E1   1.345279820609391E2  -1.565046328266853E1  -1.065889897007612E2  -1.571340999432456E1  -1.058195288157741E2  -2.850945401774290E1   2.416149285671157E1  
 1.770006345000000E9    -1.059303377912703E1  -7.109130915599037E1  -1.495822787156241E1   7.576040491006262E1  -1.497713426785641E1   7.593575046884639E1  -1.572756126998348E1  -1.228544291581399E2  
 1.800006300000000E9    -6.295835719957012   9.813976088690254E1  -1.406760903046773E1  -1.143166629713383E2  -1.403293102983102E1  -1.133183901662158E2  -1.611349688716199E1   9.784800230638568E1  
 1.830006255000000E9    -1.204324593543167E1  -1.133626490889499E2  -1.490139804906515E1   5.220412348045073E1  -1.484177716409278E1   5.185568281471601E1  -1.929912520441793E1  -3.431161827210900E1  
 1.860006210000000E9    -1.129644994747680E1  -2.333714347482792  -1.736948174673276E1  -1.287532284277225E2  -1.735626261237178E1  -1.290296198239227E2  -2.085499926465941E1  -7.700527287142879E1  
 1.890006165000000E9    -6.876140614223515  -1.509555694453904E2  -1.758272073958553E1   6.185983248068062E1  -1.759952001343335E1   6.256960684851648E1  -2.332449976951886E1  -1.632183142254395E2  
 1.920006120000000E9    -6.320863163684432   2.931746371325373E1  -1.560417031349850E1  -1.164260957562393E2  -1.556445294629270E1  -1.160810607825814E2  -1.713273300772862E1   7.438860272648805E1  
 1.950006075000000E9    -1.095355432321252E1  -1.785958734592994E2  -1.548324340109557E1   4.494823563388692E1  -1.530193620613884E1   4.494256572706759E1  -1.582916479924691E1  -4.606292581113590E1  
 1.980006030000000E9    -1.301395060082023E1  -5.344674171163328E1  -1.782149685294769E1  -1.415561727658121E2  -1.758546515107872E1  -1.421930377250253E2  -1.722779298403550E1   1.786382680193001E2  
 2.010005985000000E9    -6.442770554948374   1.098290284082798E2  -1.937018226884850E1   4.753224608493323E1  -1.939795113906765E1   4.688402524279264E1  -1.338244036096501E1   8.345784886600663E1  
 2.040005940000000E9    -5.404387189748934  -2.313638546037489E1  -1.810872025699372E1  -1.198912416050589E2  -1.809283470560409E1  -1.198274058076595E2  -1.645810932888185E1  -2.297945342130138E1  
 2.070005895000000E9    -8.052587388920188   1.549544956102032E2  -1.522863761062053E1   4.946445184052817E1  -1.521071233506853E1   4.856122375938898E1  -1.559730523614327E1  -1.363102149582564E2  
 2.100005850000000E9    -1.202384190075234E1  -1.422141553435626E2  -1.745824849230157E1  -1.516754270771874E2  -1.746704379697035E1  -1.516040946402218E2  -1.174980059898420E1   1.261502710972287E2  
 2.130005805000000E9    -9.860702665299092   5.043978580668437E1  -1.977124399662808E1   3.436655246819709E1  -1.972947798168438E1   3.454397197165429E1  -1.412917499029079E1   1.407269439095998E1  
 2.160005760000000E9    -5.346229467673587  -1.122679463467370E2  -1.987728602233733E1  -1.335141377389308E2  -1.997694303189386E1  -1.345409035915507E2  -1.045688638538784E1  -1.101879489066246E2  
 2.190005715000000E9    -5.796453151162725   9.617222620215223E1  -1.706480841864664E1   5.307678477989912E1  -1.700266055904206E1   5.347531636092113E1  -1.043988011740763E1   1.452197657041981E2  
 2.220005670000000E9    -3.144426986690305E1   2.445627445179066E1  -1.581495766612522E1  -1.589675264980675E2  -1.588825681682153E1  -1.593030070287156E2  -1.350648502007235E1   2.900851718605630E1  
 2.250005625000000E9    -6.219652142803174  -4.253206214485014E1  -2.017919467274143E1   2.012145281926338E1  -2.007114797237221E1   1.966379108308534E1  -1.023272935566796E1  -7.512069878620007E1  
 2.280005580000000E9    -6.917711189197088   1.721203905339967E2  -2.032636933032536E1  -1.443691156191132E2  -2.026495178758870E1  -1.465320800540407E2  -1.180384767561542E1  -1.761373640042577E2  
 2.310005535000000E9    -5.639780144725719   2.605027421968724E1  -1.793966717919270E1   3.955604127747504E1  -1.800215071496596E1   4.004619879719900E1  -1.029836107931482E1   5.601964019969108E1  
 2.340005490000000E9    -1.912962135024478E1   1.753092223078697E2  -1.617621353542999E1  -1.666793017884949E2  -1.614547084595320E1  -1.666264140329971E2  -8.098888140080018  -5.446882840843726E1  
 2.370005445000000E9    -7.166459268930114  -1.647289773761756E2  -2.075078197431362E1  -2.458446620939368  -2.065024835076115E1  -4.593249132662058  -9.937696853241253  -1.659462719427763E2  
 2.400005400000000E9    -4.459375987452283   8.440799961175188E1  -2.324500681545767E1  -1.608045645993478E2  -2.326937693766019E1  -1.615030856843916E2  -7.786957197868756   8.025242540977096E1  
 2.430005355000000E9    -4.646836677369686  -4.925277519814168E1  -2.053674351123449E1   3.720409233553895E1  -2.050492402976916E1   3.672023526266826E1  -8.476400525113492  -1.803337337815822E1  
 2.460005310000000E9    -1.709132910643804E1  -1.690818482640215E2  -1.650095073186515E1  -1.713947139237918E2  -1.650370626521843E1  -1.715201018040382E2  -9.394843852306479  -1.349287891024009E2  
 2.490005265000000E9    -9.585588395182256   1.436887593359298E2  -2.118427413797323E1  -1.129234600355045E1  -2.096718470853043E1  -1.021700841667708E1  -7.106481465287772   1.099288378460364E2  
 2.520005220000000E9    -5.605657581781815  -1.510192552298351E1  -2.423155990511336E1   1.798058429374856E2  -2.446537449966881E1   1.791670012661903E2  -8.463904765606591   3.096340780621540  
 2.550005175000000E9    -4.793041058525982  -1.377547461750795E2  -2.465056287060658E1   2.239046130745673E1  -2.463688971787574E1   2.108322327479196E1  -7.244170295398815  -1.227116269031286E2  
 2.580005130000000E9    -4.624446362358943   8.671947911267648E1  -2.065482603684615E1  -1.425797158854969E2  -2.069226825772044E1  -1.447010545914492E2  -5.841207611441281   1.356095394321576E2  
 2.610005085000000E9    -7.314355684048488   4.318063131042717E1  -2.008627031950212E1  -1.476898263830742E1  -2.002295588753457E1  -1.444198905142084E1  -8.248978338209975   2.690770096750237E1  
 2.640005040000000E9    -5.336220223478641  -7.391077009194699E1  -2.434577089810191E1   1.737986824911787E2  -2.479655525320248E1   1.754069196447874E2  -6.424300820902959  -9.392934741286244E1  
 2.670004995000000E9    -5.011108665297535   1.520314652952373E2  -2.442393333118844E1   1.549526415620248E1  -2.465179638660073E1   1.633878550594598E1  -6.275206662871860   1.694645703189911E2  
 2.700004950000000E9    -6.134290237043546   1.621557940117066E1  -2.127081858018035E1  -1.565060337455863E2  -2.091620366913532E1  -1.560696725584821E2  -7.685310390117615   4.720195498816543E1  
 2.730004905000000E9    -1.156079613014352E1  -1.106205284699140E2  -1.907767899146035E1  -9.094917128563703  -1.900254335508944E1  -8.903592694936764  -4.991919734265209  -7.054525991258345E1  
 2.760004860000000E9    -4.448125503539131   1.738488216406789E2  -2.470387607738084E1   1.583562726303265E2  -2.453130712596100E1   1.570543596887238E2  -6.389931611342790  -1.700942794475011E2  
 2.790004815000000E9    -4.444854691695263   6.255593027285262E1  -2.644583315802985E1   2.183092358044430  -2.696829511857709E1  -4.957902609946262E-2  -6.398298853663803   6.654624172586213E1  
 2.820004770000000E9    -4.051627014830968  -5.751076408110082E1  -2.236419260403531E1  -1.549137802886780E2  -2.258373810445610E1  -1.538634227266424E2  -4.968178588371601  -3.591064037441389E1  
 2.850004725000000E9    -9.007876480926855  -1.195035905412625E2  -1.918690757569910E1  -2.622203684673823E1  -1.926070857382402E1  -2.600477268894499E1  -6.611282806104616  -1.421968918194690E2  
 2.880004680000000E9    -7.115018964276465   9.154202378752031E1  -2.550381629317511E1   1.478698197578555E2  -2.530799817325528E1   1.481366377175428E2  -5.578736413765905   9.164666483177477E1  
 2.910004635000000E9    -4.216940180868162  -3.684447716033588E1  -2.740604519841741E1  -1.523710033456607E1  -2.733705242107618E1  -1.516309456058706E1  -5.130844202502630  -5.758761380810800  
 2.940004590000000E9    -5.242117455900236  -1.650748161026758E2  -2.740493131511138E1  -1.791881901489567E2  -2.731129965370007E1   1.796653523691371E2  -6.936067538817055  -1.314593599329573E2  
