#  HZ   S   DB   R     50.0 
! Rohde & Schwarz ZVL13 2Ports - Version 3.20 - 1303.6509k13 SN: 100953
! Date: 2024-10-09 08:06:13
! Data & Calibration Information:
! Trc1:S11(TOSM) Trc4:S21(TOSM) Trc2:S12(TOSM) Trc3:S22(TOSM)
! 
! 
! 
 9.000000000000000E3     5.612979533652378   1.787021995421812E2   2.579018255702999   1.774964817675377E2   2.954725370084336   1.766970191212935E2   1.014804768497592E1   1.785735937242355E2  
 3.000895500000000E7     3.411469903155461E-1   1.792439077289596E2  -4.026201263853373  -8.819362183327336E1  -4.555543528007600  -8.772876531635208E1   4.827339857071612   1.791415547534805E2  
 6.000891000000000E7     7.273264182168230   1.791106903441674E2   7.436421238125058  -2.992487808759818   5.150618833816858   9.461726205633974   1.241824077239263E1   1.787441692908927E2  
 9.000886500000000E7    -3.706102862103193   1.345054059205210E2   5.191733469577539E-2   7.952387355857212E1   2.843874203205406   1.101852528800936E2  -6.636847814085350E-1  -1.784613802637117E2  
 1.200088200000000E8     8.008971415802864E-1  -2.685799827674827E1  -1.074707464331050E1   2.996220742286307E1   7.482544264317633E-1   1.323161991889858E1  -1.564865700876954   1.697474124062884E2  
 1.500087750000000E8     5.285036391963375  -5.641544861703057E1   1.079806205865109E1   1.106892365676762E1   6.799826606037914  -2.311833236614352E1   9.519432927753870   1.373455271355604E1  
 1.800087300000000E8     1.275699991718081  -1.775843288943368E2  -4.981370360598125  -8.247881393524834E1  -1.412811022656149E1  -1.149886536827684E2   1.985141677088859  -1.650795758767702E2  
 2.100086850000000E8     3.829783719110990   1.114745772988721E2   3.194802362066088  -1.201291142754328E2   1.502223715612800  -8.413670943465597E1   4.660487265956392   8.883880909433232E1  
 2.400086400000000E8    -1.630668453289664   2.846892817783232E1  -5.183790204460703   1.152540195871526E2  -2.756342326893671   1.485202105118364E2  -4.377889408706854  -4.648260223368742E1  
 2.700085950000000E8    -1.254167427310347  -4.034213636709702E1  -9.358009998796861   1.076540130988398E2  -1.646405954102706   9.053884228341019E1  -3.345656937075350  -1.244330734971908E2  
 3.000085500000000E8    -1.986006791072906  -1.049966678970529E2  -4.320096203043587   8.453367179297486E1  -3.872736923193672   3.901574988098412E1  -3.607605293332533   1.531057943788737E2  
 3.300085050000000E8     5.687653812625855E-1  -1.663540157574713E2   2.880865829211473  -1.191000429790361E1  -9.553447777028941  -5.273568597822754E1   9.662875342998462E-1  -9.442479283674988  
 3.600084600000000E8    -1.624074920681402   1.321772673923881E2  -1.665875672928735  -8.819136970743008E1  -1.187762328050389  -4.730281291648689E1  -8.164313108728697E-1  -1.501395223959599E2  
 3.900084150000000E8     6.148126559172218   3.643270531717782E1   2.888180355534521  -1.368665867945945E2   9.261233780902808  -1.258248827930267E2   1.282127267368159   8.927985850046760E1  
 4.200083700000000E8    -1.562605310943181E-1  -1.058380173782295E2  -1.208318603578880   1.308736439213029E2   1.145505419931767   7.566697176090767E1  -5.400634259860163  -1.278008967699603E2  
 4.500083250000000E8    -2.704470780177568  -1.728504404162324E2   1.502732775516186   7.600909062412812E1  -5.549714076643579   4.022932860257075E1  -6.955834106547648E-1   1.350242325346303E2  
 4.800082800000000E8    -5.019158859158441   6.893556957276140E1   5.577802653820696E-1  -4.358638021549513E1   1.503296794533404   4.740215536982836   5.501554379961895E-1  -5.210826708197403E1  
 5.100082350000000E8    -4.627474608014764   1.972173368034601E1  -4.086806102310518  -8.955661684118746E1  -9.612142892889396E-1  -8.475255421933596E1  -5.574709014914449  -1.393725478754878E2  
 5.400081900000000E8     8.331471365165248E-1  -4.020122126294270E1  -4.442025390885380  -1.375138415405624E2   2.556253917603651  -1.664257304453938E2  -1.046649831462139E1   1.306888354106938E2  
 5.700081450000000E8     2.133275201399496  -1.226593166163059E2  -3.472741968157592   1.627974405581374E2  -4.840229103167510   1.008852798375499E2  -2.376039949866146E1   2.140483840319767E1  
 6.000081000000000E8     7.486144137915002E-1   1.581536369580429E2  -2.963681167369844   8.852634439943236E1  -1.540359817261586E1   1.224489431347960E2  -1.626311149797563E1   1.577173948453822E2  
 6.300080550000000E8     7.724747016183871E-1   5.963834437018981E1  -5.263543309639777   1.967728698499742E1   6.256516447352567E-2   5.083293745217323E1  -8.335252328072210   6.810394128275446  
 6.600080100000000E8    -1.032257427333171  -1.549519429751896E1  -5.932293664078741  -3.993330958434103E1  -3.232401132121287  -3.245050818692080E1  -7.232810650299736  -7.157208532927615E1  
 6.900079650000000E8    -1.822071314600575  -6.191988203120121E1  -7.657222475753749  -8.172163529839652E1  -1.716603579630605  -1.113972302021296E2  -8.242023854903181  -1.374512327121275E2  
 7.200079200000000E8    -7.191993945019240E-2  -1.104864698452917E2  -3.195847318832576  -1.223657457007865E2  -3.018676540231924  -1.723043576037252E2  -9.426361683960961   1.391535372238584E2  
 7.500078750000000E8    -2.826944428339624E-1   1.652269969693377E2   2.009472229750589E-1   1.350218765026916E2  -1.062565191360232E1   1.476709674456579E2  -4.899795858716614  -6.077057525700759E1  
 7.800078300000000E8    -9.626672040418012E-2   7.393814463694963E1  -2.193685666128485   8.358729828942163E1   2.031752463742901   9.333936343880600E1  -8.052381373621470   1.491030964272655E2  
 8.100077850000000E8     4.838115128677550  -3.482027210173150E1   2.671096793250143   7.789616640589324   6.042221627260231  -2.917840597513995  -2.668819245140553E-1   1.846509977966106E1  
 8.400077400000000E8    -1.355237091915153  -1.403077726917230E2  -1.672458790119388  -7.188516827290624E1  -2.175455234286098  -1.051143997319301E2  -3.208873908960952  -1.082419022049296E2  
 8.700076950000000E8     2.616129569955615   9.186312485753220E1   4.683300376109214  -1.155882766687149E2   3.154447832274022  -9.659587753918304E1   2.018209600249044   1.149904907989708E2  
 9.000076500000000E8    -7.288937663188250  -5.955914112690123E1  -1.875467094262081   1.250411931446601E2   2.704503003411516   1.226114821339179E2  -3.282475196685120  -8.760791312455258E1  
 9.300076050000000E8    -2.430088911175952  -4.576971870654072E1  -2.914157702403650   8.589018254203276E1  -1.765268275712515E-1   5.912279842832309E1  -1.404433983933851E1   1.662952493455510E2  
 9.600075600000000E8     3.489871863381045  -1.135331651834399E2   1.520450299871514   1.344969638169982E1   5.693251350935945E-1  -4.558162850932997E1  -1.988200504355612   2.011023632019143E1  
 9.900075150000000E8    -4.835591259696360E-1   1.396780084831241E2  -3.183732932312660  -7.476200886212365E1  -8.857727585539951  -2.746398854169383E1  -5.889532650664787  -8.440520344057678E1  
 1.020007470000000E9     3.482271029717961E-2   4.217435867570048E1  -5.389151290994003  -1.239965374404161E2  -1.709938821753595  -1.071137725924833E2  -2.322567204511718E1  -7.238063248812574E1  
 1.050007425000000E9     6.234329934419910E-1  -3.273455106563119E1  -5.367791969211820   1.740468805804098E2  -3.054246896890122E-1   1.586057324691612E2  -1.034860734291031E1  -3.562289749249980E1  
 1.080007380000000E9     3.999768756189984E-1  -6.987792875019517E1  -6.237392544181464   1.268327987592441E2  -2.451540285275475   1.020838326206273E2  -1.224055589739334E1  -6.839103909405152E1  
 1.110007335000000E9     4.134252013693957E-1  -1.097247260187244E2  -2.707166628497622   8.199851315186845E1  -1.900139843939953   1.481940162694319E1  -1.842016283283026E1   1.132391704516295E2  
 1.140007290000000E9    -1.128451598579839   1.561825925888196E2  -3.142150520689699E-1  -2.744579499822231E1  -1.128084942794584E1  -8.876663180835745  -2.384961117429794  -1.768180184277313E1  
 1.170007245000000E9    -2.486839931262756   5.502517587762394E1  -6.033891687956576  -8.265587457050913E1  -2.672685323758678  -6.142449095927274E1  -8.798161783831390  -6.998482074595569E1  
 1.200007200000000E9     1.425174193293692  -9.151014577588867  -4.281943913695781  -1.283059963904272E2   7.496519517764361E-2  -1.434231996241456E2  -1.897294500986819E1  -2.053881902741920E1  
 1.230007155000000E9     1.952400360654540  -7.407987437403405E1  -3.773217810497473   1.660121122623208E2   5.050053755774605E-1   1.470568226062103E2  -8.660507744853765  -2.153779903781450E1  
 1.260007110000000E9    -1.512961196462865  -1.424004980433736E2  -1.953132104733035   1.182518320137598E2  -1.438176371007631   5.428877006251938E1  -7.939273862592843  -1.090596996109679E2  
 1.290007065000000E9    -7.388123381249167   2.833041806601450E1   5.574933816891145   3.009085413757719   1.784329358810725   2.151970288848625E1   3.425490012242522   2.980859329777848E1  
 1.320007020000000E9    -7.126165751962109   1.018179421664132  -4.471350493765469  -6.127255964444118E1   9.050921378475164E-1  -5.283656156882018E1  -4.733101535981447  -5.329451841014890E1  
 1.350006975000000E9     8.989028396193127E-2  -2.289769869977515E1  -1.735660288979216  -8.963490106125195E1   4.944383479704398E-1  -1.308198767007573E2  -1.581981559202043E1  -8.843988543510841E1  
 1.380006930000000E9     6.121757618676305  -1.042874221890031E2   2.981810645888738   1.787974538920070E2   5.116408419078385   1.439020182095203E2  -3.929979191974092E-1   1.441090162704797E1  
 1.410006885000000E9    -8.859855754335622E-1   1.264202702123713E2  -1.303627861199703   1.117259890929554E2  -4.728508185517078   1.143565049578587E2  -4.882356945723228  -9.624293380971800E1  
 1.440006840000000E9     2.331444868655215  -2.611498133579025   1.385188641114012   3.181559868697963E1   2.789311564697614   3.012519550499291E1  -4.291108607196469   5.797501999180618E1  
 1.470006795000000E9    -1.377721212609905  -5.755815003374848E1  -4.101658600799240  -3.497466246456283E1   2.316384470802643  -5.593272470026605E1  -3.537785421296061  -2.324736174221488E1  
 1.500006750000000E9    -3.320630465329958E-1  -7.036476144543880E1  -1.453559047601325  -6.350176491840671E1  -1.880678378669081  -1.170814615927296E2  -6.418550828874405  -4.435031323922019E1  
 1.530006705000000E9     2.752942149297927  -1.307648677819982E2   4.628120204514824  -1.652077389593793E2   2.757276838232975E-1   1.545607610920644E2  -7.815294556112898E-1   3.342449216904851E1  
 1.560006660000000E9    -5.262468487370462   8.826897958529254E1  -3.332483575348411   1.269739499105917E2  -1.982416241930164   1.399844209751387E2  -2.991117119577079  -5.505818853177148E1  
 1.590006615000000E9     7.252168471532318E-1   1.555347925379045E1  -1.937614127672527   8.160056925891115E1   7.406775846494866E-1   8.380066836720408E1  -1.340066188273942E1  -1.169857130595574E2  
 1.620006570000000E9     3.784754941479156  -6.513693409558167E1  -6.585892316137376E-1   7.659906370794423   4.568876335386683  -3.282197734609744E1  -2.675577222483472   1.683917575774596E1  
 1.650006525000000E9    -2.176274850833019E-1  -1.216688554871120E2   7.430414120794411E-1  -4.273585242083170E1  -1.830046059280042E-1  -9.484403136942801E1  -2.015763248071193  -3.491092770320514E1  
 1.680006480000000E9    -1.014190321852612E1   7.942220856246565   6.493380291264984  -1.423606039939243E2   2.993613217697149E-1  -1.416048136711608E2  -1.249228735168760   7.988151870487586E1  
 1.710006435000000E9    -7.936494740540662  -9.410487431404683  -2.821674030771540   1.502702775233985E2  -2.280814452997292E-1   1.361802231511343E2  -1.381067942542397  -2.778736810225614E1  
 1.740006390000000E9    -3.223392460133190  -7.772975876669372E-1  -1.867392733620051   1.128507140468964E2   1.246796508435516   9.541543703637316E1  -4.075822641385972  -7.096994171062417E1  
 1.770006345000000E9     6.305185480065247  -7.228984347769226E1   4.761968733571651   4.292124996320394E1   5.154684373144375  -4.623734919240452  -3.022234879980152   7.365808836298915E1  
 1.800006300000000E9    -2.417356616405573   1.320412494016773E2   9.144631205906241E-1  -5.775865357111354E1  -4.123681862468577  -6.563834892442839E1  -1.312489969675927  -4.908927892268544E1  
 1.830006255000000E9     3.046861678318940   1.193104714498370   1.509391242716771  -1.232029090177398E2   3.356957193939172  -1.307463505508678E2  -8.141292881158471   6.826577944512030E1  
 1.860006210000000E9     1.391016440514354  -5.163078363324784E1  -1.628889373585463  -1.777574325565174E2  -4.327187640770975E-1   1.502394369479471E2  -2.333909396533908   8.514749086978748E-1  
 1.890006165000000E9    -2.874695678272958  -7.840296895632984E1   7.913427591022171E-1   1.342465382260017E2  -1.135961159742528   8.383223508637353E1  -2.216240510498387  -3.818399574177722E1  
 1.920006120000000E9    -1.162958962646675E1  -1.198933002810463E2   4.898792897122568   3.805069607707032E1  -1.973134474052178   2.887039052450729E1  -8.229504344256560   7.626196947063761E1  
 1.950006075000000E9    -7.731503485034404   3.340657379481484E1  -2.739831134678560  -4.073143578531383E1  -1.555649610205994  -3.362641705854090E1  -1.818374812362538  -1.980798560549254E1  
 1.980006030000000E9     9.664786004886192E-1  -1.465699992063251  -2.957130425702728  -8.314235597572937E1  -4.507043871777786E-1  -1.080883416721479E2  -9.572251306011795  -3.825363736892963E1  
 2.010005985000000E9     4.862532393868258  -5.080009582128047E1   3.858616377112306E-1  -1.321138045070400E2   4.711727135075405E-1  -1.743975941719475E2  -6.756681533546139   2.647703037933990E1  
 2.040005940000000E9     9.765233823526712E-1  -1.469223166253956E2   3.306136783263653   1.368167918228155E2  -2.616015847314814   9.122504144542778E1  -2.750684650591912E-1  -1.988715469173340E1  
 2.070005895000000E9    -2.688398861218513   3.331283432492483E1   8.790331797636837E-1   5.767999476215261E1  -2.160460588282852   7.444138734873152E1  -1.596534672172268E1  -1.523397837850630E1  
 2.100005850000000E9    -3.080686602717454  -1.576852657094657E1  -3.506098977327117  -6.923590857193209  -1.910162292460601  -2.004867999414887E1  -2.345867323544101   1.266505079384971E-1  
 2.130005805000000E9    -1.011890699345008  -2.015004605546488E1  -3.703835290028906  -5.117755407999734E1  -3.865334425586174  -7.394724135799699E1  -3.218135191424113  -2.148107152966274E1  
 2.160005760000000E9     3.721553256598831  -4.864455331562218E1   1.254157534811920  -9.515533942636051E1  -7.176919943489563E-1  -1.308903659361109E2  -9.602343657288410  -3.936886568902276E1  
 2.190005715000000E9    -9.961510310159806E-1   1.678814699864927E2   2.950141140770640   1.380191802054967E2  -4.963026016181203   1.251153352559296E2   6.561819890247257E-1  -3.966337628505447  
 2.220005670000000E9    -1.430201301465289E-1   2.380938998950302E1  -1.334114641045812   8.978634973784396E1  -1.881110650571261   8.634231130637625E1  -7.527524027164891  -3.372508197556855E1  
 2.250005625000000E9     1.518415206807056  -2.309761131488672E1  -2.344743287777038   3.807660760355635E1  -3.023631671569962   1.363740156673176E1  -4.313379400146634   1.510853184431240E1  
 2.280005580000000E9     1.007869079143306E-1  -5.193525308248573E1  -6.368962848679516E-1  -1.896130077637450E1  -3.963240574941402  -4.844903130582959E1  -1.102828178440384  -2.312320615932577  
 2.310005535000000E9    -8.789093707208457  -7.995600068760280E1   3.073784727610506  -9.960345966743624E1  -3.147406797125052  -1.107080025272668E2  -4.328579983230283  -5.050956213691421E1  
 2.340005490000000E9    -1.188644584373281E1   1.697617188028749E1  -9.546156824401533E-1   1.554269409180005E2  -1.760922232686928   1.678702342828372E2  -3.730013658491507E-1   7.892515388948850  
 2.370005445000000E9    -1.672248716942812E-1   1.340578547566764  -3.137605754755501   1.181093944179646E2  -5.266859630112927   1.014202866193503E2  -3.145444537374500  -1.836957780563353E1  
 2.400005400000000E9     3.999537388937662  -2.543991201696760E1  -1.055005502066155   8.020661828857045E1  -4.124007226431491   5.726377105063594E1  -6.468790468168752  -1.064702670479840E1  
 2.430005355000000E9     3.278943722440562  -1.261442043646034E2   4.820771188348473  -2.329758568165304E1  -2.449861338641235  -4.122096510453542E1   4.259846156472432E-1   1.481570974613979E1  
 2.460005310000000E9    -3.088987085583258   2.924887302675421E1  -1.668706068627588  -1.045302303465021E2  -4.073085369945455  -8.190718410252748E1  -4.503910881439725  -2.749457016972167E1  
 2.490005265000000E9    -1.446450621738800  -9.427422135989872  -4.785482092303637  -1.615335281872178E2  -5.351014890614394  -1.688243458186282E2  -3.223256836518012   7.969982148584993  
 2.520005220000000E9    -1.190453208268288E-1  -1.929204308008954E1  -5.081893308928404   1.524473229947211E2  -8.028439695980451   1.417841638086767E2  -1.872929678659547  -3.094252585249093  
 2.550005175000000E9     3.514866767600891  -4.006595108120116E1  -8.547202276792565E-1   1.097245436663661E2  -5.529662498620065   9.429338402238987E1  -2.453230934684453  -1.646335925218045E1  
 2.580005130000000E9    -6.163890334455825E-1  -1.667498011414739E2   3.763809642650814  -1.934183942297678E1  -3.836967422553625  -5.655062004832304  -2.050306843077451   3.365883988876349E1  
 2.610005085000000E9    -2.312664536920866   2.468602316859458E1  -4.547207701722006  -7.240162105504221E1  -6.085399744221589  -6.917393120481687E1  -2.473217800061537  -1.281881823362953E1  
 2.640005040000000E9     5.856430258620365E-1  -6.585627482720558  -5.528581641701199  -1.126041681953279E2  -8.733506291721881  -1.203393717032217E2  -3.662112160853984  -1.907298700720081  
 2.670004995000000E9     1.605798759626078  -3.459344470453216E1  -2.928791072175289  -1.648940747456803E2  -6.365939407250842  -1.657440525339678E2  -2.561168037028947   1.108023814081990E1  
 2.700004950000000E9    -4.698002784488408  -7.981807097305806E1   5.918122178603287E-1   1.051361952914290E2  -4.378347723800345   1.173957467200600E2   2.820786205023119E-1  -1.215358873726737E1  
 2.730004905000000E9    -8.218864710982285  -1.444407959800841E1  -6.185417196244913E-1   1.106673834190180E1  -2.650203244721466   3.206353415084092E1  -4.934785905519567   2.561644618999937E1  
 2.760004860000000E9    -1.505019511030967   2.608614818820299  -4.920102039820035  -3.812996901211685E1  -8.010471681492119  -3.324750060825302E1  -1.372426460405249   1.658783520695278E-1  
 2.790004815000000E9     2.044427366090508  -9.949709910202923  -3.773787180963731  -7.064753813370326E1  -8.597978937008829  -6.412120520354790E1  -2.022269016623031  -8.751292121690378  
 2.820004770000000E9     5.998854645190961  -9.232827422854227E1   6.091830223744817  -1.609118775787181E2   2.522407148856286E-1  -1.498867630670884E2  -7.016062956073484   5.445811790718375E1  
 2.850004725000000E9    -3.625312625735853   2.940396908772884E1  -4.877834038297935   9.883091347563462E1  -5.880541291356208   1.211479372029011E2  -6.774311378896359E-1  -1.044931069061028E1  
 2.880004680000000E9    -5.066753005669288E-1  -3.133826714902607  -6.523122464383258   5.333775032344497E1  -9.047607546667130   6.231975950120576E1  -3.591524404507303  -6.048253226350686E-1  
 2.910004635000000E9     1.225266136817574  -1.694546616070119E1  -6.062598544442830   6.909866577929313  -9.553310764171487   1.432516168487966E1  -2.128191851886335   8.092901935007999  
 2.940004590000000E9     3.455783565061675  -3.223827134703017E1  -9.632052240823622E-1  -4.758879359028989E1  -6.665622950131129  -3.166239109292864E1   3.920658210290906E-2  -1.602652793858507  
 2.970004545000000E9    -6.893981398870715  -1.341422304534829E2   1.696680963837296   1.773531667494460E2  -5.527473978729177E-1  -1.381576709801327E2  -7.585822078075767   4.437573420326593E1  
