!Keysight Technologies N9916A: A.08.06
!Date: Thursday, 30 May 2024 20:18:20
!Timezone: (GMT+10:00) Brisbane
!Model: N9916A
!Serial: MY53102361
!GPS Latitude: 
!GPS Longitude: 
!GPS TimeStamp: 0001-01-01 00:00:00Z
!GPS Seconds Since Last Read: 0
!CHECKSUM:1479726791
!Correction: S11(ON U)S21(ON U)S12(ON U)S22(ON U)
!S2P File: Measurements:S11,S21,S12,S22:
# Hz S RI R 50
30000	-0.958744871587963	-0.100597675965831	0.00336781397998254	-0.0162954866446483	0.0165135533687762	-0.0111560903090486	-0.954189806965615	-0.17868014629888	
30029850	-0.995269722502018	0.0186388478354731	-0.000918262815307219	0.000854721962526159	0.00178043306509046	-0.00150623050665091	-0.991592883153713	0.0177651989050839	
60029700	-0.999841460855702	0.0270495959192082	-0.00135056458664204	-0.00123914924275559	-7.90335831555287E-05	0.000615459518822367	-1.0018731327837	0.0273705375397864	
90029550	-0.996651980927453	0.0317475697957753	0.000849020335083755	-5.1916444494975E-05	0.0015349095204187	0.000196797150577517	-0.995433788641781	0.0299306429326364	
120029400	-0.98797898372373	0.0471412776136425	-0.00132328935606595	-0.00121866928198759	-0.000663208311115605	8.7554796604284E-05	-0.984226501986315	0.0398241123143019	
150029250	-0.986535618842703	0.0636839556630059	0.000341104838409291	-0.00151716835946114	-0.000674706625341894	0.000596672175298016	-0.983425931017461	0.0636359979531309	
180029100	-0.990747437066832	0.0785116188273718	0.00116868127422508	-0.00163752325858596	0.000140274322678485	-0.00024179714405021	-0.989091138333343	0.0796429533353246	
210028950	-0.995312756074071	0.0843003341400151	0.00108035715504443	-0.000867244653646909	-0.000724417091987588	-0.00132508190108949	-0.997143570255434	0.0856524924531046	
240028800	-0.99104772261985	0.0913728515048647	0.000212540481772725	-0.000850148734297972	0.000190532422590092	-0.00117934247921259	-0.991747047297597	0.0916930585596649	
270028650	-0.981139772979081	0.105768807630784	-8.45521304184487E-05	0.00036675048788325	-0.000167314855177596	0.00193562706977818	-0.981344150120367	0.102689394337673	
300028500	-0.974482294236651	0.123587121993662	-0.0013846890965366	0.0011906156135469	-0.00105949758701336	-0.000925662218836753	-0.976465002807258	0.123984308544289	
330028350	-0.98897504216258	0.137745100904607	-1.23803296253986E-06	-0.000471199081346563	0.000409129605388094	-0.000466715198023502	-0.988249374607733	0.13736267194604	
360028200	-0.990686298539945	0.143622500307306	0.000143060619209353	-0.00135792707869396	0.000948280124304029	-0.000193417092006769	-0.989743381593425	0.143183946515696	
390028050	-0.980174917764843	0.149810572890794	-1.68801971055442E-05	0.000226477309858156	-0.000288068430512034	-0.000919324425265209	-0.983047129202799	0.148991370683915	
420027900	-0.97087584164231	0.162590478651523	0.00133665435347786	-0.00025001119197976	0.000389234357497376	-0.000488800980204776	-0.968798575607934	0.157945699284547	
450027750	-0.971777829340231	0.187766202267205	-0.00039011488357078	-0.000101418539212252	-0.00168588943405768	7.23664688424335E-05	-0.965243852570195	0.185823085614934	
480027600	-0.981804469636474	0.196920088015417	0.00103210541589881	0.00113406530628555	-0.000100793503906239	0.000317528907381628	-0.974532134305752	0.200818831548672	
510027450	-0.979927861910214	0.200951799998646	0.000500018749104399	-0.000276905928176467	-6.25330974350787E-05	0.000732837721735714	-0.982142862600475	0.204442318498601	
540027300	-0.969489450660738	0.208322268735366	0.0010406803602289	0.00129881926161766	-0.00100786113998803	0.0007692761186089	-0.967452304716933	0.210440241010022	
570027150	-0.958643051700943	0.221662171795285	0.00106963791902839	1.96179094839266E-05	0.000373060625375928	-0.000298216712979108	-0.957552003053223	0.224847352612768	
600027000	-0.958954846526449	0.244547949946159	-0.000540742542548253	-0.00144050637248064	-0.000912480800886615	-0.00215260255213355	-0.963392333932915	0.247414819047606	
630026850	-0.96743172805997	0.255894366672012	0.00108140149480763	0.000475657614286678	0.000172331503974199	-8.95655668686664E-05	-0.965992947068054	0.256142815423731	
660026700	-0.964782294562414	0.257721548415264	0.00084108102209887	-0.000298657180558489	0.000285960473280484	0.000524119683635663	-0.96607860827342	0.257485016254138	
690026550	-0.949778674081511	0.26710584881743	0.000942673704801798	-0.00141774056320781	-0.000821842419073689	-0.00128429182415512	-0.954891011149845	0.262426799459408	
720026400	-0.941570004185894	0.282407510373854	-0.000418261749511369	0.000649302887758519	-0.000637092845023031	-0.000955063697164932	-0.942035578524136	0.281214172157298	
750026250	-0.945599391702471	0.302023755965998	-0.00116039982056146	-0.000388058274079545	-0.000459607513253636	-0.000910638090193616	-0.939737240955621	0.305372912176718	
780026100	-0.950692197096317	0.312259877704459	-0.000346440124213845	-0.00106351301022053	0.000718935157870671	-0.000342999147029207	-0.94857916115803	0.315758729276325	
810025950	-0.945311510456225	0.312865153207992	-8.80244858774688E-05	0.000493485724048963	0.000414735835841687	-0.00149222961989443	-0.947316425766216	0.316227195115368	
840025800	-0.928072481875831	0.320757390328515	0.000879449981034126	-0.000904169811650089	0.00110128055295216	-0.000202716615452972	-0.931118965729252	0.318820027673987	
870025650	-0.920307644414104	0.342182441062851	4.29426629988493E-05	0.00224329579866255	0.000418949366452007	5.03240376524835E-05	-0.921053223290215	0.340262830524998	
900025500	-0.92542394438204	0.358780231193583	-0.000163622060492296	0.0015077048168733	-2.24367225249328E-05	0.000216776853630866	-0.919624700319465	0.358231661680828	
930025350	-0.930450930537079	0.36512929765964	0.000981192844435979	0.000117391402791434	0.00124749362048889	0.000430107595760235	-0.928120955096154	0.371388795411373	
960025200	-0.91900009564567	0.366969827827884	0.000279714415439465	-0.00295188104993783	0.00106269200441842	0.00018695580949356	-0.926152601795693	0.370315174732709	
990025050	-0.905848577085504	0.38023374691142	-0.000214349120507478	0.000809884948666054	0.00235764243168605	-0.00144205689303337	-0.908017711047095	0.375711950401785	
1020024900	-0.903213744967994	0.399033828563676	-0.00108138101155143	-0.000123024360652442	-0.000528172740712461	0.000346650943700246	-0.893211481189615	0.397854072900458	
1050024750	-0.907530171121791	0.416402941136878	-9.58124321981141E-05	-0.00121205936184633	4.74998742831636E-06	8.90519532112143E-05	-0.903212998674801	0.416552997832675	
1080024600	-0.907949702462304	0.418519776905204	-0.000273723919592704	0.000295934266268505	-0.00034022214490694	0.000317650241806745	-0.910633211446118	0.414198440072916	
1110024450	-0.897218266033811	0.416471169908841	-0.00177035263134519	-0.000150336292871803	1.42928862400231E-05	0.000284547630184013	-0.898829038219539	0.420103162265567	
1140024300	-0.879610877166306	0.430077973416908	-0.000476917508423205	0.000579301351167637	-0.000574456847585658	-0.000911663588141046	-0.874700227455906	0.432280097233006	
1170024150	-0.875309938820076	0.456356788785944	0.000188469492954734	0.000293270231280993	-0.00222755635993949	-0.00130645905372605	-0.87119319718045	0.452411768729743	
1200024000	-0.882025989249216	0.468594044382596	0.00189672116784764	4.6412587698351E-05	0.00127418607657445	-0.000577107497596736	-0.873754987866832	0.470288245699129	
1230023850	-0.882862369612442	0.468126964377521	-0.000256667711658926	0.000131218870409875	0.000645722528979883	-0.000575380206509114	-0.876269514985765	0.485553582188587	
1260023700	-0.863717924263524	0.469023400735226	-0.000847816685034253	0.000317515327385443	-0.000273905933191753	-5.94070735776308E-05	-0.869709857802024	0.477487042207227	
1290023550	-0.850079929747196	0.489846817763603	0.00219699358568235	-0.00123613951623817	0.00405748377010864	7.03921452617692E-05	-0.844371278952942	0.485536956269214	
1320023400	-0.847442459767121	0.508415003349772	0.000210198930836034	-0.00076050579964903	-0.00134585507605935	-0.000479403390413431	-0.824090040885261	0.497402496522964	
1350023250	-0.858406736743778	0.515341765048416	0.00101685248432224	0.00116718085798829	0.00176792094271309	-0.000393957885708514	-0.85872408465207	0.518867238733472	
1380023100	-0.850606999018321	0.513175635326837	0.00241686087123486	-0.000457768673472881	-0.00276397217990732	-0.000138192909040612	-0.854950193806313	0.516678975335086	
1410022950	-0.833611228408683	0.514037538586218	0.0025800420724291	0.000118076615423444	0.000602377878366186	0.000102807240728478	-0.830543833795167	0.517246589238746	
1440022800	-0.813173890402872	0.535726634572333	0.000140194750775025	0.00199448537039306	0.00107661002547996	0.00320093723234336	-0.804318572361076	0.535671230547223	
1470022650	-0.826166778635353	0.557590024472822	0.000896254010557629	0.000261665265578985	3.25731608348392E-05	-0.0027579060352736	-0.799581166056776	0.564247318857682	
1500022500	-0.824573045914604	0.56105344115614	-0.00232813614723789	-0.00234192229897134	-0.00135647182509615	-0.000373118756168873	-0.817008757308365	0.574960591465446	
1530022350	-0.813223007055557	0.556629546412655	0.000730590429268094	-0.00196158889391739	-0.0017676352482947	0.00193446473692057	-0.823811941643031	0.569985569436033	
1560022200	-0.795889116331702	0.559956119726483	0.00226293959330827	0.000914481756155875	-0.000522913378808285	-0.00213160592784373	-0.792836795271703	0.568126494609498	
1590022050	-0.765140364959908	0.573136660648907	-0.000115249427650214	-0.00125411795743039	0.0011518083323247	0.000218187925613819	-0.7663886266306	0.585258559786671	
1620021900	-0.789552958941494	0.611319187561412	-0.00311501742596532	-0.00157617194059896	-0.000883275464810195	0.000847125106289689	-0.769332683911952	0.612387349751693	
1650021750	-0.787839059607198	0.613346392318889	3.14965827605363E-05	-0.00317656423778456	-0.000226847946262631	-0.00254583791938989	-0.788096780733342	0.613793243935708	
1680021600	-0.776533578091488	0.600565906368249	-0.00313153156862499	1.15639030086616E-06	0.000409871072404399	-0.00136527743418165	-0.791548130069009	0.591063299853548	
1710021450	-0.742803204037298	0.603856032048514	-0.00373815317506491	-0.00207508783903097	-0.00221821938268665	0.000406889945422393	-0.746481916693371	0.613953136151495	
1740021300	-0.728632870127407	0.627659280369213	-0.00376460957733963	-0.00290830286136053	0.00150517117021036	-0.00269574478590021	-0.711908696264738	0.623709850562189	
1770021150	-0.734945103524088	0.655442270904345	-0.00428544351984486	0.00109103401610499	-4.29878955265768E-05	0.00458078450788014	-0.710417581431422	0.646676923018527	
1800021000	-0.74256655367742	0.660952451729699	-0.00177571458021476	2.3517598345477E-05	0.000212546261623518	0.00025266297977919	-0.739637598646764	0.66417084128635	
1830020850	-0.73063233805286	0.6394778616399	-0.000415603729196934	0.000238661658687407	-0.00246462456430271	-6.98024518731822E-06	-0.742517554682697	0.659153533548591	
1860020700	-0.700328867360215	0.648237418782326	0.0013256257721201	-0.000899754916090832	6.10839862620293E-05	-3.53867561079369E-05	-0.696599492829557	0.644251765221369	
1890020550	-0.695137524369322	0.680844322876041	0.001163979420578	-0.00169274543800807	-0.00228492038937547	0.00309515826600324	-0.665345329363552	0.675622545659	
1920020400	-0.665960077296997	0.703777171814167	0.0034753170717427	-0.00390635505514782	0.00260312696076318	-0.00178738264265538	-0.666012613002519	0.702061563004016	
1950020250	-0.720155293988842	0.690324936077704	-0.00459762196882297	-0.000684058962086318	0.000355632641600552	-0.000473108003822098	-0.702313171906946	0.711023948320222	
1980020100	-0.689719138178513	0.687402508588981	0.0023513719698114	-0.000828062334838003	-0.00298939872476752	1.0911791501744E-05	-0.695165509066687	0.713539657347071	
2010019950	-0.659252810638024	0.690831553630097	-0.00356497804126119	0.0039725764347965	0.00323858971879278	-0.000409576818969973	-0.654390501611707	0.683164442332121	
2040019800	-0.653055896862395	0.721726302156884	-0.0028713071271308	-0.000124855574837527	0.00229955204277218	0.00166675326239752	-0.612747131922416	0.728390128013012	
2070019650	-0.63891971100852	0.750405742452924	0.00395235734258885	-0.00626888587479487	0.00108928999783714	-0.00128684564239271	-0.615385730449907	0.74300742412068	
2100019500	-0.673915689096446	0.710941680180546	-0.000851307042219685	-0.00137760851674804	-0.00060279312753177	-0.000220651852860971	-0.654894414424814	0.747341772253175	
2130019350	-0.635443430584393	0.71386630891109	-0.00722509641643476	-0.00272757744375272	0.000751927851804806	0.00163691024486479	-0.658370833999783	0.749842522817228	
2160019200	-0.617990991232476	0.717851843695111	-0.00218503170481859	-0.000405424356165435	-0.0028032353730267	-0.00202027715164728	-0.605648337238967	0.71929609363741	
2190019050	-0.599408479880074	0.748959495208215	-0.00593294274901715	0.00682440229647921	0.00250418925302457	-0.00127512039895375	-0.575145876936852	0.742277897667646	
2220018900	-0.631553431481052	0.782443423711101	-0.00590179530749028	-0.000347411444085413	-0.00614355321732506	0.00294803632750145	-0.562398647301488	0.777923253428614	
2250018750	-0.624530521125568	0.747660667977635	-0.00274152345004979	0.00778992443629536	0.000170362931953257	0.00552629941109256	-0.611440993136646	0.795301424919884	
2280018600	-0.592959741542026	0.739082520486673	-0.00062561098925565	0.0029963578280826	0.00263943628197874	0.00443984240884349	-0.613394230157003	0.768830247092551	
2310018450	-0.547224670364952	0.730650444394282	0.00197131440786402	-0.00138056997924451	0.00260106257301768	0.000639226089439283	-0.572806020177816	0.774193744285957	
2340018300	-0.546601057205239	0.792865666220572	0.00402978713075398	0.0031887249898393	0.00345093665579348	0.00205642402100318	-0.518456204290789	0.796450531694274	
2370018150	-0.576846918009206	0.809916890227459	0.00430584395671584	0.00218333336686337	-0.00162956745936163	-0.000337167967459428	-0.522191894153874	0.827156579096475	
2400018000	-0.57713790574609	0.801400633466759	0.00372129308484808	-0.00158327941978982	-0.00248359804681543	0.0043704487769959	-0.568358807804422	0.820675708400526	
2430017850	-0.535741947926295	0.786263433815731	0.00400895831327453	0.00462673641322635	-0.00422850663227623	-0.000649108321492452	-0.544279570967454	0.83901849352267	
2460017700	-0.519886156111822	0.808725992880399	0.00398491549199564	0.000488079018302498	1.18136726074644E-05	-0.00314078905634024	-0.504523252787254	0.782661605645861	
2490017550	-0.535495283118938	0.844890618290693	-0.00993515225088241	-0.00170126290692218	0.00489916275349028	-0.00369677867904447	-0.465782192872052	0.813381164045936	
2520017400	-0.515854323916108	0.850447967440949	0.00587253748692229	-0.000779849091867939	-0.00122514981991918	-0.000584868463571721	-0.443461534454653	0.839135658263004	
2550017250	-0.521383629968031	0.816536795137441	-0.00210416145870785	0.00279805656293346	-0.00501209428764214	0.00399821090876921	-0.544709307024181	0.844465141547775	
2580017100	-0.486272892614241	0.804673175416273	0.00724195870156315	0.00315267739192773	0.00482722360187537	-0.00594083028368406	-0.50687827730944	0.856669456298916	
2610016950	-0.442339771830465	0.838406236985335	0.00378506238491932	0.0010731808288391	-0.00475980497917981	-0.00381811229693671	-0.461613787372154	0.820067984178021	
2640016800	-0.468138992621722	0.860048414740682	0.00552571991248283	0.00825244486980393	-0.00949770167875333	-0.0047849383290204	-0.404775973156887	0.845846816074752	
2670016650	-0.443375028235254	0.88365214068853	0.000844866080633203	0.0035317106156122	-0.00115058691933434	-0.00502857192498677	-0.399573679745558	0.877403177904682	
2700016500	-0.488314670694288	0.833290824774548	-0.00334842279222695	-0.00774134914891149	0.000734577251024379	0.00420712226407104	-0.47761100892714	0.877015057138877	
2730016350	-0.431851745797419	0.829174576682534	-0.00801003415394272	0.00712101518407084	-0.00546784557226883	0.00754488358965159	-0.461653576458545	0.873329711735135	
2760016200	-0.402241376545628	0.860604978995972	-0.00108470082407913	-0.000693834816513197	-0.00355244311888748	0.00441701617675447	-0.412697548628856	0.855508609663862	
2790016050	-0.411444978542241	0.894801705504146	-0.00529831897920173	0.00671324208650421	0.000772748555126339	0.000756039183078944	-0.356830157860139	0.867421140492209	
2820015900	-0.436889754315513	0.912023680758567	-0.0098831779994694	0.00160423456109407	0.0015759744845975	0.00206398486789368	-0.365066995872496	0.918329218652147	
2850015750	-0.403579859858169	0.867008876554328	-0.00286425697893714	0.00356125890980082	0.00206132197285328	-0.00302393012736639	-0.386197944914868	0.926877168430664	
2880015600	-0.38003306461218	0.851613774517429	-0.000131247119327707	-0.00665003432642326	0.00143829334649186	0.00421938415113179	-0.409116068452924	0.892991661651051	
2910015450	-0.344119766641154	0.871616845446266	0.00552895637041013	0.00151507202354977	0.00174366675460634	0.00375789684077568	-0.365048217036642	0.886953736503691	
2940015300	-0.280372661919647	0.886651342411969	0.00069821490013081	0.00372072362619977	0.00113870619689217	-0.000688788597257051	-0.317114783522099	0.908422877008014	
2970015150	-0.394981184508367	0.920600909180763	-0.00106450470772915	-0.00426174621506896	0.00996477045867734	0.00232101589990424	-0.338895055255857	0.942546469033188	
3000015000	-0.3694533007279	0.882999343471756	0.000200759242414548	0.00502000297290166	0.00121367192317742	-0.00416928808288866	-0.367782553811565	0.932500521253483	
3030014850	-0.322268146690074	0.88233806062655	0.00817768837797547	0.00086680601844827	-0.00309092007464559	0.000526320790174792	-0.363379881523428	0.925239751698327	
3060014700	-0.287006091167975	0.894079873053881	-0.00446322657277983	0.00109736583413495	0.00422454673655089	-0.0059372303974281	-0.315029286641888	0.914603754091416	
3090014550	-0.322778244378903	0.957385888919076	-0.00231646619471113	-0.00588891326121479	0.00239109640179151	-0.00318513798181848	-0.273927155550105	0.934224812240468	
3120014400	-0.307587265167949	0.940787149326369	0.00254139324998221	-0.00432093081544197	-0.00518763955590245	-0.00407013787853415	-0.286776229417909	0.953171932864069	
3150014250	-0.296579881921402	0.914710803822805	-4.9733855260078E-05	-0.0051654312789656	-0.00230893429881905	-0.00250641810168897	-0.287849284672006	0.953667116198758	
3180014100	-0.271211753689077	0.906360295441551	-0.00269243885827629	-0.00401637865205447	0.000106490290370142	-0.00110447653085918	-0.281532363053202	0.939207841760381	
3210013950	-0.242598817924956	0.927665269710488	0.00502813571423721	-0.000168588550189549	0.00448000726628326	0.00189993356055888	-0.257391350593657	0.93004662077703	
3240013800	-0.243025697087171	0.949531438400847	0.0016363490851713	0.000507088336800171	0.00143906985855116	-0.00172378645058754	-0.226936139063647	0.952971682702983	
3270013650	-0.281100877594992	0.964661023476348	0.00337449056744875	-0.00611745529944053	0.00217921553290687	0.000429618781826	-0.232039604009868	0.973916654030217	
3300013500	-0.228916554256222	0.949093023713427	-0.00274330950340376	-0.00300932067765238	-0.00534761633883882	0.00190778964321697	-0.212334423262852	0.998113733028814	
3330013350	-0.194455731995669	0.908619135201716	-0.00287738651598566	-0.00264382893781637	0.000314447019317707	0.00265475854500255	-0.241499754318915	0.939409403077285	
3360013200	-0.181105361801073	0.95643095373823	0.00221904529698924	0.00293162545482976	0.00444211115836796	-0.00540840968505773	-0.19642856104313	0.950440614934387	
3390013050	-0.169924055739654	0.972555707851523	0.00393784915393712	-0.00124040180901756	0.00288268914708006	-0.000494976572547733	-0.17693137011793	0.974032616259326	
3420012900	-0.202752600704481	0.975149807787227	-2.92115723267674E-05	0.00127542226747642	0.00120775914117642	-0.00639992763560742	-0.173495792344248	0.995462566206679	
