!Keysight Technologies N9916A: A.08.06
!Date: Thursday, 30 May 2024 21:43:53
!Timezone: (GMT+10:00) Brisbane
!Model: N9916A
!Serial: MY53102361
!GPS Latitude: 
!GPS Longitude: 
!GPS TimeStamp: 0001-01-01 00:00:00Z
!GPS Seconds Since Last Read: 0
!CHECKSUM:2146891203
!Correction: S11(ON U)S21(ON U)S12(ON U)S22(ON U)
!S2P File: Measurements:S11,S21,S12,S22:
# Hz S DB R 50
30000	-21.5921922132224	-101.875307293527	-0.00705790828929477	5.87986356441423	0.0275370378757097	5.36024925394959	-18.7255428660228	-77.2015934689619	
30029850	-50.530559643763	28.964918003626	-0.0542924489411647	-1.06241583667556	-0.0623509495912142	-0.921592473220326	-52.7001906015976	87.3314459707616	
60029700	-45.7465154027136	165.577202645691	-0.0520010825732975	-2.05140221620869	-0.0611152332918352	-2.01964672143527	-43.3484916044164	175.124024668351	
90029550	-47.5215433739663	177.868982284415	-0.0474383178349453	-3.08968277734353	-0.0564281970434921	-3.08255249811362	-43.9369492237674	-166.13869130968	
120029400	-49.8769411994836	19.6075325978752	-0.0444103422557404	-4.0950476091097	-0.0593061793412485	-3.96168330646473	-50.4458500893046	8.85930990292301	
150029250	-43.941537010888	-0.0907540368972664	-0.0409770195062068	-5.14596380714749	-0.0414513188345403	-5.21323341400182	-41.1375265607351	4.53813888053848	
180029100	-54.3362688976261	37.8972881777319	-0.0480700019697603	-6.16581888765476	-0.0422737636563999	-6.19881307262598	-46.9006528326627	57.8315221411815	
210028950	-44.3593600744511	169.753293586056	-0.0449518649375185	-7.13463427593326	-0.0446215811937139	-7.27981606988591	-46.8674365302702	139.998409346825	
240028800	-43.7465666470075	-179.543238421488	-0.0392853375275135	-8.1887835392932	-0.0549740421950693	-8.1072354217238	-42.4201578186355	-171.842447590609	
270028650	-47.1569206566579	-49.8652292082131	-0.0430528780323445	-9.21232134247935	-0.0537418325827868	-9.14234280249636	-50.0969481147037	-66.1437836353503	
300028500	-42.6978018554967	-3.88444476243213	-0.0507513596216158	-10.2230286943126	-0.0461958290290569	-10.3003229944445	-45.3683396171332	-0.979956429482064	
330028350	-45.852260424106	43.2198778928473	-0.04870844032833	-11.2017974057428	-0.0491798019275897	-11.1759366226769	-43.2070075596966	43.442622549691	
360028200	-48.3176845936431	155.090506103018	-0.0444507219004127	-12.2159476722767	-0.0488808201293381	-12.2290178189728	-45.035023928396	119.709921675335	
390028050	-46.9811267618541	-152.14998317477	-0.067914181944681	-13.2555199710786	-0.063722211179206	-13.1423620394109	-47.8611627752368	128.852021021985	
420027900	-46.2170465364751	-54.4393480690346	-0.0520088697939433	-14.4038779664509	-0.0528385294611024	-14.2385801272166	-50.6611616207115	5.78973632117597	
450027750	-38.458678743957	-10.2328592424409	-0.0514080083958797	-15.2886398660917	-0.0606749959555645	-15.4682917597675	-48.2454186665266	-49.8611291291481	
480027600	-42.0151727649566	27.5850910742038	-0.048357763386215	-16.4282115303324	-0.0676728275540288	-16.3447716598619	-46.2019507953335	7.09559887902403	
510027450	-45.3337161046364	137.662741730723	-0.0509896830624034	-17.3057911833213	-0.0728262436699826	-17.3541631918805	-42.3272457391317	115.932402796603	
540027300	-46.3472281489799	158.931543776679	-0.063158866652287	-18.2635248366963	-0.0636987737619731	-18.2931562357453	-44.0906379286267	150.425748585105	
570027150	-53.1040625127426	4.24723581002058	-0.0793005881610864	-19.4744379559131	-0.0687351832124913	-19.3856561336445	-49.210622361022	-62.2350460081924	
600027000	-38.2842922756738	0.343285886462201	-0.0674020501422779	-20.3937666205779	-0.0583211388112738	-20.4526342892918	-41.509015307324	-25.0783021397842	
630026850	-38.8428752254972	17.1451251631313	-0.055065643994122	-21.5322727395838	-0.0715455841108773	-21.3440720211747	-44.4862261908432	-2.42230948888551	
660026700	-49.71305831106	61.7219060500518	-0.0623266674903613	-22.5729298545003	-0.053639646150743	-22.2756389840541	-44.1786286298003	104.948437121382	
690026550	-52.5341287932876	155.422654863713	-0.0550442009812767	-23.5465588174787	-0.0620345868346419	-23.532213199034	-41.7546434994307	139.117075545894	
720026400	-56.6135643150877	-33.534714092135	-0.0681339146552415	-24.6212886156517	-0.0679471026302386	-24.7508671494461	-45.7813102589207	140.295823024443	
750026250	-42.7563498470447	15.1754043292901	-0.058054256582565	-25.6134483625148	-0.0571766589382827	-25.5581074429265	-39.9761740564403	-31.165775656122	
780026100	-40.5926372224404	48.0707532922448	-0.0548903718074635	-26.4329334149065	-0.0626020322936487	-26.9227653190206	-38.501008156138	-32.9692461375959	
810025950	-48.0214027512678	87.917448227874	-0.0653982554125422	-27.620285320107	-0.056768510053155	-27.5394603598042	-51.251969988645	63.1935575454458	
840025800	-45.6258440711817	154.688312024381	-0.0638088871852606	-28.5793474097747	-0.0592975068211141	-28.5787055314031	-42.8648118983504	149.78000151923	
870025650	-42.3731866279308	-27.4351434267551	-0.0661361479195944	-29.3492700826963	-0.0648367084782537	-29.6212418317498	-48.3688420807632	-164.074638818765	
900025500	-37.8853297833985	15.5055485082814	-0.056066375715098	-30.7710384035416	-0.0648255557610787	-30.730931831165	-44.7262496264096	-88.6587756308207	
930025350	-37.999215538596	36.3956015782956	-0.0635512430056233	-31.7061723886436	-0.0492775532767903	-31.7617368191755	-40.3319238812438	-33.4294373015344	
960025200	-39.9074432326338	117.192595529541	-0.0637570021516784	-32.3322151874013	-0.0531680875769175	-32.8466034816983	-48.3978971261281	22.544922141762	
990025050	-41.1162248554255	154.779146947877	-0.0565004227743167	-33.8100269207065	-0.0388376260726225	-33.8359909184478	-43.2840964389959	128.283169113072	
1020024900	-48.3489176940013	-138.023099531795	-0.0709832266166667	-34.7496555112818	-0.0653761634013826	-34.6308720034911	-47.4222905827199	-154.139391031209	
1050024750	-40.0482385909755	6.16397511388037	-0.0686017012961422	-35.7355563276165	-0.061484425738711	-35.7857944352583	-42.0848997443131	-92.6544248076972	
1080024600	-40.3745682462138	11.0927231377033	-0.0621674991471351	-36.6974441251625	-0.0545529289150702	-36.8186682044114	-39.8153387474374	-47.126544192118	
1110024450	-40.2224332609686	45.2742933338001	-0.0491401783163257	-37.8706076160376	-0.0750386483242187	-37.9154463637586	-49.5155556942921	43.8978786997976	
1140024300	-39.3040184367572	102.315734905549	-0.0602584401021766	-39.0434697790105	-0.0569099648732039	-38.7477541326185	-41.5301789574113	144.451459605876	
1170024150	-47.441027902053	-159.362060243351	-0.0591456363046512	-39.8840750403718	-0.0565347233999133	-39.9032006854947	-46.5394680756725	166.317118763429	
1200024000	-53.1342355353868	-6.90655939117877	-0.0686729930221584	-40.9701670632775	-0.08375680243891	-40.8325385948963	-44.1474306581432	-93.396482726505	
1230023850	-39.3546597233645	23.6635237548547	-0.0565890285878641	-41.8938798890701	-0.0671666085156746	-41.8916170291014	-38.5221415296999	-62.247335229875	
1260023700	-42.2210220862751	33.352496425124	-0.071092283425461	-43.0368842106837	-0.0527089876452066	-43.0425347711962	-48.9088831465429	-31.3317825726884	
1290023550	-52.0080795352625	-171.429095275078	-0.0559979316344246	-43.9816321077224	-0.0417636778264012	-43.787611315768	-39.5245822112991	122.774604075003	
1320023400	-54.943037922641	-173.893037948238	-0.0649420857572939	-45.1136197821366	-0.0633459281702674	-45.0382965844302	-40.8962981924298	127.182903225151	
1350023250	-43.0641866516988	29.6212115242826	-0.0657898312690271	-45.9990726186052	-0.0526987256115801	-45.8865174418237	-42.58985509286	-106.103484053233	
1380023100	-39.1641444525752	21.5998200904201	-0.0520157112326229	-47.1682566003424	-0.0651457682816997	-47.0361521838566	-39.6751271145404	-64.3631268787175	
1410022950	-43.4552548191952	37.7698532693776	-0.0648207158280368	-48.1496584574511	-0.0705110098831806	-48.0954518263075	-44.0167448117059	-51.0059216306775	
1440022800	-45.0357099605984	168.824302635765	-0.0528616536952927	-48.9272543353435	-0.0650707497107772	-49.0168325826327	-43.1742760179288	85.5681202119432	
1470022650	-47.7975514719338	-132.434261030963	-0.0659878968400834	-50.1181942157915	-0.0650601068487278	-49.9398298582682	-43.2156075172998	152.01851854077	
1500022500	-38.8820194163252	-36.4197490141635	-0.0505536972642435	-51.1656448105465	-0.0532880214149452	-50.8980629823479	-53.5692531056342	-101.345313218871	
1530022350	-36.7582505105825	5.18393616663652	-0.0617161617418036	-52.1359439159397	-0.0371189772835899	-52.0745288498089	-42.4385104306457	-54.6393949645817	
1560022200	-38.1032617156906	37.3403142504209	-0.0579580713241689	-53.2794641540132	-0.0684735854115225	-53.2356068638946	-42.6941235313779	-57.1288310771679	
1590022050	-41.3383871398752	134.752872420245	-0.045892181009758	-54.0590459695879	-0.05369272818318	-54.2147107360116	-45.4582851450405	49.5298782938565	
1620021900	-40.7302433498699	-172.307539672666	-0.0608447004737391	-55.2037269877913	-0.0660136963766461	-55.0988699786586	-48.7809739288837	125.736543532519	
1650021750	-46.4330710896914	-109.832934276048	-0.070149756868896	-56.1750531271229	-0.0502769504163266	-56.143144334809	-45.5213833888004	-122.438925031958	
1680021600	-39.3114307682471	8.17538592916926	-0.0583537318415486	-57.2063326876787	-0.0607764861167733	-57.1413145672051	-43.460761782126	-78.987144230271	
1710021450	-39.9246649638118	18.652138647899	-0.0658826126155261	-58.2537614537569	-0.0607843362742589	-58.2136794277343	-43.8265428947219	-46.702155199566	
1740021300	-46.0560034829168	35.7180895301401	-0.0557779631584462	-59.4019105780008	-0.0487273482433942	-59.933992158197	-43.7340022136878	-11.9106123482634	
1770021150	-46.5459184666531	138.494655293418	-0.0423449893763682	-60.2792782276764	-0.0577638504105596	-60.2660437643692	-45.751073377431	109.827647130319	
1800021000	-43.9913354845189	142.361967964561	-0.0637283565561634	-61.8246991161559	-0.0583889581857918	-61.3927036493426	-45.6234526906667	-162.885073815569	
1830020850	-42.1352306728646	12.0040933086364	-0.0554706918201452	-62.2611087468418	-0.0380138788705425	-62.3288613110097	-38.571511763041	-101.048129672386	
1860020700	-40.5368209111713	51.6553666166905	-0.0429058930755384	-63.0381824365846	-0.0678785594506602	-63.9433156680345	-38.0181598309622	-115.575397239199	
1890020550	-60.2621032695803	109.439667480738	-0.061152206486521	-64.4339925050399	-0.0630515113359079	-64.342033706586	-45.0498060604513	42.2490652374877	
1920020400	-46.8854183129007	-128.111911037939	-0.0562589054484412	-65.552765956571	-0.055793860355633	-65.5903172726974	-40.8101020051416	64.6032208174166	
1950020250	-45.7435134111216	32.5954256191074	-0.0434718677319103	-66.3559766797732	-0.0465162464557669	-66.5362398568435	-46.5602284647307	-161.060675341317	
1980020100	-39.5842542881879	39.6361042336074	-0.0430427596869507	-67.5149081108731	-0.0558559171588936	-67.4135281019891	-41.4506999218719	-104.67050593454	
2010019950	-40.1355009090331	48.6708770903429	-0.0388040380906516	-68.3874623105452	-0.0310848691577443	-68.2397240650041	-42.6363916526546	-79.8432509962596	
2040019800	-45.3082402507341	110.358504179593	-0.0481532706477405	-69.542989387611	-0.0510315134769814	-69.5511970277201	-51.2016515357961	-81.4520001034956	
2070019650	-42.7710836496569	-168.286459461342	-0.0531577599990127	-70.6281739542571	-0.0471168431939515	-70.6142942360773	-43.9577081087691	51.4523816511936	
2100019500	-48.1225213639674	-93.063525883931	-0.0710596478747752	-71.4425500449222	-0.0671969898393146	-71.4055383600659	-48.7050555690153	130.358798257232	
2130019350	-38.6656280764447	-3.14468352603204	-0.0462209947416656	-72.5982435036846	-0.0603423999722051	-72.6264508203976	-45.8584060264329	-157.798188434212	
2160019200	-36.8697472735576	35.3151734296715	-0.0524045834082631	-73.4913048826184	-0.0486083078182596	-73.2824899689603	-40.0991954135026	-75.8284811779682	
2190019050	-37.4756846843256	80.0980939924867	-0.0518319057669279	-74.6327755247522	-0.0514142652792129	-74.6977098153399	-56.9615672370887	-92.0630254730934	
2220018900	-39.7107470803027	147.705952632559	-0.0574255095613288	-75.5425157074955	-0.0624241729381874	-75.6555380846493	-51.1856887054876	131.521283395928	
2250018750	-43.693870585024	-173.937152091399	-0.0665784266083273	-76.6428663842567	-0.063824704979901	-76.6151918819952	-45.888956918441	154.52427765423	
2280018600	-44.1450425506397	-9.92817272485884	-0.042393937746458	-77.5688322355123	-0.0385594235043834	-77.4718069648632	-42.2295316783051	-144.382321545574	
2310018450	-40.8595910133642	-10.0930987359486	-0.0543577781688916	-78.7064910552658	-0.0490247994864031	-78.8042462104612	-44.451390676591	-110.109216196122	
2340018300	-44.8283013356689	63.9782972674704	-0.0344284150044477	-79.830020681999	-0.0379263501872731	-79.5402091246451	-43.8595465840353	33.7260579755329	
2370018150	-41.5617270530136	108.345054812632	-0.0497810376199063	-80.7546713339016	-0.0417519149280111	-80.8926778927687	-50.7644208919932	51.9433804657505	
2400018000	-43.8339637933463	131.042921610293	-0.0395659314298	-81.7628843738149	-0.0385769659089717	-81.6836926287974	-47.5135116622396	140.473687621285	
2430017850	-42.9424961670992	113.312203810688	-0.0343422910391168	-82.8570175682231	-0.0354438887983462	-83.0676678723685	-46.0538121999283	-169.127197498391	
2460017700	-44.4325270861558	75.8425177879706	-0.0251324638368493	-83.4764278707378	-0.0463991510707783	-83.6857127832447	-38.9462713657822	-134.095625391467	
2490017550	-39.7887102376608	151.632779328004	-0.0304933409091308	-84.816269392968	-0.0315327957250386	-84.2723711879408	-59.6965278787436	-170.502458588444	
2520017400	-50.3496049752712	-165.708028922212	-0.0478013037989344	-85.7717196667932	-0.0491110176308681	-85.8555648313351	-40.9359604382167	76.7152000514427	
2550017250	-51.4361954521645	99.2560412652151	-0.0395691858227388	-86.7559802231821	-0.0626530989683658	-86.678501716752	-42.8510829987379	118.99966069974	
2580017100	-45.0148874193069	38.7867969456183	-0.0501629600708784	-87.9269316670186	-0.0615602441714693	-87.9483296043817	-53.5459389960305	-174.449427185044	
2610016950	-36.5338460545427	56.0857304074081	-0.0264692037099946	-89.0530021117731	-0.0644614886658402	-88.7205824379369	-37.4881848337495	-122.83373028961	
2640016800	-39.7492781007409	101.163943402617	-0.0429359034530004	-89.9502047175765	-0.0137864954601011	-89.9268452208371	-47.4402145663983	-115.097317299908	
2670016650	-41.1288439924256	142.312831104653	-0.0495817405197786	-91.6879597349983	-0.0467576869299771	-91.4495761274459	-48.3816825766284	-80.5967991747148	
2700016500	-46.4437637365701	-151.497073044498	-0.0530754240634006	-91.6055530273501	-0.0416423456346984	-91.8087720343483	-41.2154739058164	92.5469111601729	
2730016350	-42.3287156966586	-13.1107797927615	-0.0566052201546675	-92.9728644312236	-0.074786470736336	-92.554409201404	-49.4072281113451	123.955856251301	
2760016200	-37.3222058659562	17.7777701448586	-0.0443878404888864	-93.8896365896179	-0.0838906213962823	-93.9020464726759	-42.5866802768223	-123.010062788357	
2790016050	-37.7854771673172	61.2876584490604	-0.0337552674141201	-94.7462526111523	-0.0671300484796687	-95.0973217275784	-46.2519687348826	-127.481812574851	
2820015900	-38.9459905364327	115.474931673539	-0.0535860367900544	-96.0559808117307	-0.0735245057401027	-95.8298246729882	-47.4156995185181	48.7941013095748	
2850015750	-38.1998031195441	155.851304236182	-0.06285027139806	-96.9860548637727	-0.0544123377048312	-97.0747465021107	-48.509938792947	103.889669892038	
2880015600	-44.6938044008183	175.26630946599	-0.0446917963375006	-98.0715620828713	-0.0661251937209458	-98.0113080460099	-45.2992124720899	125.832167004192	
2910015450	-45.8991340349637	-5.75060934969244	-0.0382108022810192	-99.1064110395187	-0.0603541466085916	-99.0334339389182	-45.7135726338051	-178.937082209134	
2940015300	-43.3956466714116	6.04530411852107	-0.047965998662654	-100.024448996427	-0.0540180312049247	-100.068551951581	-55.846566798851	-87.33370508328	
2970015150	-45.7728851251571	63.5541342752732	-0.0418485034276272	-101.190325906069	-0.0654835011408151	-101.219387411212	-43.2916956315677	19.6868365052422	
3000015000	-44.675717120309	60.3725176010374	-0.0457767367328108	-102.022788604555	-0.0522519562865698	-101.941554822988	-46.2610371955692	74.9227348117897	
3030014850	-42.1083258795338	71.1316803437539	-0.0437318645252112	-103.086901096101	-0.0747268899057288	-103.215908287006	-45.4590188629695	145.948857560937	
3060014700	-39.1730758210274	66.9741835969901	-0.0312270932468398	-104.057098326126	-0.0451302819993139	-104.1289581614	-39.1146382848187	-158.062623940292	
3090014550	-45.5612248978695	104.234386963283	-0.0349097016820653	-105.072728862823	-0.0518213729445293	-105.139151693415	-42.9775269070217	175.287772237562	
3120014400	-48.5797229574178	173.734460836502	-0.0593289046142539	-106.028373834932	-0.0462158727863232	-105.927492274948	-40.3989251498147	44.3366409418693	
3150014250	-48.4364990095109	-145.590804267435	-0.0515631988570587	-107.190080462958	-0.0417188021154738	-107.29463441242	-40.0579821430756	61.2897961452147	
3180014100	-44.6964476290405	5.46234778244773	-0.0643101046878544	-108.155822360048	-0.0595914187653001	-108.300649146819	-45.4179520852349	86.5458318265285	
3210013950	-35.9295263781274	36.5468236219026	-0.0639502963556565	-109.323861127088	-0.0324668408429658	-109.393122334938	-41.1075066590933	-172.572233537052	
3240013800	-37.5456411760156	63.121389671104	-0.0594870823526624	-110.361421219503	-0.0492804541004963	-110.217380233526	-40.7665676503951	-176.947556931859	
3270013650	-39.5106816470156	114.377665347183	-0.0392449020432492	-111.224635089786	-0.0526093395038909	-111.28650631026	-51.388705551787	131.948260590935	
3300013500	-40.3518257418685	166.184302483629	-0.0601302622544904	-112.532865134132	-0.0398881527728591	-112.555152528422	-42.1542493869995	88.1558328598729	
3330013350	-55.9615225173912	-114.308409321533	-0.0479119921731646	-113.152372761329	-0.0574822869682661	-113.150677049992	-39.5283267695317	92.8065760374682	
3360013200	-38.1482683114956	-2.58701705853876	-0.0683097710207678	-114.142551562708	-0.0834742617592508	-114.150684527584	-41.5038316363792	166.654410968724	
3390013050	-36.0453623894036	22.6120514019819	-0.0586467626116259	-115.525494482583	-0.0638983795844905	-115.554257780306	-46.25285273311	-177.870941235047	
3420012900	-37.3119290408972	67.4712318856202	-0.0693564017942758	-116.383409034215	-0.0614181042890848	-116.369255371674	-45.758367764926	-112.694025951044	
3450012750	-38.0538121248541	110.60194452949	-0.0560620241723038	-117.491033302203	-0.0715973736444142	-117.416379556764	-45.183678457992	34.3543648137894	
3480012600	-40.7133638797168	111.671183576053	-0.0504649029140865	-118.278249296577	-0.0604851405218926	-118.410151196613	-44.8429287543031	94.6087655399979	
3510012450	-42.8335442811378	38.131252037318	-0.0541729554809046	-119.303279512496	-0.0556588381888843	-119.274759747404	-39.1249468805902	146.6651370899	
3540012300	-39.2066483298369	30.4430585155408	-0.0523964331999996	-120.546631387861	-0.0587137468347089	-120.398795539526	-45.9020328213099	158.009757318116	
3570012150	-42.277754586079	20.2595235829401	-0.0592716469474313	-121.445506785781	-0.0388779041292057	-121.536201778245	-48.0710833869479	16.253328957818	
3600012000	-44.687624740641	67.2494261648556	-0.0456127442927692	-122.618093209143	-0.0530470052489234	-122.644239695539	-42.0494307728329	-9.51763559324274	
3630011850	-41.6880311180565	76.3361958794343	-0.0555802963095355	-123.494583613643	-0.0499747129434969	-123.566105280934	-51.3501595869356	88.4928260748212	
3660011700	-35.263247702294	65.2533853458455	-0.0690837267638148	-124.507988155873	-0.0389186532357343	-124.416115128214	-39.6542675549803	157.027950339494	
