#  HZ   S   DB   R     50.0 
! Rohde & Schwarz ZVL13 2Ports - Version 3.20 - 1303.6509k13 SN: 100953
! Date: 2024-10-09 07:57:13
! Data & Calibration Information:
! Trc1:S11(TOSM) Trc4:S21(TOSM) Trc2:S12(TOSM) Trc3:S22(TOSM)
! 
! 
! 
 9.000000000000000E3    -4.261349113579146E1  -2.065378535296503E1   9.048779477005116E-2  -1.844322787930721E-2   4.984588956014665E-2  -1.319299295635476E-1  -4.109988028502961E1  -6.646202092832890  
 3.000895500000000E7    -3.999234717537063E1  -6.627776008244959E1   5.808503863716548E-2   8.099318621009413E-1   6.459464181913417E-2  -3.390979855602884E-1  -3.723032755489032E1   5.883644270729381E1  
 6.000891000000000E7    -3.859141905830095E1  -6.377070121441035E1   5.609075146389374E-3   1.286298230259278E-2   2.023712666323747E-1  -9.435440661565601E-1  -3.771561585796840E1   3.871922349096458E1  
 9.000886500000000E7    -3.523036448201160E1  -4.747408850273739E1  -5.080933683816592E-2   5.308347224193942E-1   2.518058788235658E-1  -7.680065486646440E-1  -3.598168636001810E1   1.577371852871328E2  
 1.200088200000000E8    -3.022137145679038E1  -4.065013144956855  -1.142481964783006E-1   1.973450007380437E-1   3.017862718831650E-1  -4.954125174368358E-2  -4.015035085932610E1   1.442672115893104E2  
 1.500087750000000E8    -3.949053838146694E1   1.672281305468997E2  -1.598610032302159E-1   7.370358528709975E-3  -7.503205332101311E-2   6.266724617264435E-1  -4.049622333508471E1  -1.705288080303102E2  
 1.800087300000000E8    -3.251816200509339E1  -6.703327488310605E1  -1.949481690224638E-2   1.066766351259545   1.130007885915388E-1  -1.222716915491287  -3.041838534498615E1   1.109690087091496E2  
 2.100086850000000E8    -3.447113925139660E1  -1.790489451636150E2   5.060866317312589E-2  -1.068395857188339  -1.531862139549705E-1  -6.236332988297290E-1  -3.175560011714881E1  -4.544655834523747E1  
 2.400086400000000E8    -3.581366644933554E1   2.483568645837628E1  -1.073359001040377E-1  -2.490318641600993E-1   9.933037215591097E-2   6.281253011242016E-1  -3.961614887334110E1   1.762723701291168E2  
 2.700085950000000E8    -3.794331098693018E1   8.807559422050404E1  -1.657481160955667E-2   4.636964835416457E-1  -3.975108380402462E-2   8.760728178157422E-1  -3.914123888060215E1   9.633757913786523E1  
 3.000085500000000E8    -3.093814119893849E1   5.397898357377416E1   1.408425330760710E-1  -6.562901290019400E-1   1.229110150218645E-1   1.526724696714476  -3.163275431370843E1  -4.620664498453920E1  
 3.300085050000000E8    -3.707264723834933E1  -1.558767537623590E2  -1.890798200377634E-2   4.937913363994841E-1  -2.739444787996655E-3  -5.402477190694366E-1  -3.678499096384753E1   6.934561399509818E1  
 3.600084600000000E8    -3.820524870245543E1   1.506371348863957E2   2.794108978397084E-2   5.453780657816225E-1  -2.932789937756583E-2   7.893902133178582E-1  -4.290771298424897E1   5.213118378468784E1  
 3.900084150000000E8    -3.746573526058733E1  -2.122517893054741E1  -6.905371833529915E-3   1.082288806340864   8.586729643036033E-2   4.482450961463491E-1  -3.358421251476035E1   8.738453538866352E1  
 4.200083700000000E8    -3.620391470987750E1  -1.537461264819986  -3.739292759567350E-2   2.697916683139124E-1   1.452088973583362E-1   2.045673005967827E-1  -3.876850433010473E1  -1.247151543921108E2  
 4.500083250000000E8    -4.002718549442187E1   1.160920179081742E2   4.629628319829077E-2  -5.318559220551399E-1  -5.386148078002184E-2   1.723077654758854E-1  -3.569967595282903E1   3.503827316067468E1  
 4.800082800000000E8    -3.880617570571823E1   5.395931771009679E1   1.087529396986442E-1   6.278105629115285E-1   3.888096033100381E-3   1.120526427311484  -3.755487384620096E1  -4.945287534505246  
 5.100082350000000E8    -3.320042863457449E1  -1.326770609717893E2   2.090348780828579E-1  -1.749494773714389E-1  -4.345497834841598E-2  -1.352618718218126E-1  -3.164104548878559E1   5.988784377716239E1  
 5.400081900000000E8    -3.659218565837656E1  -9.320598844805360E1   6.135613920789781E-2   7.901421996143718E-1   4.529938025417991E-2  -2.547565232895142E-1  -3.005276631843460E1   9.612004833849700E1  
 5.700081450000000E8    -3.240680229628734E1   3.711600016140037E1   3.454386127449158E-2   4.433400076389386E-1   1.753498323823962E-1   1.212690295949695  -3.268928239451478E1   9.996240471344950E1  
 6.000081000000000E8    -4.030173514422447E1   1.426247951476478E2  -1.012826609777789E-2   3.315836623616703E-1  -6.283372017776744E-2   2.530675405892949E-1  -3.215901259100561E1  -1.705245103564993E2  
 6.300080550000000E8    -3.711332551690768E1   8.434043952007357E1  -8.715576002886818E-2  -4.988460020728266E-1  -2.423815768858179E-3   3.950407847774392E-1  -3.437845154929389E1  -9.901366147014805E1  
 6.600080100000000E8    -3.416946776418617E1   1.328777546855847E2   9.984569867314788E-2  -2.985369652119629E-1  -1.055390596084592E-1  -2.163806538759286E-2  -3.976931534003251E1   7.214479902576431  
 6.900079650000000E8    -4.271259218891692E1  -7.067477244603012E1  -8.779336078260185E-2   4.377834053372912E-1   2.122500472493772E-2   1.126435934101557E-1  -3.718662938142296E1   1.481942126267066E2  
 7.200079200000000E8    -3.030889020822164E1  -1.630002173891427E2   2.158335034194193E-2  -3.750295962997067E-1  -2.780143853685943E-1  -2.237490832594670E-1  -4.570208501730306E1  -1.700769417375632E2  
 7.500078750000000E8    -3.513301722886373E1  -1.496332124282642E2   1.098232581977787E-1   9.425369969159705E-1   2.289531197730926E-2  -8.746792516708113E-1  -3.487511725710246E1   1.067776196672788E2  
 7.800078300000000E8    -3.271658819006873E1  -1.000508868712017E1  -5.148852494778996E-3   5.361111202559654E-1   1.419991110174286E-1   2.703687430083447E-1  -3.725580420816642E1   1.394077700755603E2  
 8.100077850000000E8    -3.152950497260214E1   3.511551887557874E1   1.329859694155949E-1   9.196036272646171E-1   2.304218310098039E-1   9.285494461505933E-1  -3.023898224220916E1   5.322027533277038E1  
 8.400077400000000E8    -2.958793853888681E1   5.688570303389619E1  -4.077491449120782E-2  -2.650622547447052E-1  -9.045265372507017E-4   1.946622688097369  -3.897151250032461E1  -6.863902318116867E1  
 8.700076950000000E8    -3.251463298250602E1   7.474395293116801E1   1.156463525721280E-1   9.914716816033693E-2   6.020061482386099E-2   1.120660203087746  -3.511137745987696E1   3.852216351641884  
 9.000076500000000E8    -3.033281463836216E1  -7.145324889693323E1   1.023404538635009E-1   3.692815811946400E-1   2.323609580296222E-1  -7.713786239186427E-1  -3.393303231746141E1   8.840681544927688E1  
 9.300076050000000E8    -4.099232907448109E1   1.779314134830796E1   6.225841689574243E-2   1.024236677330073  -5.891390210124070E-2   1.003262354017422  -2.790548393807935E1   1.342237319476625E2  
 9.600075600000000E8    -3.424365318569029E1  -9.125058400276918  -2.629590236977913E-2   9.518547274947973E-1   1.048117794488828E-1   6.122319859859101E-1  -4.218933179173415E1  -8.432064479534674  
 9.900075150000000E8    -3.717061356143034E1  -5.213474254576116E1   1.439059176181805E-1  -3.298864783375363E-1   1.453884928549884E-1  -4.333366266115155E-2  -3.872882198549537E1   4.795080965551856E1  
 1.020007470000000E9    -2.904893356297321E1  -4.200915079608391   3.512968162808927E-2   1.598059480141934E-1   3.305466867593774E-1   1.420071373044072  -3.725715511610881E1   1.090286414907436E2  
 1.050007425000000E9    -3.578706982130231E1  -4.851737238466694E1   8.788098848631089E-2  -6.919576278264555E-1   1.166114134681379E-1  -1.166927215333519E-1  -3.698571802666860E1   7.928013366225222  
 1.080007380000000E9    -3.667165642669647E1  -1.506291746605816E2   1.964303401452588E-2   2.571979808801415E-1  -3.954368801496742E-2  -1.385194295592967E-1  -4.479583122060260E1   3.896492593793069E1  
 1.110007335000000E9    -3.727957659178304E1  -1.668024695743148E2  -1.441841939403001E-2   2.024303041151818E-1  -5.003916813178779E-2  -5.712749265476246E-2  -4.495197148463610E1   4.127516617221340E-1  
 1.140007290000000E9    -3.108603272917212E1  -5.458250023643157E1   1.174897758761056E-1   6.578237922387544E-1   1.872566336144234E-1  -2.030930637766247E-2  -3.336706000981593E1   7.676212063308245E1  
 1.170007245000000E9    -3.895915404901394E1   8.548246558594052E1   1.579154412728689E-1   5.635237998915237E-1   1.798400259283261E-2   6.082495331197309E-1  -3.134044503518738E1   7.401888009519531E1  
 1.200007200000000E9    -4.395561628915942E1  -1.392647860037236E1   6.080814726166621E-2   7.823697251412138E-1   9.499912662473032E-3   1.585279557314609E-1  -5.318065967444532E1   1.558775163773074E2  
 1.230007155000000E9    -3.437658785974602E1   6.735810569311242E1   1.160524324354932E-1   7.628820343156134E-1   3.593834357498515E-2   8.704613175352974E-1  -5.233459969415396E1   1.277642920213512E2  
 1.260007110000000E9    -3.351491379950444E1  -1.115458797977552E2   1.399825098300682E-1  -7.304756457162948E-1   1.483314134750267E-1  -9.945721221327722E-1  -3.249261850401574E1   5.126067963360952  
 1.290007065000000E9    -4.754567730605584E1  -1.806406014678006E1   1.502505619166509E-1   2.071204210987493E-1   2.932980792722267E-2   5.110015698515057E-1  -3.077074357580002E1   4.137595110387027E1  
 1.320007020000000E9    -3.461670251581108E1  -9.251611417983233E1   1.737689199971413E-1  -7.088179691761989E-1   1.750905884986813E-1  -1.485012443159884E-1  -3.036978845114634E1   4.344400753139889E1  
 1.350006975000000E9    -4.156534751492372E1  -2.159505284921956E1   4.592012867647298E-2  -9.682659122648927E-1   2.201817954382879E-1  -1.555827306760152E-1  -3.061625606102419E1   1.319919847565505E1  
 1.380006930000000E9    -3.321126971145249E1   9.007003118399322E1   9.135810392563956E-2   1.589548996565913   1.128656851738505E-1   1.492757900636237  -2.821334999387522E1   1.409479068826202E2  
 1.410006885000000E9    -4.247230542074169E1   1.554179636813782E1   4.046151179490905E-2  -1.125313207332193E-2   5.340323853416007E-2   8.114512060011075E-1  -3.897173035630159E1   1.066877167555964E2  
 1.440006840000000E9    -3.280354388115237E1   8.333345438799063E1   8.501383032449915E-2   6.170475422442281E-1  -3.140574021090326E-2   3.766771226311210E-1  -3.210949175301045E1   7.588696201087453E1  
 1.470006795000000E9    -4.332453111557882E1   1.123305019273279E2   1.419888216243223E-1  -1.647847170706018E-1  -2.343967046747334E-2   8.994031466859416E-2  -3.059628751490387E1   1.197286466754508E1  
 1.500006750000000E9    -3.106860755700081E1  -6.500688550957200E1   9.125240737260174E-2   1.343598660078321   2.664952969466077E-1  -1.342799580459241E-1  -2.699928417263133E1   1.333955492814866E2  
 1.530006705000000E9    -4.055917132793663E1  -2.272779320763342E1   1.411745721129042E-1   1.444413406625130E-1   3.307600533542957E-2  -5.089828104171833E-1  -2.543640788001320E1   5.849415887781518E1  
 1.560006660000000E9    -2.757873012468106E1   4.809652771499628E1  -8.662498918402471E-2   3.672995474538821E-1   6.111819245620762E-2   1.836853919025422  -3.373640086025479E1   1.791601976827978E2  
 1.590006615000000E9    -3.036036097607868E1  -1.878294640539217E1  -1.074215457756027E-2   7.292976091477197E-1   3.551047350480328E-1   2.507261351659074  -2.967626777180288E1   1.746590206696625E2  
 1.620006570000000E9    -2.452172756065763E1  -1.411853327040159E2   2.213815875087617E-1   1.080317112149516   4.863380382388796E-2  -1.512754937330250  -3.968546268750720E1   6.260500569461480E1  
 1.650006525000000E9    -3.271899346596491E1  -1.667343126097812E2   1.025710518109870E-1   1.665718676881132E-1   3.816684425554944E-2  -1.995145593813181E-1  -3.583457507622524E1   8.559199850915003E1  
 1.680006480000000E9    -3.519126378325131E1  -1.787928567133426E2   1.378262256927124E-1  -3.912352868961620E-1  -6.731561038524636E-2   1.279247277802163E-1  -3.479830289573641E1   9.106317311228544  
 1.710006435000000E9    -3.310551427765570E1  -5.801541876915110E1  -1.121372485919525E-2   5.482120921459315E-1   1.832041536990788E-1   2.808211633512832E-1  -3.898751408568394E1  -1.495442010712164E2  
 1.740006390000000E9    -3.840421296726424E1   1.657093605351755E2   4.972763469637602E-2  -1.222608789893102   5.547937117791611E-2  -5.063717406812438E-1  -3.261499153066976E1   5.884960215437814E1  
 1.770006345000000E9    -3.930736942069360E1   8.785376725185245E1   8.148695501736131E-3  -1.462429253948541   3.974226879579233E-2   5.027882316315890E-1  -3.078775768374435E1  -3.363336941719769  
 1.800006300000000E9    -3.584966993546517E1  -2.216402278906460E1   1.256273789257160E-1  -2.425719120536307E-1   7.361909840873453E-2  -3.185155592717620E-1  -2.971867613303819E1   2.034474083963760E1  
 1.830006255000000E9    -3.171019541671776E1  -9.430188542043230E1   3.013974685240826E-1   1.039377675753214   1.212663782891737E-1   4.010317083898050E-1  -3.395714626632091E1   1.562092286676685E2  
 1.860006210000000E9    -3.269046775397173E1  -5.169464977180954E1   4.850364297040832E-2   3.177850165051196E-1   2.428223599682986E-1   1.427472080177340  -3.545574531025665E1  -1.590246543158731E2  
 1.890006165000000E9    -3.143694300002207E1  -1.596359970010408E2   9.500982391754456E-2   1.553183529320229   2.155194783613348E-1  -9.415165844286300E-1  -2.838821241015273E1  -1.733709006641758E2  
 1.920006120000000E9    -2.972263963582826E1  -5.811617368797592E1   2.926723238767890E-2   1.461043677566996   1.628454948543095E-1   4.480366144524858E-1  -4.132872805846753E1  -8.706240297064427E1  
 1.950006075000000E9    -3.873545455236228E1   1.309800690545138E2   1.221788489393318E-1  -3.186040238214541E-1  -1.244888700107318E-1   6.144211016168601E-1  -3.660324976548719E1  -5.469684197307831  
 1.980006030000000E9    -3.117829502143708E1  -1.347530904809451E2   1.022447302037732E-1   2.937990464685942E-1   2.621837110597725E-1  -2.782242397203730E-1  -5.902816332101925E1  -1.112152802706723E2  
 2.010005985000000E9    -3.031869855820309E1  -1.591485650540729E2   2.963729556300779E-1  -4.188125224197672E-1  -3.231731418583310E-2  -1.287517575896923  -2.902675719283827E1   4.161155157885089E1  
 2.040005940000000E9    -3.336695604393252E1  -1.270051084172496E2   9.523092071012326E-2   2.322144391970076E-1   1.984128092431333E-1  -3.862399200950587E-1  -4.455132722608139E1   9.474773702930781E1  
 2.070005895000000E9    -3.752198744758410E1  -1.204766939483130E2   1.079704788502038E-1   5.625062179827944E-1   8.635852263859217E-2   1.695026062085088E-1  -4.365223406673017E1   7.681302805957640E1  
 2.100005850000000E9    -3.952963440173114E1   1.342325694198822E2  -8.997974272645451E-2  -7.268986106276061E-1   1.621659500603130E-1  -3.666614268660045E-1  -3.243683103761495E1   1.280816771706621  
 2.130005805000000E9    -3.714091749632660E1  -1.499973024890785E2   1.780168055099164E-2   1.071233509343119   2.520962769263320E-1   1.046105965698644  -2.564033405322462E1  -1.321360196911491E2  
 2.160005760000000E9    -3.195641292837762E1   1.346948908081618E2   8.693673433389436E-3  -1.110611082503531  -8.799332471769479E-2  -2.877943234688820E-1  -3.091854032613398E1   2.452712113443521E1  
 2.190005715000000E9    -2.860958142364321E1   1.348193370716825E2   4.828857508732057E-2  -1.277828620217495  -4.171830747068519E-1  -1.062100363611541  -2.315898736848906E1  -1.935574482132604  
 2.220005670000000E9    -2.682848886839193E1  -1.316582345604192E2   3.202476611639470E-1   1.760529444409286   4.870272181480750E-1  -8.442728705684095E-1  -2.758222017005197E1   1.741971475521600E2  
 2.250005625000000E9    -3.484273136672432E1   4.663724638237463E1  -1.448773314898652E-1  -7.530947822935989E-1  -1.562578764545483E-1   7.036013040875536E-1  -2.924255843592330E1   1.438951310516070E1  
 2.280005580000000E9    -3.545313154376748E1  -1.704027035988573E2   3.460956920089250E-1   4.735068244191771E-1   1.440839107414255E-1  -7.096372357439938E-1  -2.608829772520505E1   1.577658377712875E2  
 2.310005535000000E9    -3.985868716246284E1   8.200468451806970E1   1.368559771486024E-1  -5.616334643596970E-1   7.888739447272848E-2   1.030074438907022E-1  -2.968248876223310E1   9.721643169471415E1  
 2.340005490000000E9    -4.113042906849176E1   7.892388072302565E1  -1.466909478593409E-1  -3.190013324659534E-1   8.225375688663857E-2   2.905292557777821E-1  -3.793539995577127E1  -9.730396376710736E1  
 2.370005445000000E9    -3.102986868399717E1  -1.494070430288744E2   4.390813308652661E-2  -8.121920395951520E-1   7.238922898663978E-2   8.172957267463146E-1  -2.582796606980386E1  -3.243919936628888E1  
 2.400005400000000E9    -2.906679830265330E1  -1.768200405468711E2   2.979814019339470E-1  -7.778975329254594E-1   8.212344075425078E-2  -1.262524395023921  -3.288381529811351E1   1.140051473796152E2  
 2.430005355000000E9    -3.255623988467576E1  -6.300531566200430E1   1.450377702707405E-1   8.410343276337325E-1  -4.198125326809050E-2   5.420288565025618E-1  -2.901637916464180E1   3.165628831137105E1  
 2.460005310000000E9    -3.859247126479851E1   1.479022586528912E2  -1.744718472479471E-2  -9.323391069743635E-1   7.597837417907984E-2  -4.300248696200668E-1  -3.027854009018515E1  -3.233184572091878E1  
 2.490005265000000E9    -4.346771031574173E1  -1.244978264211603E2   4.778419587583643E-2   6.418746633969061E-1   1.997826256029840E-1   1.789198283029467E-1  -3.307729728747609E1   9.427033343531799E1  
 2.520005220000000E9    -3.419837864275358E1  -1.215806547775398E2   2.016792253399448E-1   1.173253492044642   8.348299401428358E-2   1.440876973471959  -3.031419325350448E1  -1.692969109249099E2  
 2.550005175000000E9    -4.946659768119621E1   8.447362307625474E1  -1.039561809388315E-2  -3.957255459080938E-1  -5.216353266333874E-3   7.360254708281413E-1  -5.626835919529980E1   3.737629492720100E1  
 2.580005130000000E9    -3.384750681558516E1  -1.570036205641565E2   4.892308936960688E-1   9.261409254228403E-1   2.862610891247077E-1  -2.693766634419906  -1.925318585866054E1   1.411088892825823E2  
 2.610005085000000E9    -3.435079887164265E1  -8.877068662506649E1   7.933966035396389E-2   8.832583309048665E-1   3.293020235477653E-1  -8.124243189165683E-1  -2.510593739668338E1   1.226789603014583E2  
 2.640005040000000E9    -2.920475670946309E1  -8.895396701520151E1   1.117857059751107E-1   2.526168791568573   4.171744110381940E-1   2.083817325623687  -2.679246226893549E1  -1.359512003846338E2  
 2.670004995000000E9    -3.673403699140854E1  -2.858543373597066E1  -1.171523507465069E-1   1.358207879958286   1.496130693522823E-1   1.600120150932683  -3.456002211931943E1  -9.309732849643834E1  
 2.700004950000000E9    -2.787300486207906E1   1.758912888856607E2   4.713313984517342E-2  -2.707479350431059   2.549863916271090E-1   2.864840951278636E-1  -3.213052008508166E1  -2.726433025318226E1  
 2.730004905000000E9    -3.600861036406095E1   1.308123251533638E2  -3.677744438781649E-2   9.817189194556254E-1   1.781466003412174E-1  -1.372147431311529  -3.138452283506680E1  -1.561496022322997E2  
 2.760004860000000E9    -2.683753856589733E1   1.670897946873999E2   2.461715100473679E-1  -3.633035037034527   3.171678263869152E-1  -2.438805942366734  -2.489314515076605E1   3.166292163308395E1  
 2.790004815000000E9    -3.014764154054814E1  -6.495883852238096E1   1.633274331968194E-1   3.930147895681404E-2  -1.877802254635317E-1  -7.244433877045141E-1  -2.466533156961786E1   7.509004578776610E1  
 2.820004770000000E9    -4.103612779308461E1  -6.654524717754708E1   1.198176127275222E-1  -6.340780126537353E-2  -2.092055302427315E-2  -1.400144809442283  -3.341803906267393E1   7.418520187442018  
 2.850004725000000E9    -3.340819567178422E1   1.574600767825248E2   4.012419691680071E-2  -1.286170564431506E-1   1.783023306001629E-1   3.607074963786960E-1  -3.382109054992281E1  -8.619950367513712E1  
