#  HZ   S   DB   R     50.0 
! Rohde & Schwarz ZVL13 2Ports - Version 3.20 - 1303.6509k13 SN: 100953
! Date: 2024-10-09 07:57:40
! Data & Calibration Information:
! Trc1:S11(Cal Off) Trc4:S21(Cal Off) Trc2:S12(Cal Off) Trc3:S22(Cal Off)
! 
! 
! 
 9.000000000000000E3    -1.045855632317374E1  -1.727595440392744E2  -1.212122781764247E1  -2.982123245054113E-1  -1.214945092421955E1  -5.959160902186783E-1  -6.916404067494655  -1.758811281675589E2  
 3.000895500000000E7    -1.229663437418746E1   6.237854184837361E1  -1.271751168452392E1  -1.156263741899513E2  -1.271565146652131E1  -1.156231166871730E2  -7.961869434039601   6.546412476596268E1  
 6.000891000000000E7    -1.248735625719254E1  -5.090408430528492E1  -1.275871404554571E1   1.289339331876236E2  -1.272908687909754E1   1.290324165648381E2  -8.120553516308426  -4.755151598679581E1  
 9.000886500000000E7    -1.356972227080090E1  -1.688320437125435E2  -1.269563270668144E1   1.366157898486991E1  -1.264165181458209E1   1.311091408224799E1  -8.571301566937613  -1.615116866860947E2  
 1.200088200000000E8    -1.352841366777238E1   6.580332978572349E1  -1.281827305158834E1  -1.030900702079135E2  -1.272800476612376E1  -1.030992892241749E2  -8.678010138818792   8.022431526051182E1  
 1.500087750000000E8    -1.310171015212302E1  -5.015652307583029E1  -1.302430752037062E1   1.422383074632015E2  -1.295786793323852E1   1.424422958994915E2  -8.564303662477785  -3.257842644584081E1  
 1.800087300000000E8    -1.296796082000105E1  -1.672371806749528E2  -1.298687817522633E1   2.716161907500560E1  -1.296285410706418E1   2.717809104457205E1  -8.835794876277328  -1.459929285526282E2  
 2.100086850000000E8    -1.269349343149405E1   8.173660190592031E1  -1.320711508954843E1  -8.710152921454051E1  -1.325806364518392E1  -8.717299819309089E1  -8.703243808611013   1.003176449413092E2  
 2.400086400000000E8    -1.316974666521264E1  -3.082577461522844E1  -1.294450129056155E1   1.592259314746117E2  -1.299410828544132E1   1.587154452432822E2  -8.641199620289195  -7.589243962720071  
 2.700085950000000E8    -1.368297608643505E1  -1.452494712055453E2  -1.310326737932342E1   4.328652250264457E1  -1.307383163304660E1   4.328797951650700E1  -9.300225747373654  -1.231714621376366E2  
 3.000085500000000E8    -1.536909891442295E1   8.864887136844544E1  -1.307969262335534E1  -7.253206300135082E1  -1.310662890698381E1  -7.204889891755124E1  -9.478555278085942   1.227305754837033E2  
 3.300085050000000E8    -1.397293913177657E1  -3.618312054360351E1  -1.319139926295055E1   1.723301061232073E2  -1.314244956916482E1   1.719454752349468E2  -9.826848486635221   3.860270735702058  
 3.600084600000000E8    -1.399166380290232E1  -1.488757169267151E2  -1.330245922270825E1   5.688165188754189E1  -1.325969612473572E1   5.787056167312099E1  -9.056050996510360  -1.095045433726064E2  
 3.900084150000000E8    -1.277864322707955E1   9.323121415106419E1  -1.336963420088672E1  -5.643663593077604E1  -1.341542961415330E1  -5.727378158376825E1  -9.635331725703580   1.404246347332009E2  
 4.200083700000000E8    -1.308416118899839E1  -8.799502088056981  -1.323554253648705E1  -1.716167854361491E2  -1.329741363992147E1  -1.712990060412272E2  -9.778614444845221   2.295468716524547E1  
 4.500083250000000E8    -1.542328267478431E1  -1.315766123274100E2  -1.313393135070502E1   7.370552789119530E1  -1.315697978326808E1   7.375551891130385E1  -9.091397637360723  -8.433870938188137E1  
 4.800082800000000E8    -1.542235448857834E1   1.077462619638542E2  -1.309395070189516E1  -4.188137792612911E1  -1.318186360053025E1  -4.201549091236274E1  -1.057935997229428E1   1.620560161160235E2  
 5.100082350000000E8    -1.529964972570571E1  -2.495203950061691E1  -1.311571461795108E1  -1.574846895552645E2  -1.308630876511161E1  -1.577830648670736E2  -1.062642770053981E1   3.833432027394578E1  
 5.400081900000000E8    -1.264288065362455E1  -1.386960974456259E2  -1.339879381642541E1   8.763059140014930E1  -1.350883919696805E1   8.800846178729188E1  -1.045888336330157E1  -7.071310871721308E1  
 5.700081450000000E8    -1.310509488900090E1   1.138116446267261E2  -1.336770147489670E1  -2.657798470734463E1  -1.335481569699846E1  -2.642965977511289E1  -1.046343621126029E1   1.704881179913289E2  
 6.000081000000000E8    -1.264827616406342E1  -4.734480098987184  -1.332771786910864E1  -1.408103811982086E2  -1.333746163378967E1  -1.416061496196062E2  -9.710993178692975   6.191133064465053E1  
 6.300080550000000E8    -1.368069250945496E1  -1.066338922280719E2  -1.315312295388468E1   1.037873804383535E2  -1.313216635967940E1   1.035793220211055E2  -1.038126230040162E1  -4.955433476087519E1  
 6.600080100000000E8    -1.582266801117901E1   1.086706395589968E2  -1.313006898003934E1  -1.296494056673813E1  -1.316045910132054E1  -1.284178893748190E1  -1.078854167676696E1  -1.680708468806172E2  
 6.900079650000000E8    -1.295697934784454E1  -9.052064098655594  -1.329278044506493E1  -1.276233845720167E2  -1.338704653066062E1  -1.275112700604201E2  -1.161674395107112E1   8.145280288371535E1  
 7.200079200000000E8    -1.250883781778380E1  -1.253256234548878E2  -1.334878545519435E1   1.165286602311700E2  -1.331551204991318E1   1.169806645442498E2  -1.215312652291953E1  -4.442973869306976E1  
 7.500078750000000E8    -1.061657881590282E1   1.255350213119280E2  -1.355313562085372E1   2.190442728404525  -1.354466521441101E1   2.013281127384614  -1.088742326381415E1  -1.598504126888763E2  
 7.800078300000000E8    -1.220943812347794E1   1.918974197541641E1  -1.329903830834333E1  -1.111996137212048E2  -1.324289400985442E1  -1.115302013851099E2  -1.144001202377145E1   9.245091425431698E1  
 8.100077850000000E8    -1.210580279894324E1  -1.109662628283802E2  -1.310876426890285E1   1.313107498169129E2  -1.319178293945484E1   1.317547192698017E2  -1.080876171885121E1  -2.950276418433580E1  
 8.400077400000000E8    -1.273633554377320E1   1.344052422890931E2  -1.339754027433877E1   1.613752904697967E1  -1.344124482145292E1   1.652289292443591E1  -1.118599924131951E1  -1.363503780589600E2  
 8.700076950000000E8    -1.150815623478636E1   2.161137072445748  -1.337898297309967E1  -9.999687168572427E1  -1.339491242671923E1  -1.003429498887234E2  -1.243310305543619E1   1.050943013491260E2  
 9.000076500000000E8    -9.411660930745704  -1.038600675075115E2  -1.368296658621389E1   1.457833650453250E2  -1.379688634361248E1   1.458475652325297E2  -1.178588734118898E1  -1.762819585337095E1  
 9.300076050000000E8    -9.532017078959294   1.505164677631978E2  -1.355599623366437E1   3.204517205391421E1  -1.352714914214744E1   3.182461768583153E1  -1.191728717419548E1  -1.291887606025735E2  
 9.600075600000000E8    -9.210911607842988   3.739436780892560E1  -1.353372725651397E1  -8.422464521389148E1  -1.351060380886947E1  -8.417046070305028E1  -1.158923564968607E1   1.108148784252240E2  
 9.900075150000000E8    -1.091542090944538E1  -7.907102283430268E1  -1.349456259570865E1   1.604970230377359E2  -1.343066777630935E1   1.606558934024505E2  -1.088661560518950E1   3.295382740501925E-1  
 1.020007470000000E9    -1.011135665993143E1   1.506076592535794E2  -1.357224856178771E1   4.325861885607284E1  -1.349393485152153E1   4.352387004794480E1  -1.198211987577706E1  -1.166693068578832E2  
 1.050007425000000E9    -9.052123107694637   3.713541122793964E1  -1.395717387959808E1  -7.159224607385427E1  -1.392607313797082E1  -7.146720709306861E1  -1.167049680447296E1   1.243386053984447E2  
 1.080007380000000E9    -8.214588430674864  -7.745421013011722E1  -1.392529439666046E1   1.736690272261645E2  -1.386114835569553E1   1.735129362025207E2  -1.197544214388659E1   8.585686227302187  
 1.110007335000000E9    -7.330789676279779   1.762994314853219E2  -1.417632734877647E1   5.816990428065887E1  -1.414952821549464E1   5.843824029816684E1  -1.130634527604072E1  -1.162960996400634E2  
 1.140007290000000E9    -8.256627133588767   6.909446907699692E1  -1.407161437075081E1  -5.485297726004773E1  -1.399565488889910E1  -5.453964240273271E1  -1.033293395676673E1   1.361750847484676E2  
 1.170007245000000E9    -8.630464845115455  -5.199367517947029E1  -1.385616000987343E1  -1.717274373748060E2  -1.376809374084334E1  -1.720473394868995E2  -1.115897944615582E1   2.430852863594022E1  
 1.200007200000000E9    -8.732645298675680  -1.739351850787664E2  -1.420811585627396E1   7.153870246435875E1  -1.418521346589738E1   7.163499043418591E1  -1.042016767275261E1  -9.681955774934217E1  
 1.230007155000000E9    -7.588966766310404   6.778690929863817E1  -1.436284220692037E1  -4.353211197711381E1  -1.441766831152688E1  -4.426457341809807E1  -1.050260821485374E1   1.497872645988726E2  
 1.260007110000000E9    -6.969025117400983  -4.118968796155987E1  -1.472041546905514E1  -1.586012476290697E2  -1.482718114373065E1  -1.577054693093388E2  -1.098775629047179E1   2.674408733488382E1  
 1.290007065000000E9    -6.657503857407954  -1.495478967814474E2  -1.476882352401768E1   8.852396082863648E1  -1.471305512179998E1   8.833231846106847E1  -9.687476367598718  -8.596303520155556E1  
 1.320007020000000E9    -7.122878741653220   1.006569834048468E2  -1.473948623205476E1  -2.603620236625717E1  -1.475662387976366E1  -2.626308633612468E1  -9.315732807323673   1.658780058671475E2  
 1.350006975000000E9    -7.624800647031298  -1.358054487572170E1  -1.454471347671773E1  -1.419246895134713E2  -1.450536937700598E1  -1.422867672288286E2  -9.508012589948974   4.788633995320918E1  
 1.380006930000000E9    -8.037082550657694  -1.395188674383827E2  -1.478644272434353E1   9.950227350073503E1  -1.481716952578453E1   1.006654201304169E2  -9.259384519441097  -6.710749881462753E1  
 1.410006885000000E9    -6.886634443045439   1.046760635639032E2  -1.529935064781473E1  -1.490397828185568E1  -1.534378139571300E1  -1.394005202881014E1  -9.172222522371499   1.754115473571551E2  
 1.440006840000000E9    -6.263633160055236  -1.948504488160239  -1.550903921565965E1  -1.288515207989915E2  -1.543995438601141E1  -1.282024419652811E2  -8.665733694906679   5.907649217588650E1  
 1.470006795000000E9    -6.609345222232796  -1.117564802557233E2  -1.557214888425495E1   1.193505644528212E2  -1.569844198414526E1   1.198052346620724E2  -8.075181666173203  -5.175977145193821E1  
 1.500006750000000E9    -6.206388943659730   1.414243770869568E2  -1.532722693022772E1   4.507576239686713  -1.547059331429269E1   3.800400798265886  -8.054057195304770  -1.656008397800916E2  
 1.530006705000000E9    -7.558523546338279   2.511149459348177E1  -1.567966558214937E1  -1.111019846685081E2  -1.563517041057520E1  -1.104845543949695E2  -7.635870641474398   8.584788154527949E1  
 1.560006660000000E9    -7.262929269224942  -9.669937933121589E1  -1.543537264947796E1   1.336469655880691E2  -1.544778988299879E1   1.333446008421492E2  -7.884907682356237  -2.948162478202753E1  
 1.590006615000000E9    -7.078913053717190   1.475959859371532E2  -1.617967458859350E1   1.590978587878614E1  -1.623912967158295E1   1.626873301406289E1  -7.799386724738060  -1.494916754643192E2  
 1.620006570000000E9    -6.570350543426271   3.874116181087176E1  -1.642435610821950E1  -9.436772972813149E1  -1.639795132502229E1  -9.419941616759623E1  -7.085779087970432   1.008204869786426E2  
 1.650006525000000E9    -5.831267937916540  -6.641820805978264E1  -1.627465749348936E1   1.502063306370064E2  -1.623815550373944E1   1.503235496737100E2  -7.361323850833415  -1.459512891556720E1  
 1.680006480000000E9    -7.323309223117560  -1.789775699479986E2  -1.673367813280157E1   3.700938578523611E1  -1.653943914725074E1   3.693383359701950E1  -6.506201321739623  -1.275392020325789E2  
 1.710006435000000E9    -6.520485570296528   6.777059907652672E1  -1.606966200308583E1  -7.651981514440047E1  -1.601534812622021E1  -7.724905423272952E1  -6.164173954664313   1.270228276386786E2  
 1.740006390000000E9    -7.913288153859277  -5.100030946790048E1  -1.634026250753831E1   1.636759612141461E2  -1.630228533679340E1   1.644858236013818E2  -7.012244636190481   9.105521016099702  
 1.770006345000000E9    -6.839518516100361  -1.717591955451918E2  -1.673681593370493E1   5.058788463479775E1  -1.672316036299679E1   5.021836529811497E1  -6.131108465163266  -1.058441280816671E2  
 1.800006300000000E9    -6.194933502382569   8.559094220532357E1  -1.691971713313351E1  -6.537320476817752E1  -1.688560161117401E1  -6.417196762912427E1  -6.240369245467426   1.426684127136814E2  
 1.830006255000000E9    -6.931687188907178  -2.535353202063052E1  -1.725145619043430E1  -1.760621695598037E2  -1.718224965733290E1  -1.753353326579253E2  -6.110948171644238   2.798940702563430E1  
 1.860006210000000E9    -6.183640945974552  -1.313891268193504E2  -1.677186207965780E1   7.142438335997565E1  -1.666461311329217E1   7.076528470283225E1  -5.286331226319133  -7.931449213904047E1  
 1.890006165000000E9    -8.247773795969549   1.154646765894672E2  -1.675584645441365E1  -4.498460655253558E1  -1.674797511902120E1  -4.694526724094318E1  -5.963320033298750   1.677454857046607E2  
 1.920006120000000E9    -7.412377869639228  -8.887129365947791  -1.667227511644597E1  -1.608976864646280E2  -1.670473676971132E1  -1.603235077304243E2  -5.410344350680212   5.336990766391197E1  
 1.950006075000000E9    -8.060713125157230  -1.183589191591622E2  -1.695874758970233E1   8.235938085269628E1  -1.689576838933177E1   8.181488409387499E1  -5.485031314134024  -5.699756769473954E1  
 1.980006030000000E9    -7.202832050249730   1.219077916170106E2  -1.764081906484111E1  -3.111363627090895E1  -1.757666703411175E1  -3.108678575035953E1  -5.812304694278850  -1.775917671820957E2  
 2.010005985000000E9    -6.388884623687434   2.812852563622992E1  -1.752353294057922E1  -1.419969986736146E2  -1.734389363209533E1  -1.426988449472364E2  -4.617665339558324   7.603131412882890E1  
 2.040005940000000E9    -8.727135328660831  -8.449703727385341E1  -1.711702461755003E1   1.007801166143536E2  -1.722203418648234E1   1.009405274590334E2  -5.367364013540918  -3.578442895823724E1  
 2.070005895000000E9    -8.024963810375182   1.591470971553095E2  -1.709287036482611E1  -1.307491987771145E1  -1.724225564182611E1  -1.389200723539589E1  -4.929238114727050  -1.529092955662202E2  
 2.100005850000000E9    -1.024888558874537E1   4.722748187717918E1  -1.701465054577968E1  -1.293942253308526E2  -1.695170624695258E1  -1.294159415785414E2  -4.328860743254386   1.028211702950534E2  
 2.130005805000000E9    -8.693627784925026  -8.635294195942116E1  -1.731081168138855E1   1.127970860892130E2  -1.742898011071384E1   1.132924633321363E2  -5.322193877654839  -1.514467554612344E1  
 2.160005760000000E9    -8.041389131575730   1.788532024829757E2  -1.781802919742362E1   1.733267691222220  -1.792726075659659E1   1.171652568134551  -4.268107983572135  -1.279828860992509E2  
 2.190005715000000E9    -9.197644740513601   6.466954047044771E1  -1.787823772155960E1  -1.123511539392296E2  -1.775770520512207E1  -1.120135295548041E2  -4.517254166037382   1.274775181723729E2  
 2.220005670000000E9    -7.711490988422859  -3.389840586781453E1  -1.773482684507552E1   1.343616309928704E2  -1.770994842753876E1   1.336165901940558E2  -4.887644668092318   8.980699436404535  
 2.250005625000000E9    -1.183631373036626E1  -1.358535324794148E2  -1.739649594692602E1   1.977746398236699E1  -1.759203958684257E1   1.942449827454260E1  -4.098557523736650  -9.882938072998510E1  
 2.280005580000000E9    -1.076116594638877E1   8.206107889728506E1  -1.729756008790195E1  -9.793331448050500E1  -1.729903101772336E1  -9.765725061245118E1  -4.955479165788479   1.492800873823016E2  
 2.310005535000000E9    -1.100828496965963E1  -1.477377176386309E1  -1.752549874449701E1   1.446992920849611E2  -1.753539689239745E1   1.462008435512689E2  -4.312694825345695   2.885559162563260E1  
 2.340005490000000E9    -1.117795992205801E1  -1.466064238513452E2  -1.808204650395801E1   2.970282964738482E1  -1.813014798436242E1   3.107772793661030E1  -4.037318801733726  -7.532879078606013E1  
 2.370005445000000E9    -8.357689271214841   1.258621501490372E2  -1.841668277425633E1  -8.261525581829703E1  -1.846350685875024E1  -8.237922472050371E1  -4.575417654459260   1.689208738744854E2  
 2.400005400000000E9    -1.096412303991802E1   3.523717975122466E1  -1.828567107844870E1   1.665375932680602E2  -1.820870053369692E1   1.655819511304833E2  -3.668922251391028   5.970750138052056E1  
 2.430005355000000E9    -1.167445958197709E1  -8.431157873290908E1  -1.780989444793327E1   5.207315488876535E1  -1.774521846862857E1   5.111327491798191E1  -4.149938620714957  -4.443526482200326E1  
 2.460005310000000E9    -1.376340497248243E1  -1.732807768392298E2  -1.773752001383472E1  -6.629218406258191E1  -1.798109905302592E1  -6.616476780568658E1  -4.722120379826199  -1.668884660900058E2  
 2.490005265000000E9    -1.668799526626257E1   2.461378261305459E1  -1.780596252548473E1   1.776806552641108E2  -1.785606413923641E1   1.775246083096685E2  -3.735104804027800   8.585658323793210E1  
 2.520005220000000E9    -1.136261763652435E1  -7.281013297585528E1  -1.824198311710747E1   6.057056231115281E1  -1.807455216849202E1   6.062996940057130E1  -4.596358519097348  -2.730249661174801E1  
 2.550005175000000E9    -1.259411177057392E1  -1.705780178998116E2  -1.907266406182858E1  -5.329173756104827E1  -1.870690752864496E1  -5.419112010573517E1  -4.069967075483048  -1.457492655761686E2  
 2.580005130000000E9    -1.008203835571548E1   8.042792177976847E1  -1.892751090876398E1  -1.638554329331210E2  -1.893539715082255E1  -1.655984484800816E2  -3.576918037670299   1.145770613389870E2  
 2.610005085000000E9    -9.665898237639713   5.443676475828115  -1.867741113988940E1   8.139127844326461E1  -1.856109595674383E1   8.067208016384598E1  -4.715591191571085  -3.701211870494760  
 2.640005040000000E9    -1.400911891692152E1  -1.011305879476580E2  -1.876148000927788E1  -3.375711579288777E1  -1.869331651596338E1  -3.475534650487426E1  -3.772142054059443  -1.155383041088835E2  
 2.670004995000000E9    -1.330645684235555E1   1.346784415299855E2  -1.833777715011110E1  -1.494092960464640E2  -1.850302658682912E1  -1.495812068371437E2  -4.064932305612118   1.442568440924972E2  
 2.700004950000000E9    -1.593438100980549E1   2.128714641595759E1  -1.845743573294803E1   9.096971317931975E1  -1.856669342677964E1   9.053112109040993E1  -4.866849882068703   1.599952758530277E1  
 2.730004905000000E9    -1.120030025736959E1  -1.217434638429399E2  -1.954997725557005E1  -2.479913020742055E1  -1.958095845077435E1  -2.309162072962148E1  -3.469414947854674  -8.909708774737565E1  
 2.760004860000000E9    -8.617505467509480   1.575550733812768E2  -1.959875249530596E1  -1.354409525551180E2  -1.965237846306347E1  -1.365908950613644E2  -4.350573967388427   1.646962510982306E2  
 2.790004815000000E9    -1.006219925710785E1   5.825658070350022E1  -1.975582274236913E1   1.103855464582507E2  -2.007037565454624E1   1.111022140214712E2  -4.360846458412576   4.338886197395971E1  
 2.820004770000000E9    -8.653599005879951  -4.767647040069598E1  -1.937880289750858E1  -4.171360966673388E-1  -1.973866279195116E1  -7.806725355297352E-2  -3.476562760682911  -5.601566102706114E1  
 2.850004725000000E9    -1.025913419195005E1  -1.365749361729953E2  -1.910982297483428E1  -1.189931453154022E2  -1.904950157197010E1  -1.164517374295057E2  -5.297974967630930  -1.718500418121449E2  
 2.880004680000000E9    -1.379659747094849E1   7.146562298685727E1  -1.964325029778666E1   1.256060855641802E2  -1.965391735265121E1   1.252645424449978E2  -3.934303116503902   7.201182697488554E1  
 2.910004635000000E9    -9.574217408464770  -4.117641035250188E1  -1.968641479386426E1   1.006850736393295E1  -1.956985550746844E1   8.812740936505564  -4.042863335265148  -2.957461624573932E1  
 2.940004590000000E9    -1.021502546648124E1  -1.612686772638144E2  -2.067088732336682E1  -1.111847115841675E2  -2.057124154731620E1  -1.105232669403086E2  -5.415742004555221  -1.569026484094959E2  
