!Keysight Technologies N9916A: A.08.06
!Date: Thursday, 30 May 2024 20:19:57
!Timezone: (GMT+10:00) Brisbane
!Model: N9916A
!Serial: MY53102361
!GPS Latitude: 
!GPS Longitude: 
!GPS TimeStamp: 0001-01-01 00:00:00Z
!GPS Seconds Since Last Read: 0
!CHECKSUM:2118525599
!Correction: S11(ON U)S21(ON U)S12(ON U)S22(ON U)
!S2P File: Measurements:S11,S21,S12,S22:
# Hz S RI R 50
30000	-0.445124945596225	-0.0644968247057473	0.352855860276193	0.0489368553165751	0.356851400612701	0.0732219268967152	-0.763798888891311	-0.140859873254715	
30029850	-0.455306091337317	0.0244410436647192	0.359359855529138	-0.0064482553637641	0.359017752185525	-0.0065809179579509	-0.769968470175352	0.00940109245418134	
60029700	-0.462644737046107	0.0384533927004827	0.360246109471435	-0.0116958829305133	0.361232338781812	-0.0107229507066475	-0.779218107713552	0.00956028226515823	
90029550	-0.460882880569111	0.0509297086803152	0.357944159487589	-0.0195126492198299	0.359810520695062	-0.0180113886944668	-0.778199121177331	0.00161300735703169	
120029400	-0.449895157098617	0.0662719485724944	0.359573711527007	-0.0254658853752344	0.355600217409494	-0.0230883456583726	-0.766852625055636	0.00480446149266507	
150029250	-0.441988800721864	0.094638957831575	0.357210749966877	-0.0317160212370974	0.354195564831654	-0.0295512492896163	-0.763159259361084	0.0164287038653676	
180029100	-0.446247122460121	0.115651860714467	0.357802222205578	-0.036765842381769	0.358035790214817	-0.0384492027290621	-0.769688400997227	0.0257665104677035	
210028950	-0.447435960221564	0.125258592603529	0.359562231774232	-0.0429026016407424	0.358328904089684	-0.0449607666891096	-0.776815991591931	0.0208410009165406	
240028800	-0.438947047466632	0.137510542919944	0.35739214264522	-0.049207295525176	0.357601768648181	-0.048601250214849	-0.773065721318138	0.0172722899021307	
270028650	-0.422618359088179	0.153974710937454	0.355541034160734	-0.0549469601784661	0.352708694660165	-0.0552884288036096	-0.760796905809804	0.0206776657553018	
300028500	-0.414121803425235	0.181163454760848	0.351996942354111	-0.0603774149595284	0.353167954141676	-0.060543953297903	-0.755585376484963	0.0315854259133141	
330028350	-0.420536270015965	0.200573490859257	0.354469071954748	-0.0680499989923288	0.355835372419836	-0.067626284651027	-0.769587278156785	0.0370102182106423	
360028200	-0.416222414122327	0.209249814888765	0.354040861014609	-0.0748741620981279	0.354521684966139	-0.0747612003603552	-0.772134377494035	0.0341781545147486	
390028050	-0.400057360915786	0.218916379635046	0.349909945024496	-0.0773387646286866	0.353605260806597	-0.0790840684644672	-0.762014842779704	0.0291927268239482	
420027900	-0.384044197671796	0.237539695040002	0.351303418894226	-0.0861647992522474	0.35128488048	-0.0878844121080817	-0.747754347966823	0.0351394831342995	
450027750	-0.377849305442355	0.266772982443787	0.34957726362659	-0.092772433215311	0.350293602137202	-0.0920452245266983	-0.745244542426739	0.0479499082596455	
480027600	-0.376630934256773	0.279647026732797	0.349445881497542	-0.101502732879125	0.349250338469217	-0.0993762663348093	-0.752970951629471	0.0531537031708208	
510027450	-0.36928717726784	0.28773561667181	0.349502261442786	-0.104439883594415	0.349448661738348	-0.104154734867177	-0.758690759629643	0.0453282341116469	
540027300	-0.34680793566686	0.298170326523737	0.344482377822988	-0.111636136707392	0.344409728530198	-0.113235510925201	-0.747750899927531	0.042596559092348	
570027150	-0.329957655576146	0.316720777877145	0.341166543672433	-0.117291507692965	0.34335904149571	-0.121818802469971	-0.73554159428381	0.0476247178193068	
600027000	-0.318961678247961	0.339566854931352	0.342287011256447	-0.125289083323193	0.340516470986191	-0.123434864482847	-0.738620564174226	0.0649855765338572	
630026850	-0.316150089245528	0.350441215620554	0.340118453220273	-0.131111176986573	0.339037594022564	-0.130613612981618	-0.74358792102837	0.0646205245640862	
660026700	-0.30230516344135	0.353008870324063	0.336948336351315	-0.137629526342916	0.338024372064748	-0.139090393444851	-0.742508847012278	0.0544043515624209	
690026550	-0.276012617632413	0.364314658173541	0.332798332578997	-0.143643791682395	0.336512705067699	-0.143921735168071	-0.730632247161357	0.0507930324474586	
720026400	-0.258865308512309	0.379206971833489	0.333641890709934	-0.151835073453108	0.332272248336689	-0.152421728408074	-0.717157632069832	0.0566662354657663	
750026250	-0.248448807430631	0.401224641475163	0.330788078293438	-0.156784904113375	0.332629211858251	-0.159044232919148	-0.718119285630471	0.0698577034017508	
780026100	-0.239771311919109	0.40928294342874	0.326508839495032	-0.166413410142839	0.327384022727764	-0.165949946603125	-0.723359425202002	0.070001844534044	
810025950	-0.220924698875879	0.404178790754942	0.32509201024101	-0.170766758918787	0.325509933438909	-0.170777956593598	-0.721210104736455	0.0595813678481561	
840025800	-0.196146401365434	0.414260532715086	0.320296254284762	-0.174400139963584	0.321110008960602	-0.176022145736477	-0.705578751629733	0.0566561150613298	
870025650	-0.17399806011736	0.433034635627336	0.316397118351448	-0.182600390277465	0.317428266374261	-0.184125060524044	-0.694267148502035	0.0638116725352434	
900025500	-0.166266920014211	0.443103328444127	0.315853189631101	-0.189657394060415	0.313182715747461	-0.19023015423589	-0.695590288273716	0.0721458922036291	
930025350	-0.151490323187291	0.446638243169738	0.310201440177409	-0.195550096672333	0.31172461280159	-0.195538892187201	-0.700009221070022	0.0742362825285854	
960025200	-0.127593902753201	0.440726457994985	0.305210874458142	-0.201606512775571	0.308102709507128	-0.202308297553601	-0.6977408106754	0.0616979594955347	
990025050	-0.0981609802448442	0.449914675650144	0.300919847641325	-0.207286167176659	0.300816347378457	-0.208797367652316	-0.682902571771623	0.0601768590165738	
1020024900	-0.0842598061273822	0.466912243815703	0.296840001112963	-0.215258370831273	0.299490041335322	-0.213882542087763	-0.668829890546351	0.069240649941313	
1050024750	-0.0666544167396628	0.469147676809341	0.293132605930883	-0.221582625488801	0.293004321862943	-0.219762706553436	-0.675252435162998	0.0757973499816663	
1080024600	-0.0584969063903153	0.461917519123239	0.290304775544355	-0.225806327976024	0.289408390881686	-0.226160760843671	-0.677715189026454	0.0675801082206138	
1110024450	-0.0281346153494616	0.454636347861752	0.28534257335229	-0.231985456661681	0.285339875127973	-0.231549862658271	-0.669238807780203	0.0571393392311097	
1140024300	0.000954929111571544	0.463685328165981	0.27829786737653	-0.238497889025122	0.27888456466616	-0.237915226311737	-0.649296267900258	0.0563637248000322	
1170024150	0.0185043768526069	0.472438723963667	0.274144973370902	-0.242082626439891	0.274386551966898	-0.245546435285098	-0.639275432879273	0.0665842108971731	
1200024000	0.0297791314532876	0.471589070153116	0.269142873332884	-0.249914993088397	0.26930806453089	-0.250730510464336	-0.642892911844296	0.0712321101609926	
1230023850	0.0459760337377305	0.459804720729479	0.265219994412231	-0.254274067695135	0.262795003560158	-0.253567898467561	-0.645576057048938	0.0735755838934218	
1260023700	0.0696424522390679	0.446992092031057	0.258519031338755	-0.257821604572932	0.256099075484092	-0.256418599954787	-0.640897894063981	0.055661799496404	
1290023550	0.103543923325355	0.450691210715745	-0.251875643313187	0.264448151256925	-0.24701980857259	0.262158315039322	-0.616629148787501	0.0494387165362083	
1320023400	0.117203340285771	0.457250949508869	-0.243411228385804	0.27053463870085	-0.243230038941409	0.270275460325553	-0.59953895787808	0.0529778209840351	
1350023250	0.125401379284573	0.447397370519247	-0.24389725679647	0.270040861572902	-0.24425619970615	0.270936821203816	-0.625006808281581	0.059116094740009	
1380023100	0.142633692569316	0.427058917066099	-0.236534327386304	0.273471159633597	-0.237805978268326	0.274538928921423	-0.620515587091633	0.043834916831722	
1410022950	0.166132043493073	0.414442946576533	-0.230740653112509	0.280288892839608	-0.22832689214557	0.277113183653129	-0.603459248144965	0.0347656567333122	
1440022800	0.195465960635619	0.415747261532209	-0.217641043128634	0.28233968559755	-0.219413322217994	0.283770911240501	-0.581182014869954	0.0390263328286218	
1470022650	0.20631111263903	0.416524022876749	-0.217240888895303	0.288270267370893	-0.216003513219828	0.289933056881244	-0.580081260937876	0.0462271391630524	
1500022500	0.213292155593353	0.400601740810893	-0.208558323799454	0.29289195919425	-0.20831988954831	0.290720382973761	-0.583928827171525	0.0459185343273824	
1530022350	0.232492826421142	0.381048813151615	-0.207114027495579	0.292749784013424	-0.209200628086088	0.292982566852544	-0.58727410467607	0.0265170612760245	
1560022200	0.255187112356982	0.365084360330294	-0.19726896971771	0.29481110813339	-0.19726394874118	0.292393371897048	-0.569771165014056	0.0162505041931248	
1590022050	0.285213987214314	0.351806924421938	-0.184688086605527	0.295158018926167	-0.188095948927849	0.29843471055091	-0.547267227240541	0.020406609789085	
1620021900	0.286752778070524	0.360889522007648	-0.183633190011829	0.304213367928318	-0.183011060663201	0.304786607888576	-0.546417424579481	0.0259545926944439	
1650021750	0.290554602732864	0.34240286022475	-0.181817705822161	0.304527538262137	-0.17838631018853	0.305395081380966	-0.553153618877994	0.0168021530908595	
1680021600	0.306868057344926	0.317732460245305	-0.176825326577532	0.303610414400486	-0.177108973424737	0.306483404680121	-0.556548446932708	-0.0127510260974618	
1710021450	0.323324539054787	0.299781534554573	-0.162777617924886	0.306171837297794	-0.169162827513011	0.307778419231937	-0.534025200130585	-0.00872141271645054	
1740021300	0.346371332186135	0.293366157115553	-0.159556948962725	0.306138198975554	-0.159348882961754	0.3081217448911	-0.510454959841924	-0.00842067155227107	
1770021150	0.352625609825777	0.286054491103841	-0.149177064912148	0.314471218975049	-0.149691997358961	0.310939797931537	-0.504279536763562	-0.000931107047323812	
1800021000	0.353213109512432	0.267495605116574	-0.145942082045328	0.317043518962618	-0.149743074673887	0.316042014990118	-0.526104986877537	-0.00536439702062399	
1830020850	0.364323779490533	0.242554589922083	-0.143253701645799	0.317339167422136	-0.142881825139474	0.310647973757906	-0.52358797114499	-0.033454515369406	
1860020700	0.381993051505479	0.224867473988951	-0.13297683912371	0.312699134729392	-0.133444452726553	0.311881621787354	-0.492880780803016	-0.045920037381525	
1890020550	0.395837494521675	0.218095032383652	-0.124161678318414	0.315226352638276	-0.119852718636681	0.320236485672628	-0.483509857248294	-0.033716412360925	
1920020400	0.40907827123899	0.199460019032717	-0.11367152189562	0.32137370268004	-0.118470574015413	0.319132449680584	-0.477596867816014	-0.0290359740182548	
1950020250	0.392990607731924	0.180980100285784	-0.118600227560687	0.322374252395967	-0.118997177186083	0.323011180413728	-0.49672281039844	-0.0432129335676435	
1980020100	0.405789586972941	0.155904585951852	-0.112255041382146	0.321682594431491	-0.110027832160617	0.319929689234537	-0.494791188810466	-0.0608334416103741	
2010019950	0.417850866760773	0.140942948661461	-0.102812000734877	0.318771544104444	-0.105601971259227	0.317825822166644	-0.468573301486166	-0.0807169708290311	
2040019800	0.420961251251093	0.131407443469584	-0.0949914712528996	0.318757804704625	-0.0952216824421055	0.319977022088518	-0.452035620176616	-0.0733354424038522	
2070019650	0.427505005479235	0.116656300527571	-0.0863567668068811	0.322544267634436	-0.0866085235110462	0.32269011945506	-0.447077430164312	-0.0679051098878376	
2100019500	0.414761895929421	0.0884529736265491	-0.0904529112075655	0.320706773971667	-0.094234672579364	0.32510176652845	-0.478386550853339	-0.0934229361773256	
2130019350	0.425902424081118	0.0704740829837619	-0.0859519202547596	0.322332304202629	-0.0868594865949719	0.320429855285317	-0.475827444580284	-0.109116282771436	
2160019200	0.433306960171049	0.0520446842596781	-0.076611055237057	0.317427364145866	-0.077158353697419	0.31320051895006	-0.440911163257552	-0.130896291335794	
2190019050	0.430877662006078	0.0454305820162029	-0.0691445864210656	0.319262090232863	-0.0682949503975748	0.31995125498279	-0.426560793398134	-0.119698885144578	
2220018900	0.422508751737428	0.033279395674141	-0.0654883529486219	0.322480898334909	-0.0633562954861971	0.322800213176301	-0.424842194703565	-0.123256404381301	
2250018750	0.42070585468852	0.00286102752895521	-0.0629280047757655	0.324532150324654	-0.0648519782793822	0.322751533780566	-0.45913450877312	-0.134827045259238	
2280018600	0.431357385946594	-0.0147185644079036	-0.0616848216229702	0.320438073544619	-0.0619428588429542	0.320559831800972	-0.452974302554846	-0.171350752373992	
2310018450	0.433410150909082	-0.0323856488178084	-0.0491894784400175	0.314860097294969	-0.0514343215110022	0.315866269986193	-0.423169787742178	-0.179178695170497	
2340018300	0.425851493231283	-0.0391866422288343	-0.0454044588027115	0.319323822093285	-0.0420993285393861	0.321883637408369	-0.406301389883666	-0.167490993318252	
2370018150	0.416402990606998	-0.0604592627635605	-0.0357859232142757	0.320766979301062	-0.0350275035262073	0.320883190339952	-0.423925160260385	-0.165970653090608	
2400018000	0.41389009116896	-0.0757454081499615	-0.0373025982802927	0.322771778697103	-0.0383405795504159	0.323037368406169	-0.44037674862936	-0.196363312631019	
2430017850	0.411217146697689	-0.0999695544207257	-0.0331042559738107	0.323139391540653	-0.0328253098282545	0.320173991774665	-0.436034810037281	-0.204585682157376	
2460017700	0.410921129680029	-0.100443622394314	-0.0276682603140511	0.316311030214094	-0.0254182047934575	0.314019128470023	-0.399069565013852	-0.240235831100515	
2490017550	0.399933864005981	-0.118856656785032	-0.0155878206239571	0.318034791073724	-0.0218865444979973	0.316243323969795	-0.398227878527102	-0.213423618342098	
2520017400	0.395062135076938	-0.13192974786193	-0.0137779293421503	0.313773987348343	-0.0103884023502342	0.320939962003712	-0.397006270764623	-0.213372947161386	
2550017250	0.389936266474069	-0.152293295343757	-0.0199536728797296	0.317803551752329	-0.0213318517794266	0.318806548755773	-0.434525313151834	-0.265679297400471	
2580017100	0.388034990790139	-0.16295499361493	-0.0110403751538658	0.318799128193291	-0.0100740996637627	0.316837755805293	-0.425684545957727	-0.274076035684333	
2610016950	0.380292002146334	-0.175484313662992	-0.00527015302682694	0.311155086646721	-0.00332997961746902	0.313423735034058	-0.396988012932404	-0.290019995979565	
2640016800	0.366804026950316	-0.191180841531183	0.00176256319955197	0.313824578611427	0.0040992015676853	0.3143987866956	-0.384602992016671	-0.27845603664743	
2670016650	0.353591148201281	-0.208746370378648	0.0084348987056388	0.312075937123588	0.00744588020582922	0.316738619113665	-0.392843819800507	-0.274790103181361	
2700016500	0.355671417814564	-0.229504582284793	0.00181709825644161	0.312236345214373	-0.00105348573664389	0.312942199488255	-0.4308826184715	-0.326723130231259	
2730016350	0.349979867944232	-0.231983809214453	0.00868392024008222	0.316149456091027	0.00785580715484066	0.314393137869608	-0.421431212583333	-0.343840857830706	
2760016200	0.33625692150743	-0.239254526677689	0.0158167076229726	0.312483678141476	0.016531035234401	0.309581551387501	-0.400783832466269	-0.356048041617125	
2790016050	0.316344782963465	-0.257463445030849	0.0223190067611443	0.310414941452967	0.0189588332262384	0.311554680472527	-0.383489578478099	-0.333406385204986	
2820015900	0.307470960202127	-0.275114472680212	0.0259098341539603	0.316609152620299	0.0215374226574808	0.316035599331456	-0.407857247771082	-0.343618322824993	
2850015750	0.299599420051521	-0.283627466709774	0.0252897780135612	0.315569274989628	0.0272149386840242	0.313137147962667	-0.430603742025118	-0.374385921675203	
2880015600	0.295776754920839	-0.287665380668434	0.0284147645925279	0.312783778990686	0.0290309586513546	0.31113958849375	-0.43622805097179	-0.414589896545117	
2910015450	0.277577515092987	-0.303438108953934	0.0331709142944781	0.310020316200697	0.0354459051632423	0.308482390060355	-0.401867959256488	-0.4281983043107	
2940015300	0.25472320066969	-0.29879070325808	0.0495059724977546	0.307003177528929	0.0471261675843698	0.308000728407421	-0.431666471305223	-0.41554646551583	
2970015150	0.254619529835738	-0.330423173498708	0.0384199826444434	0.310564413451194	0.0351800306892111	0.312556073391152	-0.409911362923944	-0.421159882133557	
3000015000	0.246889043301701	-0.332641113111665	0.0421404072631367	0.311860245699355	0.0391616618117646	0.315106114911158	-0.440569980913968	-0.460706427896748	
3030014850	0.232338978344809	-0.337114393133134	0.045061926848272	0.311764989682328	0.045977053067283	0.310267187171924	-0.431056450079264	-0.488140763214722	
3060014700	0.20743951313106	-0.337817570129834	0.0559414424000634	0.308736819419347	0.0581315819052614	0.311814703704302	-0.423689094596072	-0.485730037415435	
3090014550	0.193901376443295	-0.364592544769772	0.0611740601794827	0.309909780512757	0.0529577972921207	0.312554097147555	-0.430889483383159	-0.486380967862392	
3120014400	0.18270346132106	-0.36816641789569	0.0590260625594079	0.311771980799584	0.0589369615796267	0.311540727857556	-0.447548595430256	-0.491053830099345	
3150014250	0.17214702921017	-0.374435382921996	0.0581231116360873	0.310235515663257	0.0634325415817641	0.311918409331441	-0.451450795584153	-0.522184734969291	
3180014100	0.156376122921173	-0.372350000540494	0.066665259168992	0.308618250603654	0.0708703126665815	0.312094215522971	-0.449246683717725	-0.553879401746445	
3210013950	0.135239559810914	-0.378366090523999	0.0681623008210152	0.309342690095769	0.0738707160681093	0.312430582105697	-0.440815766684268	-0.562787546997052	
3240013800	0.11527972494815	-0.399010760767869	0.0767322261165442	0.310107026450778	0.0755777776204229	0.311274101844729	-0.431815559693988	-0.545967642630935	
3270013650	0.108476340943703	-0.408366391228797	0.0750744634170198	0.314938900038472	0.0792725480809764	0.31266165514279	-0.46314040912873	-0.552302460273602	
3300013500	0.0854537080603887	-0.409360712273687	0.0858392624030406	0.311462386576014	0.0873480281152183	0.313842111603767	-0.474976056536042	-0.553571794515887	
3330013350	0.0703157647643619	-0.389778063379366	0.0953885243371629	0.312243566299225	0.0873769171454943	0.31628712279895	-0.463776389341595	-0.638641506462998	
3360013200	0.0431619629173709	-0.403197686356756	0.0966765868845676	0.311108402009876	0.092405765604554	0.313938491350361	-0.449533389093161	-0.638787558463174	
3390013050	0.0172634355489888	-0.407671388479738	0.101539370004238	0.313373686763788	0.105695435883385	0.313341667509507	-0.467107538639927	-0.615748120704845	
3420012900	0.0195418931421924	-0.428876018734833	0.0976297969520432	0.314931975649942	0.0978224871786457	0.311894099616997	-0.486630439493958	-0.616835664109922	
3450012750	0.0106679784227187	-0.418586625036237	0.103367020029409	0.312725162632288	0.0993565770542345	0.309238969165317	-0.503559185262317	-0.657505422731031	
3480012600	-0.021678600615318	-0.403010748542043	0.10604756272914	0.311337731833081	0.106517462909674	0.311101658299118	-0.487493362715803	-0.698839136780154	
3510012450	-0.0457498144301416	-0.408177058348367	0.108749625437002	0.307330679406434	0.111826861071148	0.314994987822401	-0.475213663518263	-0.698734679761307	
3540012300	-0.0689129547668651	-0.419300310526663	0.115119629618908	0.315178212686633	0.110970360198422	0.319242815392069	-0.493596123408973	-0.692460750709553	
3570012150	-0.0626730297843223	-0.434413088328201	0.11670153482142	0.320553374749945	0.114336001241797	0.319844818288374	-0.515758804691774	-0.700890866133131	
3600012000	-0.0839161093900549	-0.422753449276229	-0.120930247270233	-0.32072652842595	-0.122090456193649	-0.326188750934941	-0.532139231255742	-0.73093598848239	
