!Keysight Technologies N9916A: A.08.06
!Date: Thursday, 30 May 2024 20:30:48
!Timezone: (GMT+10:00) Brisbane
!Model: N9916A
!Serial: MY53102361
!GPS Latitude: 
!GPS Longitude: 
!GPS TimeStamp: 0001-01-01 00:00:00Z
!GPS Seconds Since Last Read: 0
!CHECKSUM:1120132189
!Correction: S11(ON U)S21(ON U)S12(ON U)S22(ON U)
!S2P File: Measurements:S11,S21,S12,S22:
# Hz S DB R 50
30000	-12.6538011794226	-132.584629965121	1.56622468129197	8.18128214575911	1.91591403943932	8.33556706834873	-10.4979769787983	-143.116781759856	
30029850	-11.125706744073	-166.479698396965	0.796291550037623	-88.3377678309391	0.786098749375414	-88.0528934161344	-10.0318637712619	168.394711226569	
60029700	-4.32870192722317	122.774632068332	-0.558623868440096	179.537703414117	-0.532118378759398	179.742856161894	-5.75251104141542	80.8295078462036	
90029550	-2.11256974054572	37.8685378570939	-4.31391729918939	90.3390128887612	-4.2351646848715	90.1944796468979	-3.09734028717031	-46.6290222839626	
120029400	-0.209901277169854	-40.8222213225525	-15.4256619505763	15.5577409805009	-15.5031693506803	15.9409066654946	-0.879367378434672	175.251681194988	
150029250	0.00919294692213185	-112.816889074167	-7.3819321833547	11.6778852853026	-7.40613326387723	11.6142879042314	-5.85760197425543	-38.3941741457353	
180029100	0.325486302170793	179.619200732996	-6.47969636691211	-81.4085629630112	-6.47764737478586	-81.9132742968226	-3.18423717849435	-175.965650855306	
210028950	-0.0253299876930568	107.414027241907	-9.45501769883278	-169.021717542233	-9.40831665863415	-169.476701712264	-4.63267049275918	79.378810733311	
240028800	-0.709264474076162	30.9893330580845	-15.1614739094831	130.471802830842	-15.1450274687187	129.850200666431	-6.25709351067994	-34.0274674914516	
270028650	-0.318469020154402	-39.0497243568856	-16.9069042488068	109.357350419678	-16.8908919660496	109.46496077026	-5.60246779839526	-126.697866003483	
300028500	0.254339250657623	-105.790529149973	-11.9543402205319	62.1190893085006	-11.9706701526114	62.2176193509643	-8.2731277100503	140.633909659998	
330028350	0.46120698955411	178.093423217151	-8.69395615685187	-14.6457276874089	-8.71762267473965	-14.5932125443827	-14.9848650551663	23.97173657496	
360028200	-1.1254224921692	86.8924932617794	-7.92665101843144	-95.2999271190581	-7.94391389437989	-95.1802842466261	-12.0355519503213	-94.9594306944435	
390028050	-1.92770989973988	-6.39133735773209	-8.18106862912386	-169.308086014799	-8.14455895805544	-169.336294999589	-10.537730472223	-161.862917648771	
420027900	-0.980170887375943	-84.1777731912662	-7.95392186823786	118.733571345203	-8.00795820120092	118.886557801463	-13.9723998202962	113.709944096312	
450027750	-0.641722907333119	-167.75021891458	-7.8911102147697	41.7640310328113	-7.90330914857166	41.7048172206272	-14.8048634916189	5.66956314290074	
480027600	-1.49884573754533	89.8095749047526	-9.33833517884377	-37.7256761640478	-9.32483774479178	-37.7157805951544	-12.8114941717847	-67.2870029738634	
510027450	-1.61232998729764	-4.53716153813006	-11.8710550733412	-103.099553625298	-11.8470428178382	-102.800481339411	-10.3522783346784	-118.715134681899	
540027300	-0.0991713668524377	-72.6933317067162	-12.830456764837	-159.914268152353	-12.7561501842259	-160.425498627749	-10.7090844727289	-166.756085946922	
570027150	0.679641009333237	-137.348760605188	-12.5992962626662	138.102572200037	-12.4952266655857	137.468949340938	-14.2506536409004	119.177370394733	
600027000	0.230563058933129	141.093093257626	-12.6225040187768	67.2662216787053	-12.6886040096945	67.6731304777912	-13.8975280994427	23.2715961957661	
630026850	-1.25951139861487	52.0266746585642	-14.2701174217974	2.09342126110349	-14.3711860745067	2.22369317481353	-11.9823073415436	-49.6329399867646	
660026700	-1.00767796219813	-21.3166825465869	-15.3051288569872	-50.1037911937686	-15.2863688436137	-49.3081076524558	-10.9254686023359	-97.5654520864335	
690026550	0.214030646795625	-75.8538883779099	-14.2487745049195	-100.482589147913	-14.2108460813627	-99.7853577832485	-12.188475308947	-133.14497874955	
720026400	0.925545416545536	-135.141860073121	-11.4598347416412	-161.253833234084	-11.4813081947329	-160.513530150403	-18.1808465930278	-174.403373045064	
750026250	-0.0790673753327093	135.834267579148	-9.11743422163065	121.324988632242	-9.142010494507	121.379302012333	-22.9478164777173	61.2052414295154	
780026100	-2.34305642275696	26.4131261474757	-9.69700644669498	43.6585438278797	-9.70357409818167	44.0317281046345	-16.1534126754172	-26.5256907702172	
810025950	-1.41548182356731	-56.8792325743338	-9.72728801343082	-18.1561799830253	-9.70607820411275	-18.2908398581307	-13.8150373198381	-64.2285906141402	
840025800	-1.5387818540168	-131.817407346391	-7.57629533183556	-87.1824997454533	-7.54779797086925	-87.3295695754658	-12.3101081582314	-77.6338075996968	
870025650	-5.82720229547433	96.7762309509181	-6.81454699202841	-176.278755034321	-6.80927563037666	-176.963619659906	-12.1872535468776	-114.243222474976	
900025500	-2.81487349928197	-22.6770516955866	-9.2622241739566	105.863429726826	-9.2416594969575	105.812187881932	-26.4058990410366	-175.075076898415	
930025350	-0.0976810920895351	-85.1011034584021	-10.6435471476811	44.2271882628869	-10.6307158487681	43.8566949510992	-19.6616921164189	-12.4810202201624	
960025200	1.08295694677862	-150.34692746231	-10.1330597667194	-21.7042130564576	-10.1023737536779	-21.3729827898872	-13.9124347942097	-40.9325766555961	
990025050	-1.22352849077988	107.275307697884	-10.8151356942669	-101.489912742746	-10.7501983778998	-101.382088724147	-10.5836102438824	-58.8164425881514	
1020024900	-1.84015168591626	9.96138958510808	-13.6850661945943	-167.44922909888	-13.6290169138789	-167.057548847261	-10.8861454212922	-80.7359831706395	
1050024750	-0.5457914641093	-47.128229401927	-14.8188820707999	141.310036757744	-14.8239764627422	141.255905482845	-15.2015373849874	-102.588326653532	
1080024600	0.928436534191944	-90.3003395485597	-14.0559429715415	88.2780140142208	-14.1967371042107	88.3243362203124	-23.1781351391229	-69.2292224264623	
1110024450	1.80063512315784	-143.12317713685	-11.9343024904327	26.1188208263381	-11.8024171265833	26.1699881219098	-14.4761429691775	-35.1408644869823	
1140024300	-0.421294315475967	118.669262147248	-10.9996917903463	-56.837372989449	-11.0753886057737	-57.4565815888001	-10.2746589958868	-42.9768846700051	
1170024150	-1.78397112220848	12.5812415422893	-13.5811961973804	-126.708338607586	-13.5943390057978	-126.880256877627	-8.81247927409192	-59.2762956314914	
1200024000	-0.484593169144067	-47.4941234154994	-14.343900224885	-177.20336246909	-14.3433289555233	-177.686267417862	-10.155390325601	-80.3257274837151	
1230023850	0.907476037651876	-91.9811330421831	-12.1265963282044	131.567871522642	-12.290199864986	130.732843680412	-15.1900209401401	-88.6101989940254	
1260023700	0.574650016194712	-154.276656627486	-8.49896387987936	58.1853156947741	-8.60554333538173	58.1751620554225	-14.593105995583	-48.5251682022665	
1290023550	-4.48456472348946	75.0680105276934	-8.57958482545423	143.962510247909	-8.71498365633519	143.966633958787	-11.6605351004651	-40.2651345618119	
1320023400	-1.79317405490004	-27.696241805987	-11.5881096078453	75.8265534539145	-11.665111305818	75.8603033613942	-7.95786093251062	-45.7006380535148	
1350023250	0.535151685743072	-79.710088457629	-11.6025743700409	25.3137004101698	-11.6105945538058	25.6947332576783	-7.94602165193782	-63.8503503700517	
1380023100	1.33876198652118	-146.120723314588	-8.08121063520645	-40.5905220791981	-8.07079557578439	-39.7955063439438	-10.4754916236152	-76.3772583990054	
1410022950	-5.11142666195048	68.8912941066232	-8.41407208099394	-137.196622338404	-8.51819047745304	-136.414682432757	-10.569394791222	-68.5453325279109	
1440022800	-2.0636098987298	-27.5877962074624	-11.6700810178804	155.087879752138	-11.6442981921448	155.170900798278	-12.5324315882405	-50.4079422590386	
1470022650	0.056004814344806	-67.5092315188796	-12.8378372864563	100.314784369629	-12.8727993889463	100.220173788933	-8.45405004168388	-33.521039891629	
1500022500	1.85215074548092	-108.789538187432	-11.4260037880981	46.7149355705351	-11.563765178725	46.9736099751748	-6.3815975832733	-48.5970665296452	
1530022350	0.75061640700791	165.047549355589	-8.43345139064682	-31.8607451040038	-8.34689412552619	-31.6409274856732	-7.07447980796603	-64.0863965275501	
1560022200	-3.23858922475297	16.6475093809414	-11.3626616805805	-114.123150049587	-11.3894193139835	-114.873895466922	-7.28651126840311	-68.6419221824928	
1590022050	-0.492876834564603	-45.2835505098599	-13.0462745823927	-167.609157159505	-13.0136265598517	-166.998174417267	-9.55858002490642	-71.6048294200525	
1620021900	0.805980371977934	-81.6344608062714	-11.6047563776633	138.745674988092	-11.7041299349231	139.027931820051	-10.8832672979252	-37.19173875192	
1650021750	1.02453591237592	-130.802184417903	-8.65978245954477	70.2321559688959	-8.60153881912016	69.5174269860397	-5.87626396752834	-36.7799733493647	
1680021600	-8.35403104192198	100.82195960708	-8.69458092597166	-23.9834224274191	-8.62091109779732	-24.1827598515921	-5.62282687431001	-56.271087299749	
1710021450	-2.46428106282886	-32.1631735021825	-12.2888039679489	-89.6819929585832	-12.318630503442	-89.2763743761587	-5.3742942070049	-61.0084089262557	
1740021300	0.450533182497842	-72.918695561081	-12.0905317739167	-136.006167753835	-12.1223191819314	-136.110525955985	-5.96548185126514	-69.2180901471173	
1770021150	1.58612871278436	-131.838109918329	-7.24731508917071	158.510639688202	-7.2383531121744	158.882940825859	-10.4033530223725	-66.933552224189	
1800021000	-8.29421413565335	39.6029861157948	-8.37983473707129	47.95474140705	-8.33965560573639	48.4493369990746	-6.49833639455055	-41.3696709567646	
1830020850	-1.59752160915027	-46.5234672532427	-12.8834774579466	-11.7867315043108	-13.0065933451942	-11.5246716473758	-5.74964797521845	-50.5372677108164	
1860020700	0.546399188548466	-76.3697679586436	-13.6208618749059	-58.8004711594434	-13.551339413251	-58.4324025031149	-4.99786243818056	-53.0886034072403	
1890020550	1.39405730830285	-117.82275555215	-10.5674963874387	-115.770095425496	-10.5165679203298	-116.321451593225	-4.44940899566015	-58.3517854739881	
1920020400	-5.80580674603333	115.822459377189	-8.72547945352928	145.018102751336	-8.70432446640763	145.677432746106	-6.31866309991962	-63.6061995761454	
1950020250	-2.51636353435101	-27.6299904407461	-13.3346164349998	73.8733260259208	-13.3915112157329	73.4138615494154	-6.09566284189122	-53.9197942366736	
1980020100	0.570889667431284	-62.5644026739134	-15.0502783082672	27.6902984201307	-15.1487374589201	27.5284967783849	-5.57542667260596	-55.6832489417759	
2010019950	2.14427090119265	-93.8595161344949	-12.8864888037726	-21.5043250440478	-12.9894558737602	-21.1732724219929	-5.3570758848311	-54.6789761806397	
2040019800	-0.103012504441549	-171.495235877076	-8.47210853228581	-108.246839015725	-8.60714454683638	-108.544841375386	-3.98534284314462	-51.1084762212277	
2070019650	-6.79286501933043	-1.43412990411753	-12.4162118828809	160.558589693873	-12.4160963338864	160.655559533502	-4.59733607971901	-58.5513015088783	
2100019500	-1.15066425180183	-49.8235611164184	-15.592901247874	110.021520386104	-15.5034999731576	110.318157680801	-4.70173819014317	-57.4413777598062	
2130019350	1.14964306509164	-73.4908674499073	-15.2534357511885	65.8466545609024	-15.3342247714709	65.8464520774472	-4.35395776247305	-59.1545284745281	
2160019200	2.77486697257612	-114.425720426945	-10.5903278778193	8.76357130067557	-10.6168689839803	8.23806271201178	-4.72704556215297	-62.3666076833196	
2190019050	-8.03290330710485	76.4993289649369	-9.58869675035714	-109.6770674221	-9.61332527704485	-109.709266399437	-4.26714261351014	-50.0152095414221	
2220018900	-2.14791115287552	-42.474764202276	-14.9767715305696	-171.269000296074	-15.0037616979691	-171.151325712558	-3.83819833838153	-54.6148979198408	
2250018750	0.406257106818224	-67.5497532492495	-15.8729680411953	146.37812608423	-15.8267026356895	146.505728441054	-3.89191771876035	-56.219460612106	
2280018600	1.54449253779873	-94.7855656032793	-12.9574545035208	95.5529345414357	-12.9930690177819	96.6037260991541	-3.18345480964174	-57.0771778828643	
2310018450	-4.46932566418674	-174.53545297646	-8.86761551288299	0.99969528804116	-8.77825397336186	0.46298844592563	-3.37394748883245	-66.3000610138411	
2340018300	-3.97098349274687	-33.4674080525608	-13.7960429814205	-86.7087404228024	-13.7220807711671	-86.7943839371673	-4.05561319448632	-56.8231112207258	
2370018150	0.161078217661392	-63.0074027815502	-15.9953983570024	-133.504911915173	-16.0987557767846	-133.151844901116	-3.60277089612479	-57.1556880758319	
2400018000	2.36494034800382	-87.0545831986526	-13.9014520236671	-176.678583139658	-13.8732597392487	-176.04773054643	-3.6947609979991	-59.7015401110528	
2430017850	-0.0785789048847114	-165.745518774028	-8.3726955116	88.4536692140369	-8.42364341976594	88.5746592737054	-2.91804706059743	-53.8797463415159	
2460017700	-5.92142880485396	-29.3363984308854	-14.470424331485	-3.72084653629156	-14.4917053572251	-3.96120525276528	-2.69585725852879	-61.5535135208856	
2490017550	-1.04976945571923	-57.8135943796326	-17.312149900111	-53.1818312515264	-17.4350584241707	-51.5875890434842	-3.23117916246339	-60.0337234741197	
2520017400	1.16324998858197	-74.3602968422417	-17.1756162374652	-93.134749899817	-17.0282836040331	-92.8703497045783	-3.05796386615486	-59.3258124535466	
2550017250	3.27489952261513	-102.744223660491	-12.3614704796433	-142.058627884325	-12.4699388464038	-142.487768728693	-2.81666503304632	-64.0315233456258	
2580017100	-9.41044139618315	102.860326389904	-10.1263924947383	90.7877308352306	-10.2522432400587	91.0629630774349	-3.1883110996299	-57.5311729644021	
2610016950	-2.49976423833084	-46.7162703577311	-16.8948347682536	27.4786968908458	-16.9361556299252	28.017208692332	-2.4256535232338	-60.5440939689934	
2640016800	0.138877082941112	-67.7265502019375	-17.9546387901663	-11.8098722265598	-17.8493732151961	-12.287962174479	-2.64166178024549	-61.0541861685269	
2670016650	1.83705547417706	-88.0691730946778	-14.6644433053976	-57.6559309712906	-14.539276461814	-57.7892827856872	-2.69481873381286	-59.9323030698531	
2700016500	-0.711127157644931	-140.213256635045	-9.31544014775668	-142.828933098706	-9.26661281912822	-141.476341974833	-1.78987384040046	-66.3625988120381	
2730016350	-5.97853162316655	-43.1418465436717	-13.8971842321248	116.84904095818	-13.8709549430642	117.235304613769	-3.01108693934971	-64.3787754831476	
2760016200	-0.767748686786652	-64.0894460232601	-17.0873212884243	66.8904469851182	-17.1856479998697	66.9675621905985	-2.3258287195724	-61.0235041894877	
2790016050	1.88367113511271	-83.0591018569136	-15.0301141071419	25.1251386264713	-15.0177880943108	26.0586462028569	-2.29406377880643	-62.5469396388885	
2820015900	0.837157548997596	-164.035523818142	-7.45870471122579	-72.4915497349456	-7.39328509016469	-72.2858850779551	-2.57455180779897	-56.4771609959172	
2850015750	-4.80806779557633	-47.4217446599393	-15.5234189637241	-164.634231631318	-15.5958710250123	-164.318812327275	-1.72575484343456	-66.4923498112607	
2880015600	-1.13820294173633	-64.950289834015	-18.3365191170026	153.240143744165	-18.4851290937257	152.375610505407	-2.11444715732009	-67.651175537116	
2910015450	0.68598854058066	-79.5609947012852	-17.272951082954	107.668258274253	-17.3977138196959	107.492956600157	-2.11728526975539	-64.138815541469	
2940015300	3.24210047115962	-114.980031991973	-11.1356371524588	45.2865777707512	-11.2438047928134	45.912470274343	-1.73055721704995	-67.6353250447578	
2970015150	-14.3529150913789	12.6241260999684	-12.3424269005919	-87.1524191786922	-12.3968827317402	-87.5205318007792	-2.42686376527269	-61.9388464995422	
3000015000	-2.09673260624022	-55.804312670028	-19.3248542612112	-135.356031569781	-19.3262020899817	-134.449412852761	-1.6198641217269	-65.7746585097157	
3030014850	-0.0256257411613157	-71.5513911078729	-20.1544451749824	-170.664742673584	-20.208100906525	-170.381882891691	-1.61255391243588	-68.1746477802793	
3060014700	1.6638681787666	-92.7609821353795	-16.1440129755628	141.505865208599	-15.9908614560774	143.152382231847	-1.88697252076627	-67.1815136532961	
3090014550	-2.55560478754721	-155.938382825603	-10.3474113745868	38.2003814489295	-10.2284870901321	37.9093497103934	-1.21696903755407	-68.9336231095493	
3120014400	-4.92770292268637	-58.6920359615028	-16.7610251666324	-49.8207987840242	-16.8727852208621	-49.3789376498714	-2.23269232376459	-69.4027114620407	
3150014250	-1.11368692250581	-67.7445957009594	-19.867667380374	-95.5611381462482	-19.8284349154827	-94.685476226398	-1.82208938665137	-67.5638877786284	
3180014100	0.701228989385025	-81.9396212683589	-18.3922009186623	-131.915938584228	-18.2528117542854	-133.522483103073	-1.36287581292543	-69.1598809552744	
3210013950	1.98384773355055	-150.184271167711	-9.33488174311181	137.543572491054	-9.26888872787897	136.689733722451	-2.09734920734619	-67.8266974943544	
3240013800	-5.15212402505359	-57.7851199427608	-18.452384356216	30.5690142031448	-18.4014262244092	30.6484748828666	-1.2755586557951	-69.5161864426422	
3270013650	-1.34414494961332	-69.0337614541575	-21.2326335549081	-5.79980659456508	-21.3914742298877	-5.28728187731308	-1.65830043685858	-72.9255301079469	
3300013500	0.373127761320219	-80.0098287775278	-19.7007780214798	-47.9743158722478	-19.5715184197592	-48.2027220688201	-2.09612497496259	-73.3170702452938	
3330013350	1.93959922388474	-107.825046183036	-13.9836169221588	-107.272644684669	-13.5702879798313	-105.960844718374	-1.11125102158673	-70.670292387032	
3360013200	-17.4091392602364	-45.9861258957251	-14.9869007718761	113.843150092437	-14.978598173969	114.044279285516	-1.80466508620569	-69.7169227910363	
3390013050	-2.8541194218252	-66.0245675152285	-22.5182412006813	63.5222592115945	-22.602729037994	62.3256222910342	-1.47443856074474	-70.1407847724412	
3420012900	-0.683923914308962	-72.3638704336349	-23.7288944788374	30.8926415626945	-24.0167556800113	32.0455774430522	-1.48923685941951	-74.0291147527529	
3450012750	0.997023467418258	-85.8005835843159	-19.6674394692991	-9.25295637293142	-19.4228102200874	-6.19567014909551	-1.5847441633405	-77.0486395574351	
3480012600	-0.295312383815014	-155.649407138079	-10.6055607636726	-110.497003996243	-10.6318668233461	-109.14802090489	-0.996465031369262	-72.6681827182954	
3510012450	-6.59458571673944	-67.7041957634599	-18.496343649329	155.722909766361	-18.4514790340145	154.369852627728	-1.58159677770665	-75.5813090351202	
3540012300	-2.32208794393147	-72.3702068931942	-22.5665385351019	115.211966021637	-23.2578903150239	115.831776549389	-1.78748223079421	-73.4485092111799	
3570012150	-0.54247095722238	-76.0544680858604	-23.326227004792	79.6299257180983	-23.3197422336394	79.6112142464162	-1.58866239389029	-74.9664192305549	
3600012000	2.0410883044285	-96.5044110696601	-16.4961910529731	-152.44418944341	-16.4274114739114	-152.17681460851	-1.41664045097513	-79.1437715939522	
3630011850	-11.8560765455303	-69.3536208129247	-16.2138525447564	51.9463390103087	-16.2201586536734	52.0884391059415	-1.15587944751629	-75.4544141923365	
3660011700	-3.03158523231514	-74.5658217216817	-20.7277186692143	5.3631697783875	-20.7676246052278	5.02414587181894	-1.16155380125605	-77.8945860603432	
3690011550	-1.11600713879964	-79.9244773270029	-20.2528581127984	-26.2087181563344	-20.3265985187256	-28.9496490003838	-1.69033835668132	-78.0340479650306	
3720011400	0.954873777093314	-95.5213711838231	-16.0462107293596	-75.0300285077662	-15.7050840719294	-76.6146698531423	-1.6074733798759	-77.3761196183457	
3750011250	-12.7595674588159	-113.901021185238	-14.9294977025911	147.526700470062	-15.0399208329044	147.371135639331	-1.94572717768398	-83.074151471377	
