#  HZ   S   DB   R     50.0 
! Rohde & Schwarz ZVL13 2Ports - Version 3.20 - 1303.6509k13 SN: 100953
! Date: 2024-10-09 08:24:47
! Data & Calibration Information:
! Trc1:S11(Cal Off) Trc4:S21(Cal Off) Trc2:S12(Cal Off) Trc3:S22(Cal Off)
! 
! 
! 
 9.000000000000000E3    -1.484650361292089E-2  -6.835098435444302E-1  -8.604549882618822E1   1.589678956129881E2  -6.850967188036718E1  -1.374224639292383E2  -2.541519756234697E1  -2.538864320848168E1  
 3.000895500000000E7    -1.474066647585551   1.725506110015360E2  -4.793459696801281E1  -8.562744016268270E1  -4.685561292524105E1  -8.576745142602260E1  -2.261676800388703E1  -1.327950338316744E2  
 6.000891000000000E7    -2.825025726808764  -5.676345757766543  -4.229971667352852E1   9.405656052841187E1  -4.273439372371811E1   8.680466876616809E1  -2.361156553849929E1   9.343541650820202E1  
 9.000886500000000E7    -3.284751513956584   1.671580642276472E2  -3.857233032801207E1  -8.787003166160820E1  -3.878485569533476E1  -8.342860880082651E1  -2.231041443715193E1  -2.178642239670654E1  
 1.200088200000000E8    -1.924951805547487  -2.184065506070982E1  -3.495015272703439E1   9.492510898764635E1  -3.560584024388125E1   9.562900862168554E1  -2.515281703916860E1  -1.016472140904863E2  
 1.500087750000000E8    -1.186691956507030   1.513173328182937E2  -3.383746418814707E1  -8.672953310927568E1  -3.361565495289633E1  -8.731894844011158E1  -2.501629069775490E1   1.338473501607844E2  
 1.800087300000000E8    -2.002446940760389  -3.015226340661657E1  -3.237601781372501E1   9.104984866591587E1  -3.270144744472417E1   8.957470680760433E1  -2.162193222535409E1   2.070569278315989E1  
 2.100086850000000E8    -3.359959486004115   1.504437407415788E2  -3.213639332283984E1  -8.215135524529642E1  -3.235059847989707E1  -8.455687721295119E1  -2.210328849980144E1  -1.097886237999148E2  
 2.400086400000000E8    -3.802459912891717  -3.041470074608886E1  -3.043465720133585E1   1.017159683841484E2  -3.062761898020444E1   1.032762395333502E2  -1.893288645720494E1   1.205930914432898E2  
 2.700085950000000E8    -2.777232772751134   1.317184054578669E2  -2.877088359648268E1  -7.874492801838976E1  -2.879766030392430E1  -7.935883370051600E1  -1.854242818691168E1   7.618276222127670  
 3.000085500000000E8    -1.627724556878264  -6.087932455178380E1  -2.868876728632072E1   9.444998297233050E1  -2.860403025960416E1   9.592762990943074E1  -1.803095155081854E1  -1.103669985323489E2  
 3.300085050000000E8    -2.604465459530777   1.253735399350203E2  -2.891674481645758E1  -8.181435900109614E1  -2.887010241447707E1  -8.277892625889560E1  -1.932601285019849E1   1.452465504842258E2  
 3.600084600000000E8    -3.899391240612756  -4.900626675457409E1  -2.873451308251236E1   1.057542549628538E2  -2.872135279669609E1   1.046155255248488E2  -2.262153371212094E1   3.146848528517489E1  
 3.900084150000000E8    -4.573797416218598   1.254219134403412E2  -2.747426802678589E1  -7.016802415666007E1  -2.763166171024433E1  -6.952582270872979E1  -1.937435153756562E1  -8.655400109282985E1  
 4.200083700000000E8    -3.062410107997355  -6.958810466407762E1  -2.564814331125190E1   1.092863378185144E2  -2.568494774480437E1   1.099777362521147E2  -1.838529687620033E1   1.758137650573054E2  
 4.500083250000000E8    -2.208383000591685   8.924280396213028E1  -2.677996752402368E1  -8.053180262472077E1  -2.663749972416025E1  -8.056047531374273E1  -1.615161780201427E1   3.926485989509525E1  
 4.800082800000000E8    -2.650191085840191  -7.852597617712443E1  -2.753704410304957E1   1.060896000631529E2  -2.764444480355180E1   1.064518325858644E2  -1.402917083807471E1  -7.039881150931468E1  
 5.100082350000000E8    -3.992000111282289   1.205202588726283E2  -2.731959153370626E1  -6.314674331699813E1  -2.716953120164358E1  -6.277650626005193E1  -1.654246922666067E1   1.760119527917950E2  
 5.400081900000000E8    -4.962118124807260  -6.883100472310328E1  -2.623991079840729E1   1.243198745084746E2  -2.618268380815811E1   1.239827912463779E2  -1.784986721751862E1   5.733099038362953E1  
 5.700081450000000E8    -3.750418310172258   9.365876890829570E1  -2.432980702322643E1  -6.003989708104309E1  -2.442659541423367E1  -5.979669845420970E1  -1.922944746515611E1  -3.002144721572584E1  
 6.000081000000000E8    -2.334950890443571  -1.069219455913655E2  -2.470712515721078E1   1.082986032471429E2  -2.464147743446562E1   1.096569649849679E2  -1.841407047834086E1  -1.494969270349941E2  
 6.300080550000000E8    -3.011412331192269   7.547874504698578E1  -2.673196519140045E1  -6.866759990984993E1  -2.660112205178540E1  -6.742558124592576E1  -1.373911106999563E1   9.275611800546528E1  
 6.600080100000000E8    -3.630021727507413  -7.496446397784762E1  -2.681929797086902E1   1.290621067928143E2  -2.716608667700350E1   1.273096478737646E2  -1.358389533384493E1  -2.817443509621888E1  
 6.900079650000000E8    -5.590205193188231   1.067903271706306E2  -2.500742894631626E1  -4.431828543721629E1  -2.515766719884160E1  -4.287629448856529E1  -1.273473619371153E1  -1.464772788606149E2  
 7.200079200000000E8    -4.360032328310255  -1.049454596487197E2  -2.353677427432830E1   1.325954145237664E2  -2.333771683857204E1   1.330424400411258E2  -1.488930567315953E1   1.111306711904806E2  
 7.500078750000000E8    -2.559356198996899   5.910526761923101E1  -2.383284220458510E1  -5.653191085888513E1  -2.386168003176222E1  -5.727036179276065E1  -1.876995060893730E1   5.712042567264745  
 7.800078300000000E8    -3.330831096653467  -1.223761847146616E2  -2.548914927653772E1   1.208516316516169E2  -2.552646491523092E1   1.206410389010124E2  -1.538347579758058E1  -1.027455666362165E2  
 8.100077850000000E8    -4.366682739188247   8.321972775267005E1  -2.639282332183542E1  -4.447375435475497E1  -2.635919338716311E1  -4.525210934294830E1  -1.434934091010163E1   1.502425798344008E2  
 8.400077400000000E8    -5.487640490007173  -8.977215525785069E1  -2.481010826399440E1   1.424845817842041E2  -2.498235124690232E1   1.423551932133124E2  -1.316746391540521E1   1.592821135752484E1  
 8.700076950000000E8    -5.629614520915509   5.016251585644852E1  -2.258675816638655E1  -4.101791348223769E1  -2.292227643028157E1  -4.122714398778898E1  -1.223234982778696E1  -9.694062688475104E1  
 9.000076500000000E8    -2.791172022677380  -1.481375456416649E2  -2.415124165813637E1   1.270692474290054E2  -2.431912842932778E1   1.266554212127731E2  -1.482434400641906E1   1.534018256572416E2  
 9.300076050000000E8    -3.511859768284217   4.125237758739207E1  -2.543237204430318E1  -5.089558142781726E1  -2.561654631867994E1  -5.197089942270208E1  -1.504510769014046E1   4.279581813725955E1  
 9.600075600000000E8    -5.098536463308506  -1.219239923629304E2  -2.607942058969142E1   1.408357317188271E2  -2.621153689966353E1   1.413886792441887E2  -1.482767882641870E1  -5.665945520750990E1  
 9.900075150000000E8    -5.888628658368266   6.699691727328245E1  -2.524204676783576E1  -3.075755035552805E1  -2.512394526964048E1  -3.023254200057063E1  -1.538465645059374E1  -1.792299028858725E2  
 1.020007470000000E9    -5.983940673973668  -1.459875357321432E2  -2.301928417622806E1   1.449498659921792E2  -2.289382533053491E1   1.442051288353976E2  -1.345189127422370E1   6.912866133594764E1  
 1.050007425000000E9    -3.268698989071877   7.997007682000109  -2.425534744601465E1  -4.618583947714338E1  -2.430276953197285E1  -4.822960811612250E1  -1.345542470853895E1  -4.232850729104632E1  
 1.080007380000000E9    -3.285092972672110  -1.609145828841120E2  -2.638778419952829E1   1.327920965975589E2  -2.623663835732715E1   1.342656675156669E2  -1.288401132646067E1  -1.593634204585673E2  
 1.110007335000000E9    -5.500274696348044   4.396478867466134E1  -2.660959304912098E1  -3.329252027406924E1  -2.650335096297654E1  -3.264468573169857E1  -1.365201191668503E1   9.726093588846628E1  
 1.140007290000000E9    -6.726729426685480  -1.367066313245128E2  -2.598094696966616E1   1.557618410085545E2  -2.582041145350353E1   1.554416225385261E2  -1.651960684185030E1  -2.078798147550259E1  
 1.170007245000000E9    -5.725278135854356   2.508339984522293E1  -2.357343869606698E1  -2.534870906368363E1  -2.353236388468094E1  -2.463335702721728E1  -1.566962640740242E1  -1.386201814688290E2  
 1.200007200000000E9    -3.608581847180248   1.733447877270439E2  -2.391806415363213E1   1.406713206768650E2  -2.393634663343985E1   1.389573932294834E2  -1.537002587314211E1   1.227150844889533E2  
 1.230007155000000E9    -3.753891639133053  -7.093871446641124E-1  -2.620257335010287E1  -4.345396469810210E1  -2.622965247219552E1  -4.121441482234453E1  -1.506260521478565E1   8.144223507190125  
 1.260007110000000E9    -5.231250894019999  -1.553581970612642E2  -2.693507665383260E1   1.488715848453934E2  -2.694919636537879E1   1.490922465379321E2  -1.322982753255541E1  -1.013776798793837E2  
 1.290007065000000E9    -7.606683492124038   2.578521096978678E1  -2.617365758173859E1  -2.024294174707521E1  -2.637806067275616E1  -2.125236742370524E1  -1.422669635995267E1   1.475090962029362E2  
 1.320007020000000E9    -5.829040934962384  -1.770633266734140E2  -2.432021481505569E1   1.587898639101522E2  -2.414597680056412E1   1.581264691866521E2  -1.706933554337827E1   1.949807570319643E1  
 1.350006975000000E9    -3.559749982521897  -1.457679668234763E1  -2.356787867541375E1  -3.143719451584899E1  -2.345087331639450E1  -3.212512046094039E1  -1.835367572508244E1  -8.843904013097924E1  
 1.380006930000000E9    -4.489853228381274   1.546366100996292E2  -2.589870876290836E1   1.383121974019801E2  -2.583804468525974E1   1.378612832156368E2  -1.832681637929561E1  -1.737306441295714E2  
 1.410006885000000E9    -5.422865188822368  -1.053676687247746  -2.681782101918104E1  -3.237686473377611E1  -2.680973900347979E1  -3.172134908947535E1  -1.609020566172151E1   7.318120956262250E1  
 1.440006840000000E9    -8.252559706421287   1.777599412647867E2  -2.639049377923593E1   1.570750492027913E2  -2.631147078373422E1   1.562814471800458E2  -1.384278743255629E1  -3.997824603710769E1  
 1.470006795000000E9    -6.367217716181925  -2.354060473764024E1  -2.469211697370269E1  -2.342278031616879E1  -2.489134128280830E1  -2.436237288870323E1  -1.560588014204761E1  -1.642768624655936E2  
 1.500006750000000E9    -3.279597007975085   1.482969791003658E2  -2.387181816322037E1   1.502332985191919E2  -2.400022808464605E1   1.516045902122505E2  -1.757784514008083E1   7.765263333472716E1  
 1.530006705000000E9    -5.276028086995775  -4.296861706016080E1  -2.549133140761135E1  -3.897185883520785E1  -2.552131290919789E1  -4.099637492159475E1  -2.327748285048353E1  -2.569898749848990E1  
 1.560006660000000E9    -6.981378340455196   1.431158859617508E2  -2.674654651992296E1   1.465697923729077E2  -2.676743704062999E1   1.440360099104338E2  -2.561601477795897E1  -1.187218204593494E2  
 1.590006615000000E9    -8.268452136776338  -3.733999332541490E1  -2.688455051742695E1  -2.568048751692669E1  -2.694862089424319E1  -2.512983335579148E1  -1.799709343875464E1   1.408365709609264E2  
 1.620006570000000E9    -6.578076016741572   1.252273749635035E2  -2.567003489816296E1   1.521305225371670E2  -2.588358566073993E1   1.536178222774575E2  -1.699569567461748E1   3.147760338983440E1  
 1.650006525000000E9    -3.417275328566605  -5.228629826464497E1  -2.461606727962813E1  -3.269755404685191E1  -2.465061419727125E1  -3.282583684343109E1  -1.884631412563217E1  -1.034638071041894E2  
 1.680006480000000E9    -5.864877216059167   1.160982133807585E2  -2.530021405493137E1   1.386863434173896E2  -2.564947245385133E1   1.398969016692890E2  -2.016495137872981E1   1.579928267110503E2  
 1.710006435000000E9    -8.873744180166273  -7.015980609297641E1  -2.707457195015431E1  -3.859421206345570E1  -2.724414283930948E1  -3.986117424185733E1  -2.682008464861098E1   1.149959694676486E2  
 1.740006390000000E9    -7.664259925706486   1.067382762196593E2  -2.802860982781988E1   1.523718229687517E2  -2.783619787155731E1   1.515226820452287E2  -2.909942062547640E1  -2.775957898041688E1  
 1.770006345000000E9    -6.721202175341541  -7.194156440647684E1  -2.692387986639737E1  -1.938711925997617E1  -2.702474955433074E1  -2.183295514672868E1  -1.942755364325991E1  -1.295537331608764E2  
 1.800006300000000E9    -3.539522592253605   1.167550182312063E2  -2.537860002003881E1   1.559829920940811E2  -2.550940564790185E1   1.561252407042275E2  -2.000736264113984E1   1.237671648691939E2  
 1.830006255000000E9    -5.665507369627473  -7.363554697705128E1  -2.524987586060156E1  -3.526007496621272E1  -2.527481308016645E1  -3.499389251371038E1  -1.950984708166630E1  -4.039680987334177  
 1.860006210000000E9    -1.078438796580405E1   7.423805746223327E1  -2.718916977804702E1   1.380702637966580E2  -2.706521849875725E1   1.383469374229319E2  -1.964062216542911E1  -8.246801754825755E1  
 1.890006165000000E9    -7.094926314384866  -1.069544373290476E2  -2.877774525929989E1  -3.286195884485409E1  -2.872147266862634E1  -2.977563582209113E1  -2.409103568946737E1  -1.710836378421327E2  
 1.920006120000000E9    -6.294400508446302   9.072826806789206E1  -2.858389723119102E1   1.607687351638619E2  -2.890890829296714E1   1.640596786084728E2  -1.925741887923441E1   6.705068772898927E1  
 1.950006075000000E9    -3.805738711318545  -6.895166305273470E1  -2.669136216304899E1  -1.231794953917035E1  -2.627113076065970E1  -1.226466252036531E1  -1.728674090077035E1  -2.199389763393410E1  
 1.980006030000000E9    -5.226788702782977   9.613551274648540E1  -2.508445186520008E1   1.525117059202136E2  -2.484619245598083E1   1.543551804423650E2  -1.685674535234573E1  -1.595786330143917E2  
 2.010005985000000E9    -1.285350396023467E1  -1.506117740493667E2  -2.727128067480364E1  -4.257453817588873E1  -2.699541672864307E1  -4.246149059399039E1  -1.316133968757676E1   9.084920307177958E1  
 2.040005940000000E9    -6.592326310268387   3.878199964024703E1  -2.940532115154645E1   1.485571782078470E2  -2.980927209127002E1   1.469579590141672E2  -1.568907410773283E1  -8.769643661855289  
 2.070005895000000E9    -5.566873278847161  -1.135301400451352E2  -2.989681262289276E1  -1.245237607268491E1  -3.027161514253776E1  -1.454462200993445E1  -1.537656600629388E1  -1.393338788505508E2  
 2.100005850000000E9    -4.045643891988250   1.018822416409378E2  -2.794013825355515E1   1.747870702067598E2  -2.768718323002434E1   1.764821787647817E2  -1.309042245065115E1   1.357758424278662E2  
 2.130005805000000E9    -5.568405106003062  -1.037715561339562E2  -2.532968247109823E1  -2.498815761237396E1  -2.535390799115816E1  -2.361831124875098E1  -1.428692956312872E1   2.799098780018180E1  
 2.160005760000000E9    -1.211849223804467E1  -1.578542765477397E1  -2.818673224973594E1   1.392024190532237E2  -2.826914026259160E1   1.360667867446950E2  -1.070120732263674E1  -9.975231633004161E1  
 2.190005715000000E9    -6.832227859598553   1.797981317550500E2  -3.112331186490152E1  -3.179431228085538E1  -3.185097418661198E1  -3.280395086626553E1  -9.987783921283020   1.598943355183251E2  
 2.220005670000000E9    -4.333318634845014   3.619147282106516E1  -3.249248886652246E1   1.671591495965106E2  -3.230751408074676E1   1.700243811394502E2  -1.168251771226829E1   3.485178219566403E1  
 2.250005625000000E9    -3.925207279839819  -8.980808171458092E1  -3.048101923622026E1   4.209302190060543  -3.015220412499099E1   6.509464608439236  -1.063173003148252E1  -7.147570825328585E1  
 2.280005580000000E9    -6.226668911035953   6.593326406441209E1  -2.620486673167355E1   1.651847628159882E2  -2.633645220893778E1   1.646805256722150E2  -1.198063684887962E1  -1.651544069428007E2  
 2.310005535000000E9    -1.027800219818872E1   1.220214451439636E2  -3.033095417753678E1  -4.469929903211249E1  -3.068356944676766E1  -4.487211625749937E1  -1.121073226543745E1   6.486750134507750E1  
 2.340005490000000E9    -6.801844340537321  -3.326672205076925E1  -3.479572751464840E1   1.504668721474808E2  -3.467811200060602E1   1.494794434467077E2  -8.231441864878551  -4.131491059150726E1  
 2.370005445000000E9    -4.111212802419494  -1.738142597224475E2  -3.709555678916721E1  -1.252420776001127E1  -3.655735070428503E1  -1.444995297890146E1  -9.153452821291257  -1.550689058341177E2  
 2.400005400000000E9    -3.464680029496774   7.260751992825290E1  -3.467686197098196E1  -1.614945595131760E2  -3.543212519064860E1  -1.587799453765507E2  -7.596785227000325   8.656895256456610E1  
 2.430005355000000E9    -6.082742604970564  -1.031824211049812E2  -2.852228825481677E1   5.609473786149981  -2.875337598293978E1   8.262395964729240  -8.170398011481826  -1.073198015975901E1  
 2.460005310000000E9    -7.653390243206283  -8.603613886251068E1  -3.288056458946507E1   1.426392027927211E2  -3.213606459229412E1   1.422325666047896E2  -9.867177966521663  -1.301309155911483E2  
 2.490005265000000E9    -6.550779301558515   1.308318396917242E2  -3.723043715547397E1  -1.884472530626964E1  -3.722675150544622E1  -1.829276982020426E1  -7.836794855117922   1.197702043121927E2  
 2.520005220000000E9    -4.148756657729011  -1.494111721148718E1  -3.857282539452618E1   1.730396533747040E2  -4.052443429251100E1  -1.776274648536652E2  -8.226591201341748   1.262212871651094E1  
 2.550005175000000E9    -3.738419758046108  -1.351299199183057E2  -3.883589153566499E1   2.845558361491240E1  -3.996314820340803E1   2.150426634783825E1  -7.385832079487628  -1.140607669790163E2  
 2.580005130000000E9    -4.532948693279939   7.282400969253412E1  -3.427538525945841E1  -1.518053994858440E2  -3.430652607709255E1  -1.495797048551953E2  -5.819159534247827   1.453033943659015E2  
 2.610005085000000E9    -6.266965307564071   5.654871430630838E1  -3.711975463280997E1  -2.718342769246214E1  -3.848696785459061E1  -2.452586333703736E1  -7.502452696379078   3.352723129416994E1  
 2.640005040000000E9    -4.922712373562248  -7.009732318706946E1  -4.126160743675520E1   1.569009572106525E2  -4.273876785981278E1   1.603174977723897E2  -6.680120909510984  -8.828011041476773E1  
 2.670004995000000E9    -4.197615250059412   1.560861676842101E2  -4.486857652217690E1   2.469384030591004E1  -4.477952372202540E1   1.256776541816458E1  -6.364416602385987   1.771597762049904E2  
 2.700004950000000E9    -3.889625684487347   2.954137362606288E1  -4.437837194049421E1  -1.345995151770509E2  -4.196955198386093E1  -1.352004878353891E2  -8.151971571885770   5.574714686022608E1  
 2.730004905000000E9    -4.717528998895060  -1.286061525282389E2  -4.386209027702553E1   7.482227078154443E1  -4.325449188651439E1   5.638957243160990E1  -5.631266352096919  -5.950363194068370E1  
 2.760004860000000E9    -6.086329765207395  -1.591051424541125E2  -4.717096756501637E1   1.514682622585975E2  -6.294231413676398E1  -1.497780402422758E2  -5.504735615525062  -1.597340280973976E2  
 2.790004815000000E9    -4.484124450880485   7.951774239435012E1  -5.249582032768549E1  -2.010749210408634E1  -5.642779322913061E1  -1.974117300472039E1  -6.254881784421951   7.540008633320979E1  
 2.820004770000000E9    -3.588077673417072  -4.056669320034060E1  -5.549399738467943E1  -1.380965844597030E2  -5.967452237047852E1  -1.735527576334229E2  -4.819822701841026  -2.851602623293498E1  
 2.850004725000000E9    -3.726743891687322  -1.522738741442273E2  -5.073246387667760E1   5.764640432118103E1  -5.103092660299494E1   9.427398704937508E1  -6.979213729592996  -1.375488713385572E2  
 2.880004680000000E9    -5.008483258055777   4.650320214008469E1  -4.880980398524709E1  -4.291369820743722E1  -5.019280399625932E1  -3.911113432389384E1  -6.588742398233478   1.005363468364160E2  
 2.910004635000000E9    -7.442310656740168   3.130695999467604  -4.732708271348847E1   1.295686081964212E2  -4.974066766869018E1   1.343544194889419E2  -5.139653294899216   3.467629364288000  
 2.940004590000000E9    -5.236318452547129  -1.345070594894568E2  -5.860051591835017E1   2.140861987965744  -4.903369208748633E1  -4.382350203187395E1  -6.872184535600438  -1.205634664684299E2  
