#  HZ   S   DB   R     50.0 
! Rohde & Schwarz ZVL13 2Ports - Version 3.20 - 1303.6509k13 SN: 100953
! Date: 2024-10-09 08:25:40
! Data & Calibration Information:
! Trc1:S11(Cal Off) Trc4:S21(Cal Off) Trc2:S12(Cal Off) Trc3:S22(Cal Off)
! 
! 
! 
 9.000000000000000E3    -5.273821135871400E-3  -6.813243916432348E-1  -7.616149645133636E1   1.755022780133510E2  -7.519153059860341E1  -1.666639945374751E2  -3.346768991440002E-2  -7.820793125912623E-1  
 3.000895500000000E7    -1.583094599075336   1.707031105249511E2  -5.897587943385043E1   9.302545861941054E1  -5.718847663188360E1  -5.853422383615953E1  -1.239673958656988  -1.718897958603586E2  
 6.000891000000000E7    -2.791473690439963  -1.067483921239967E1  -6.324433142710586E1   9.112244355271099E1  -5.861475203288800E1   8.963003150225600E1  -2.286832882398111   2.375996551787336E1  
 9.000886500000000E7    -3.178581119015153   1.596977125084263E2  -6.398165847771126E1  -1.542402298318612E2  -6.345370578458313E1   5.121002296237877E1  -3.308625333432516  -1.390934919833498E2  
 1.200088200000000E8    -1.755191379986322  -3.102609685089117E1  -6.068706554432868E1   1.315795141096088E2  -6.007023990159235E1   3.696903603360386E1  -3.204487828707074   4.646179690585917E1  
 1.500087750000000E8    -1.175711703291548   1.410994791574008E2  -5.607694599144362E1  -7.833880036573915E1  -5.581587868748333E1  -5.504259901197748E1  -2.275257006868913  -1.218693797724869E2  
 1.800087300000000E8    -2.285481519334519  -4.268427885835804E1  -6.004886787482750E1   1.486701356080045E2  -5.683353730287258E1   9.355730483649863E1  -1.219854410499863   6.613428581367708E1  
 2.100086850000000E8    -3.519236653226305   1.372867818787769E2  -5.620243018928012E1  -1.237829957257230E2  -5.374256160777721E1  -9.110585915660590E1  -1.385260473205411  -1.038214485822978E2  
 2.400086400000000E8    -3.637524655918250  -5.019452460509871E1  -5.178422310298119E1   1.036043336789888E2  -5.518985176257191E1   7.183551394859754E1  -2.207057388550151   9.574443233211346E1  
 2.700085950000000E8    -2.348061094180231   1.075005875994789E2  -5.595930729481839E1  -3.812120747424855E1  -5.361027587822180E1  -5.775328208538730E1  -3.232373445166411  -6.030786590762773E1  
 3.000085500000000E8    -1.814908361314431  -7.994938434457032E1  -5.590161963049270E1   1.322985185239513E2  -5.490215049078653E1   1.059827955089231E2  -4.092389870187165   1.363230325616186E2  
 3.300085050000000E8    -3.083838314869387   1.047248827286879E2  -5.011648113798148E1  -6.679723375608539E1  -5.444519669917007E1  -3.500627414912418E1  -3.810531471116098  -4.312732916561165E1  
 3.600084600000000E8    -4.263496412905353  -7.286261403605452E1  -5.430333463608940E1   1.165065988375717E2  -5.100855721219969E1   1.224868283378193E2  -2.381535446809064   1.428353262867934E2  
 3.900084150000000E8    -4.056674464182403   9.358214878957331E1  -5.152536318756529E1  -7.884410597819074E1  -5.422410787085749E1  -7.145728352830798E1  -1.806751176158308  -3.584737607854662E1  
 4.200083700000000E8    -2.533248696696806  -1.072647679736157E2  -5.064803800976921E1   1.318658458323127E2  -5.005144907962730E1   1.133888182371601E2  -2.373820349143971   1.642637785865693E2  
 4.500083250000000E8    -2.238722431001510   6.394827017120194E1  -4.906104048590530E1  -6.593378691820652E1  -5.208044352499620E1  -5.867552239591124E1  -3.040949168014850   9.626531396950664  
 4.800082800000000E8    -3.115388838774036  -1.013545067756138E2  -4.972479411763082E1   1.398381427639827E2  -5.448441862602620E1   1.312830548792191E2  -3.921663939499295  -1.381636293918254E2  
 5.100082350000000E8    -4.668577024575018   8.987031647249374E1  -5.182768991381203E1  -1.783262619901138E1  -5.038781202797900E1  -4.210972771718891E1  -4.855314912558564   4.816673928081029E1  
 5.400081900000000E8    -4.389366840229918  -1.151499154195026E2  -4.538127197267350E1   1.557373523868262E2  -4.643708686829564E1   1.604067765911593E2  -3.895875992294835  -1.351925646729807E2  
 5.700081450000000E8    -2.609677168186336   4.299659754217151E1  -4.524027065862497E1  -3.274631459008896E1  -4.720836920356155E1  -5.078768684799453E1  -2.160949396393704   4.150477179282600E1  
 6.000081000000000E8    -2.708839485439505  -1.438474415331846E2  -5.093423838231601E1   1.336288054552080E2  -5.010123221373035E1   1.253526302375785E2  -2.521175325107671  -1.285578562662763E2  
 6.300080550000000E8    -3.543969659133799   4.616912291609885E1  -5.386109210896385E1  -3.419942968414937E1  -5.160837257909989E1  -2.259360837744271E1  -3.019599262451885   7.861341950244807E1  
 6.600080100000000E8    -4.785728083622292  -1.107306847033560E2  -4.822790330362769E1   1.702081788000040E2  -5.073437874347219E1   1.540590818143950E2  -3.761798729518653  -6.784855288141078E1  
 6.900079650000000E8    -5.423220092258820   3.808365040770375E1  -4.696807094957703E1  -1.083766522225377E1  -4.851419050767001E1  -1.525433554944968E1  -4.672598104907803   1.397123757557124E2  
 7.200079200000000E8    -2.867086319807182  -1.745657581462673E2  -4.323902830590639E1   1.672037533252750E2  -4.379158129087110E1   1.564594555176540E2  -5.876815779110642  -4.500096234507026E1  
 7.500078750000000E8    -3.078176810236521   9.270858620680604  -4.563348018519463E1  -2.315248078608615E1  -4.497332799164078E1  -2.076111581050103E1  -3.503476721604267   1.250270052398712E2  
 7.800078300000000E8    -4.087470118713302  -1.627987254714207E2  -5.165362729107462E1   1.605876523919407E2  -4.709918249637671E1   1.590076025851044E2  -2.385770670526024  -5.752676338818114E1  
 8.100077850000000E8    -5.578566230264454   3.361218098748471E1  -4.948043756998820E1   1.434530608242813  -4.942476890431442E1  -5.817830044026207  -2.977231307557088   1.484560663560788E2  
 8.400077400000000E8    -5.687847884584799  -1.786719519547183E2  -4.930755841575938E1   1.692552431810798E2  -4.808563380975581E1   1.601481268394650E2  -3.598900711933628  -2.678719075418588  
 8.700076950000000E8    -2.901671240893443  -3.877565475881882E1  -4.556095327077780E1  -2.605607971073454  -4.559517442941841E1  -1.382068668924483E1  -4.387337912848550  -1.419227061083371E2  
 9.000076500000000E8    -3.371170944313021   1.606401817829519E2  -4.678359853662042E1   1.764115391042902E2  -4.500567329417030E1  -1.654059613033172E2  -6.009769295794405   5.152067525598920E1  
 9.300076050000000E8    -4.936387404526148  -7.063646631862850  -4.542628774912105E1   8.147602939724036  -4.579421816585165E1   1.450594031158654E1  -5.539591338554008  -1.388626988325015E2  
 9.600075600000000E8    -6.297980880808543   1.764977803658501E2  -4.449845911694273E1  -1.676194138080041E2  -4.605586319677488E1  -1.694403797013343E2  -3.037486132419734   2.456780296911972E1  
 9.900075150000000E8    -5.539294135210527  -2.944974069914541E1  -4.356824685204404E1   1.292907061911023  -4.346363984279461E1   6.256545148997014  -2.852536830397120  -1.438581083987010E2  
 1.020007470000000E9    -3.286842701864762   1.113963124964677E2  -4.405421312855003E1   1.789623906775661E2  -4.490628252192325E1  -1.755216987259403E2  -3.401345710069712   6.515201408238258E1  
 1.050007425000000E9    -3.482373721770756  -5.007049689581101E1  -4.811296583078251E1   8.996179946803069  -4.820157300216116E1   1.036083101201827E1  -4.108887399012544  -7.600733552719234E1  
 1.080007380000000E9    -5.140045138359254   1.524906334537790E2  -4.718337317974897E1  -1.414692499390357E2  -4.774649025623555E1  -1.331282128160856E2  -5.463060159063505   1.341132644720676E2  
 1.110007335000000E9    -7.318286780981233  -3.206906746546891E1  -4.311215741466010E1   4.862555435313124E1  -4.386309581116105E1   4.247883913590758E1  -7.008879314619924  -4.470650335496458E1  
 1.140007290000000E9    -5.099547972208926   1.202357818681214E2  -4.293461707028487E1  -1.419213961321722E2  -4.221556477888572E1  -1.362337164203529E2  -4.579881432686577   1.199172349025770E2  
 1.170007245000000E9    -3.415144177402289  -9.156387548915149E1  -4.117234510949346E1   9.751598491544291  -4.153172820152955E1   1.233288353135006E1  -2.933560354079029  -6.816527580552207E1  
 1.200007200000000E9    -3.997438699704475   9.663604368595345E1  -4.327082124098929E1  -1.582894502722905E2  -4.416937819090880E1  -1.607684470944982E2  -3.336072065380929   1.350222017795619E2  
 1.230007155000000E9    -5.500730540771725  -5.920846583388493E1  -4.500442997519213E1   3.476418867834734E1  -4.580007949717659E1   3.469614175476434E1  -3.975775633500290  -1.452761579935256E1  
 1.260007110000000E9    -7.808416645215438   1.135880195783758E2  -4.541017123716185E1  -1.078086584692973E2  -4.443142808973750E1  -1.270268833567972E2  -5.301551232418949  -1.561302868120717E2  
 1.290007065000000E9    -4.609100935840852  -1.022689804152120E2  -4.277485189585162E1   6.025199710916709E1  -4.265710257329938E1   6.190322779169802E1  -7.386469206065503   3.835388139312019E1  
 1.320007020000000E9    -3.902862553689977   6.137623421471467E1  -4.113691647587367E1  -1.324139402029196E2  -4.082046259657761E1  -1.291635041281754E2  -6.496311085955627  -1.448723814211500E2  
 1.350006975000000E9    -5.097497367687184  -1.175957270739243E2  -4.191052819379529E1   3.017080375029676E1  -4.113872432014870E1   3.979765532619509E1  -4.167498256514324   2.046505420860798E1  
 1.380006930000000E9    -6.607083716576118   7.938164052335868E1  -4.294849103175561E1  -1.274422318418173E2  -4.291935140723951E1  -1.333511627593870E2  -3.006235299535189  -1.497494826440418E2  
 1.410006885000000E9    -8.357315820374618  -1.106803025132625E2  -4.333026807337380E1   4.793311367948800E1  -4.286190004442306E1   5.371856833973992E1  -4.247964285039616   5.462585278439912E1  
 1.440006840000000E9    -4.429989661867312   4.192623826784458E1  -4.406272237133224E1  -1.201778849635255E2  -4.322915181270228E1  -1.175756896748893E2  -5.199501760345486  -8.912006852438253E1  
 1.470006795000000E9    -3.974312681739195  -1.466597925682599E2  -4.454444372945692E1   6.563344802975784E1  -4.309102629986798E1   5.667061522697551E1  -7.519772494507714   1.103749540915574E2  
 1.500006750000000E9    -6.372324954788639   3.770788200094194E1  -4.353417917461908E1  -1.149629528389692E2  -4.392633304427807E1  -1.116446078398045E2  -8.100803260876507  -6.447768683743887E1  
 1.530006705000000E9    -7.702475696243615  -1.439904129357474E2  -4.150992657413678E1   7.788942050016297E1  -4.065483889175020E1   8.170443726254911E1  -5.753332477582946   1.148094851762964E2  
 1.560006660000000E9    -7.726124042588120   3.205578006384147E1  -4.090563544623476E1  -9.089362028723431E1  -3.998302190750620E1  -9.224192414238304E1  -3.673202528904326  -6.452700969810853E1  
 1.590006615000000E9    -4.497811914611999  -1.628470744233824E2  -3.964375686191743E1   8.136671774052222E1  -3.927561122343336E1   9.270140116979812E1  -3.709225434209929   1.300540381244605E2  
 1.620006570000000E9    -3.977750625829497   1.278251374639209E1  -4.214187723559052E1  -9.782012424590243E1  -3.966460508233247E1  -1.008628511661739E2  -5.537252246101092  -2.500101284537523E1  
 1.650006525000000E9    -7.581307037207663  -1.698206580861635E2  -4.251725034059395E1   8.909458080444676E1  -4.434376086085554E1   8.619969660198488E1  -7.478306535393821   1.769024605192473E2  
 1.680006480000000E9    -8.412423369873508   7.099719076285087E-1  -4.475534891385319E1  -8.340435357072448E1  -4.552954524725038E1  -9.006765965731931E1  -9.352320343347801   1.926509483306111  
 1.710006435000000E9    -7.192388859766097   1.783719078059004E2  -4.179927549353265E1   1.060660651551970E2  -4.252238910249076E1   1.059362954553824E2  -6.468685170622812  -1.681716475512964E2  
 1.740006390000000E9    -4.420199827950881   4.410449734196785  -3.857085525806097E1  -6.796501511319710E1  -3.870527974375749E1  -6.725566675771312E1  -5.010431939464673   2.347941082872386E1  
 1.770006345000000E9    -4.128370694716899   1.683404316333287E2  -3.760715827548366E1   9.916096048979723E1  -3.727477478608945E1   9.873282282763469E1  -3.138670698338819  -1.456244509627505E2  
 1.800006300000000E9    -9.402287440391133  -2.544295088280954E1  -4.009381209805228E1  -8.937320757278114E1  -4.082822138214129E1  -9.243343319860574E1  -5.344861680459396   4.624021406471817E1  
 1.830006255000000E9    -8.706028915890819   1.320092684102190E2  -4.177620084903412E1   9.471741067736255E1  -4.258827769091808E1   8.691449431417458E1  -7.908462865333828  -1.192035691163997E2  
 1.860006210000000E9    -5.723904711908099  -4.129273140107894E1  -4.289512482321725E1  -7.471337942916148E1  -4.242063882585985E1  -7.403138816221150E1  -9.818695281591436   5.345968142308732E1  
 1.890006165000000E9    -4.304983500626695   1.610904185589479E2  -4.007226899008788E1   1.210793136850342E2  -4.337482729806808E1   1.098594559387539E2  -7.522096888066268  -1.050747311166462E2  
 1.920006120000000E9    -5.176494284928734  -4.206365992045073E1  -3.859513444116438E1  -5.792063901343753E1  -3.873559635224560E1  -6.128595254443532E1  -5.659799340419585   9.929288797046564E1  
 1.950006075000000E9    -1.046540523219175E1   8.580000790938813E1  -4.002220949720933E1   1.214067397414291E2  -4.007978083169707E1   1.149385218977505E2  -3.867589720730951  -5.371648105736660E1  
 1.980006030000000E9    -8.709326674064908  -9.782404388226566E1  -4.238870566821715E1  -6.490798649971841E1  -4.195447736771430E1  -6.174932022670037E1  -4.083050091277856   1.332734879734115E2  
 2.010005985000000E9    -4.563156389314973   1.016049419958593E2  -4.297267240043262E1   1.086700485914553E2  -4.146152749621390E1   1.088834480459241E2  -8.580767398479198  -4.535085575914475E1  
 2.040005940000000E9    -4.386049645718646  -4.404984893468679E1  -4.257083138045455E1  -5.386737467749478E1  -4.188794830605384E1  -6.274128997619603E1  -9.798575946367283   1.080997435759982E2  
 2.070005895000000E9    -7.780061036048781   1.031703240428635E2  -3.955174603825389E1   1.103291191106591E2  -4.042395321430013E1   1.104689852127874E2  -8.975741790699544  -6.152605265626126E1  
 2.100005850000000E9    -8.694139534504910  -1.526946532577582E2  -4.386122325269729E1  -6.602565856732954E1  -4.529645471985138E1  -6.888568379278425E1  -5.340112153048455   1.563579008307275E2  
 2.130005805000000E9    -7.771579968136691   4.482933125457703E1  -4.375878809706302E1   1.403927757375221E2  -4.456183150481507E1   1.264906463108615E2  -4.865134268591815   1.789209755609415E1  
 2.160005760000000E9    -4.270865692595152  -1.061247184475746E2  -4.440486360125097E1  -2.001888444928182E1  -4.567631677351280E1  -2.270534243911176E1  -3.245213485158126  -1.319470143096349E2  
 2.190005715000000E9    -4.320849447621407   1.082526533795374E2  -3.962143148852120E1   1.684143295630594E2  -3.966843252610862E1   1.678772341061294E2  -7.073296150944527   5.397545956708503E1  
 2.220005670000000E9    -1.022981363409847E1  -9.355477829559825E1  -3.714108539356899E1  -6.229258806851693E1  -3.745312038530803E1  -6.985862091811814E1  -1.219104541595815E1   1.758173365679583E2  
 2.250005625000000E9    -6.919417830056477  -1.769594352526415E1  -4.403890263500288E1   1.115409022332507E2  -4.501313070633096E1   1.031204774168577E2  -7.855692045743275  -1.780448377331526E1  
 2.280005580000000E9    -6.648368428691165  -1.683414542540856E2  -4.727840273946737E1  -5.349262002615377E1  -4.954516894457673E1  -6.637648005243202E1  -6.026385282860794  -1.451810732347005E2  
 2.310005535000000E9    -4.034458923354767   5.274502091219415E1  -4.463653945935820E1   1.798350228982353E2  -4.615398347287290E1   1.711564149671933E2  -5.290309202748947   7.201905355676512E1  
 2.340005490000000E9    -4.499355371622340  -9.967110419546734E1  -4.222160976886436E1   1.812564538398466E1  -4.144451889927785E1   1.316346552174060E1  -3.595745728362817  -5.561618376644869E1  
 2.370005445000000E9    -1.778272294966949E1   5.127552522399017E1  -3.569316999202379E1   1.621463606291105E2  -3.452998284259059E1   1.574858532531148E2  -4.326507191570938   1.542688275692241E2  
 2.400005400000000E9    -5.727866279692465   1.156117153012695E2  -3.968258365666227E1  -7.058740540039004E1  -3.962796356711474E1  -6.824115905152779E1  -1.567733332230100E1  -5.618465993876096E1  
 2.430005355000000E9    -4.879041673974551  -1.847886928401397E1  -4.673179269370444E1   1.424361885757592E2  -4.600395890571917E1   1.135988010771040E2  -7.356689666933292   3.638814529651011E1  
 2.460005310000000E9    -3.761444596908090  -1.398449496348188E2  -5.022677270454763E1  -2.257305094989581E1  -5.133300445494401E1  -4.817323112908193E1  -6.684266609037147  -1.025764961994096E2  
 2.490005265000000E9    -4.897301116644217   5.985969996510758E1  -4.422387567562937E1  -1.704848890466626E2  -4.470802167558981E1  -1.578833937331245E2  -4.563209105154575   1.287598470338724E2  
 2.520005220000000E9    -2.111593515886103E1   6.749559456822759E1  -4.227998784372591E1  -1.555670618395102E1  -4.222625218706694E1  -9.502288548144472  -4.395910344606691   8.720876083583129  
 2.550005175000000E9    -5.557943679487949  -1.010713726182939E2  -4.641747280728151E1   1.728413932098781E2  -4.487112276586728E1   1.602765241623319E2  -3.839745957991569  -1.290822580963555E2  
 2.580005130000000E9    -4.293935548065914   1.254744518376352E2  -4.157330358721232E1   1.081608163179546E1  -4.198983232019049E1   1.631449525099828E1  -5.224199432170151   8.865895567528149E1  
 2.610005085000000E9    -3.102195417679720   1.882281025573536E1  -4.313329224856160E1   1.700476463025465E2  -4.546107209754728E1  -1.683595669730118E2  -1.088423985519872E1   9.925555427098743E1  
 2.640005040000000E9    -5.103003526328451  -1.247999247930521E2  -4.286326858563368E1   1.847058784849914E1  -4.147803241094583E1   1.796151623783906E1  -5.951230200155335  -6.273887048864268E1  
 2.670004995000000E9    -1.117822217932496E1  -1.553809359617612E2  -4.581511439935527E1   1.194282122483890E2  -4.534877861139641E1   1.272232752296161E2  -4.075388571309471  -1.726432112627089E2  
 2.700004950000000E9    -5.343173745748151   6.027061818655924E1  -4.532451874638583E1  -2.000674639484222E1  -6.047872690640155E1  -3.685088303242704E1  -5.260969541002411   5.866202817905685E1  
 2.730004905000000E9    -4.525673327129726  -8.424658147361365E1  -4.804010603644344E1  -1.552487313256866E2  -4.933180202470253E1  -1.409564699100557E2  -3.422812751149543  -6.374422814525097E1  
 2.760004860000000E9    -3.120399636126995   1.705145800673864E2  -4.349338560082863E1   9.215634348578888E1  -4.348659840631070E1   8.875119757741504E1  -3.774399791904620   1.769803329455740E2  
 2.790004815000000E9    -4.691928248212884   3.868997028719902E1  -3.283789238431478E1  -1.099929726354563E2  -3.227403085917464E1  -1.114831211379357E2  -1.170941576722399E1  -8.934372060836557  
 2.820004770000000E9    -6.907478536695709  -1.372539224118754E1  -3.994950316298609E1  -3.500118096187927E1  -3.988603624565926E1  -3.578709802172588E1  -5.340432880112068  -2.728674615884366  
 2.850004725000000E9    -4.185659799370701  -1.323219170163301E2  -4.785476871283861E1  -1.658815725090639E2  -5.192890170706559E1   1.254161129906126E2  -5.076349509947231  -1.214928313428457E2  
 2.880004680000000E9    -5.127221450280093   8.499586395930527E1  -5.021136160188656E1   3.967004404878554E1  -5.485239336761610E1   9.625125449882255  -4.502072805961142   1.079010647874101E2  
 2.910004635000000E9    -3.265505995204568  -3.689870816662158E1  -4.712452331304726E1  -1.051334132029536E2  -5.203738779479023E1  -1.081269371660182E2  -3.329858547305354   8.050591552405814E-1  
 2.940004590000000E9    -6.471734192442605   1.753241182505890E2  -4.033741976973251E1   9.806426008876265E1  -3.917214115987231E1   9.400803374706641E1  -5.043075265269936  -1.298959245376680E2  
