#  HZ   S   DB   R     50.0 
! Rohde & Schwarz ZVL13 2Ports - Version 3.20 - 1303.6509k13 SN: 100953
! Date: 2024-10-09 08:19:45
! Data & Calibration Information:
! Trc1:S11(Cal Off) Trc4:S21(Cal Off) Trc2:S12(Cal Off) Trc3:S22(Cal Off)
! 
! 
! 
 9.000000000000000E3    -1.337019517486387E-3  -7.276318516736201E-1  -6.963746614850814E1  -8.320552190891343E1  -7.399329136157425E1  -1.422621139348264E2  -1.257522940352403E1  -5.557804443014859  
 3.000895500000000E7    -1.669095430560760   1.684345858018645E2  -2.647479453844222E1  -9.757744462547362E1  -2.665604378085419E1  -9.711819453340476E1  -1.368857546696449E1  -1.757282597914655E2  
 6.000891000000000E7    -3.105499842401549  -1.464218042562663E1  -2.178226610636613E1   8.714642388561894E1  -2.179971183107989E1   8.745648473144735E1  -1.644667726708778E1   8.197756458548042  
 9.000886500000000E7    -3.387592845439242   1.520175796805590E2  -1.829038780838951E1  -8.830962053389001E1  -1.811239693774563E1  -8.845037493724546E1  -2.395009360034145E1   1.514787947521107E2  
 1.200088200000000E8    -2.003517347343000  -4.118596017218711E1  -1.599866136344061E1   9.217255663636925E1  -1.609282880433982E1   9.196608684304543E1  -1.569656274990389E1  -5.103240271055475E1  
 1.500087750000000E8    -1.762414000065613   1.299882077783992E2  -1.479028865155090E1  -8.964480980464542E1  -1.478276331866188E1  -8.908934745319145E1  -1.512614189777882E1   1.391840188155230E2  
 1.800087300000000E8    -3.350207661717100  -5.481428194422825E1  -1.473702520608380E1   9.512109868062649E1  -1.469935815352845E1   9.476322477818938E1  -1.584683897617064E1  -1.986481440380128E1  
 2.100086850000000E8    -4.657117033219508   1.216293701153141E2  -1.448078116953880E1  -7.210171194697517E1  -1.450276891717727E1  -7.137804700296053E1  -2.100987529925868E1   1.779339879670077E2  
 2.400086400000000E8    -4.569360920043105  -7.205030107344946E1  -1.236661098351043E1   1.183952675584649E2  -1.245972838305847E1   1.180184542534186E2  -3.457583295612061E1   1.042714858117206E2  
 2.700085950000000E8    -3.407223527368488   8.264872349985201E1  -1.124039049714491E1  -6.315422585660006E1  -1.119278698259789E1  -6.316156497503355E1  -1.690164883993592E1   4.842686509442300E1  
 3.000085500000000E8    -3.030657712504473  -9.942149736327950E1  -1.156954645615262E1   1.205283565164670E2  -1.161826856121068E1   1.207501123766067E2  -1.411163651557650E1  -1.009893932466814E2  
 3.300085050000000E8    -5.255828510560583   8.467869159439236E1  -1.105939394320529E1  -4.968859266663201E1  -1.101831514263184E1  -4.997040343786804E1  -1.619304813688593E1   1.204113737119569E2  
 3.600084600000000E8    -6.822044606867445  -1.001658946347915E2  -9.972789095389462   1.389529516749431E2  -1.002126494455588E1   1.385551003168210E2  -2.765819145495555E1  -2.917655100782104E1  
 3.900084150000000E8    -6.708615310021412   5.911876192376199E1  -8.570166633422181  -3.918678670370117E1  -8.546582182013335  -3.890253989908455E1  -2.293935579511599E1  -5.959329583530891E1  
 4.200083700000000E8    -5.458211394159188  -1.357871050833814E2  -7.988402738217190   1.350503380646819E2  -7.931878047067372   1.350796381902818E2  -1.767628076574993E1  -1.613100348092912E2  
 4.500083250000000E8    -4.301324539583638   4.715170660625874E1  -9.547059284811654  -4.249075421351855E1  -9.624938035378850  -4.257408588721810E1  -1.238922055394349E1   4.790879559501327E1  
 4.800082800000000E8    -5.219060180050867  -1.192501379397648E2  -9.889458737938375   1.497317302869269E2  -9.822968800008058   1.497773030771213E2  -1.205445311967972E1  -9.032569468302818E1  
 5.100082350000000E8    -8.273278796166128   6.220439677473861E1  -8.650546959523259  -2.062745637379889E1  -8.653778851555899  -2.077038181962070E1  -2.230702307537347E1   1.311516232133201E2  
 5.400081900000000E8    -7.062561600326788  -1.552520150507390E2  -8.034557944363822   1.589299115882647E2  -8.034768121653181   1.582917459126731E2  -2.103672928310587E1   9.993687142191277E1  
 5.700081450000000E8    -5.483515451663925   1.074351603603780E1  -8.405427443249197  -2.514800765540358E1  -8.442869278917668  -2.545070504705946E1  -1.575453977169368E1  -1.761582605289785E1  
 6.000081000000000E8    -5.597097128046585  -1.600766321231348E2  -1.041580766323093E1   1.583417966995696E2  -1.040284871718300E1   1.583739545035471E2  -1.456030778691265E1  -1.496448551522551E2  
 6.300080550000000E8    -5.475154700880905   3.278306162098171E1  -1.174698532451384E1  -5.604048191858523  -1.186604320666028E1  -5.120197714875227  -1.180638985186054E1   7.478939918358282E1  
 6.600080100000000E8    -7.854317573680021  -1.310194237800210E2  -1.074180636520707E1  -1.668085570051096E2  -1.075345069527336E1  -1.672026331254272E2  -1.520888620722823E1  -6.050704579652998E1  
 6.900079650000000E8    -7.222390879526341  -7.624293395619171  -9.544419995736023   1.447396385304276E1  -9.580391318019352   1.437482073016238E1  -1.910046092958717E1  -1.327788179751823E2  
 7.200079200000000E8    -4.434663132054951   1.542366317058917E2  -1.050100501826712E1  -1.653504975803511E2  -1.052515843322421E1  -1.659000607320008E2  -1.261085616731849E1   1.414532834839255E2  
 7.500078750000000E8    -5.339998851925612  -1.477268937570556E1  -1.144857221498130E1   2.716523504604703E1  -1.145719268671196E1   2.690202484703758E1  -1.296115387918947E1   3.381514990117492  
 7.800078300000000E8    -6.886785575292048   1.748095873696869E2  -1.161553531944838E1  -1.365437814724244E2  -1.155628557288621E1  -1.374213299432127E2  -1.401100254119427E1  -1.331445089449750E2  
 8.100077850000000E8    -1.086492257328471E1  -6.561790016458947  -9.616967780904302   5.435537321558063E1  -9.559327560956049   5.478441301286217E1  -1.667373922326488E1   1.375600170158131E2  
 8.400077400000000E8    -9.826270696783539   1.235471301139845E2  -8.630209422072879  -1.297493621687356E2  -8.686647244448261  -1.302126553697391E2  -1.675890355242522E1   1.131035115348673E1  
 8.700076950000000E8    -4.844008416311003  -6.464830538505287E1  -1.008826033931090E1   4.688069521395297E1  -1.008056779606385E1   4.695686780951426E1  -1.288596028724929E1  -7.083046386393546E1  
 9.000076500000000E8    -5.216282149977240   1.439494013349816E2  -1.131207549834403E1  -1.194830695529190E2  -1.139800678311859E1  -1.185902539881100E2  -1.092524914608871E1   1.622404055285625E2  
 9.300076050000000E8    -7.288137759670911  -2.827255440391418E1  -1.151887758944552E1   7.500110551812855E1  -1.157365170186005E1   7.442923174539037E1  -1.227763062930569E1   2.366554646258071E1  
 9.600075600000000E8    -8.805973051090559   1.314900145428923E2  -1.021678566759798E1  -9.434271393466486E1  -1.025863917135043E1  -9.435071994379840E1  -1.952676182694544E1  -7.859304921715190E1  
 9.900075150000000E8    -7.287709754088275  -8.944532463599731E1  -9.502304889671827   8.078443803728796E1  -9.466045505837503   8.139091071845490E1  -1.653435118923142E1  -1.550155030279495E2  
 1.020007470000000E9    -4.932677436148758   8.001833390089963E1  -1.217528850836813E1  -9.817997192965706E1  -1.225125380715755E1  -9.826597146471609E1  -1.297922805658961E1   7.688678571599164E1  
 1.050007425000000E9    -5.610164348995196  -7.094540984889463E1  -1.342331141337682E1   1.035048092405816E2  -1.335076281712437E1   1.029025398902087E2  -1.180214822887241E1  -4.133769856857492E1  
 1.080007380000000E9    -8.680146363702081   1.293150928833250E2  -1.297152352814057E1  -5.668684942340790E1  -1.295239503551537E1  -5.729452605749775E1  -1.212002489375522E1  -1.673189622092937E2  
 1.110007335000000E9    -1.112509891041342E1  -9.152082860614662E1  -1.083672325216310E1   1.343353966660878E2  -1.081086208525953E1   1.342890688229223E2  -1.533165079940290E1   8.178377976321423E1  
 1.140007290000000E9    -6.980385700291026   6.484352332169542E1  -9.511733058730933  -4.617629488041540E1  -9.485729784492449  -4.623287746940891E1  -2.132539596704000E1  -6.950223502736985  
 1.170007245000000E9    -5.753774797628219  -1.276094971864311E2  -1.086540377522699E1   1.301674328066904E2  -1.079574660450461E1   1.300449646265891E2  -1.331366974780290E1  -1.165406033726398E2  
 1.200007200000000E9    -6.509720952905668   6.985576226159441E1  -1.165854468218502E1  -3.396800102484967E1  -1.161591528341980E1  -3.404574560025178E1  -1.284600372025050E1   1.105372828363409E2  
 1.230007155000000E9    -9.849522710041631  -9.261784738079804E1  -1.071863045524157E1   1.595491359403367E2  -1.071896646732401E1   1.597800066956129E2  -1.677754897094648E1  -1.524262660581990E1  
 1.260007110000000E9    -1.308869807672359E1   2.680174069764731E1  -9.409299925840196  -1.933679968338478E1  -9.399922545147431  -1.913852450290626E1  -1.480508865093627E1  -9.986950263390415E1  
 1.290007065000000E9    -7.842237518039628  -1.599135143963359E2  -9.224942489172452   1.584568548850050E2  -9.209035987723491   1.587556802274652E2  -1.496248027113738E1   1.508290592034499E2  
 1.320007020000000E9    -7.798639192363157   3.221835052966524E1  -1.076853664791094E1  -2.056071031242434E1  -1.081264488173546E1  -2.068150698401496E1  -1.654020614696599E1   4.099747609071806E1  
 1.350006975000000E9    -8.503607849928379  -1.414366524937250E2  -1.230350516869843E1   1.683947976129663E2  -1.227329270975459E1   1.678407543251700E2  -1.389335795477452E1  -8.528661138275398E1  
 1.380006930000000E9    -9.668425871502080   5.221842444534719E1  -1.251092548463334E1   6.341000815645657  -1.253220518754324E1   6.984897616381975  -1.677424726599205E1   1.429294369404943E2  
 1.410006885000000E9    -9.951459363153681  -1.699252500943602E2  -1.141376343249778E1  -1.674242297216550E2  -1.148798415186827E1  -1.669612000048139E2  -2.293344492465627E1   7.201228073036897E1  
 1.440006840000000E9    -5.834167146800262  -9.223225468941106  -1.169761799525797E1   1.308016374089250E1  -1.175093452261635E1   1.310846182969958E1  -1.399510277622526E1  -1.686608694832442E1  
 1.470006795000000E9    -6.498304096416148   1.783741414347579E2  -1.331466038768826E1  -1.578832729177351E2  -1.329023395226683E1  -1.582719835650487E2  -1.298977828510808E1  -1.531015312123166E2  
 1.500006750000000E9    -1.059754487562697E1  -3.456790735198507  -1.425593212034128E1   3.859337191697243E1  -1.424525777795134E1   3.834504399737230E1  -1.507307505654652E1   7.149484003504236E1  
 1.530006705000000E9    -9.757052701340978   1.682503990758274E2  -1.355726891249254E1  -1.225174295078053E2  -1.354986508281806E1  -1.221361172394145E2  -2.332053172734820E1  -5.466778667853829E1  
 1.560006660000000E9    -9.021764599485334  -2.445294251714088E1  -1.178165057653123E1   6.724944630968642E1  -1.178275063829778E1   6.605556707177058E1  -3.060059671728389E1  -1.322529045907260E2  
 1.590006615000000E9    -7.071640952581525   1.446767936865326E2  -1.089111246316108E1  -1.171079801788447E2  -1.088685723647168E1  -1.175495519640720E2  -1.883762116231199E1   1.638774759174435E2  
 1.620006570000000E9    -7.408981129467810  -2.679373959559103E1  -1.138393828913510E1   6.660069808929359E1  -1.145873128918179E1   6.618576080878503E1  -1.454842898353420E1   3.563455108117437E1  
 1.650006525000000E9    -1.223374593941218E1   1.401352499694914E2  -1.259435672131495E1  -1.065642705214942E2  -1.254337302323007E1  -1.061170132940291E2  -1.598559683839824E1  -1.141513049596833E2  
 1.680006480000000E9    -9.625617114768739  -5.295323976983387E1  -1.247565901578870E1   8.682825968373747E1  -1.240517971895203E1   8.687174652786688E1  -2.329339505447068E1   1.354136107716279E2  
 1.710006435000000E9    -6.900654129345914   1.225345737796838E2  -1.135293874393710E1  -8.319068333965699E1  -1.141377713271371E1  -8.313506978586477E1  -2.211282173918881E1   1.402193404029449E2  
 1.740006390000000E9    -8.345806830853972  -6.589617115450638E1  -1.083773777448593E1   9.066004682115276E1  -1.087797702583672E1   9.050001602734790E1  -2.523362762189770E1  -5.070661637074787E1  
 1.770006345000000E9    -1.017735057563215E1   1.028247634339661E2  -1.229812678064276E1  -8.689233205697646E1  -1.236246962078288E1  -8.738511346419891E1  -1.957710311125111E1  -1.389842612219297E2  
 1.800006300000000E9    -1.332915984579055E1  -1.164488835667254E2  -1.372488429831235E1   1.043020878583790E2  -1.384082160994049E1   1.043001031690966E2  -2.126082550712644E1   1.169949357219532E2  
 1.830006255000000E9    -9.303426976026469   7.198071883736152E1  -1.402697802232678E1  -5.936901923788243E1  -1.402247095515375E1  -5.863598864728110E1  -2.049635335207381E1   4.109979721623406  
 1.860006210000000E9    -6.172598798431732  -8.884802947959123E1  -1.252561969618046E1   1.350439757535415E2  -1.246845045684328E1   1.349030106622751E2  -1.878506209015879E1  -6.969726384986822E1  
 1.890006165000000E9    -1.034475791956957E1   8.818242405918791E1  -1.122375471895614E1  -4.856475508202014E1  -1.126888426350092E1  -4.946011109350614E1  -1.898752726058807E1   1.676435584857677E2  
 1.920006120000000E9    -1.377222406612506E1  -1.336467551291304E2  -1.270138905549424E1   1.278330823550612E2  -1.263185995520221E1   1.278753850434343E2  -2.245650474378211E1   2.614748494299345E1  
 1.950006075000000E9    -9.068601913445280   1.709079914563859E1  -1.417629231863745E1  -3.936524267130805E1  -1.415335110979456E1  -4.007512632838637E1  -1.807546205470368E1   4.336474309411885  
 1.980006030000000E9    -8.010795262115920  -1.449355896557906E2  -1.429640969546327E1   1.557370577408076E2  -1.422008547850943E1   1.550664401208082E2  -1.466576658135641E1  -1.422755187502157E2  
 2.010005985000000E9    -5.146425253882544   6.543381199680769E1  -1.231025763155868E1  -1.041283369056044E1  -1.227181217922746E1  -1.080157660795514E1  -1.139293387256696E1   8.306695152164765E1  
 2.040005940000000E9    -1.377378564958131E1  -1.052101491570853E2  -1.050466519024634E1   1.588361240080720E2  -1.036608401912482E1   1.589247131639872E2  -1.621594144334826E1  -1.369501690654931E1  
 2.070005895000000E9    -1.856820872257018E1  -2.942652072769456E1  -1.225434169504311E1  -3.072876624694888E1  -1.225811558679418E1  -3.151057895602231E1  -1.473151043699662E1  -1.553905532462465E2  
 2.100005850000000E9    -8.016586005968492   1.714820446867526E2  -1.487114298192254E1   1.559593130226939E2  -1.497829908409215E1   1.551629257669418E2  -1.584656580151681E1   1.471772532357599E2  
 2.130005805000000E9    -7.398847244241832   2.057637606558966E1  -1.614350945464830E1  -7.864774584295391  -1.620378369624918E1  -8.132222979526622  -1.247651740069493E1   4.374528156835504E1  
 2.160005760000000E9    -4.519393562213671  -1.276577556864249E2  -1.520817011222546E1  -1.688183348915029E2  -1.519405152616367E1  -1.693427335414251E2  -8.798398318341219  -1.000345550593442E2  
 2.190005715000000E9    -9.114482722996476   5.252724457622549E1  -1.190362968762514E1   4.220476924026771  -1.201261982202580E1   4.314561764937505  -1.036213419164488E1   1.449196597865553E2  
 2.220005670000000E9    -1.277355983247231E1   8.082741886118330E1  -1.502586128989767E1   1.621733329842336E2  -1.493761745183830E1   1.622676561706547E2  -1.268648241917602E1   3.175731826765554E1  
 2.250005625000000E9    -6.005514032248436  -4.506852537182903E1  -1.884476547552653E1  -5.660787276232312  -1.893591197268880E1  -5.417446192188170  -1.180397702968105E1  -6.844822049392121E1  
 2.280005580000000E9    -6.180703704088412   1.701844208639166E2  -2.017497745668836E1  -1.640728870056018E2  -2.027895865827004E1  -1.640731665796852E2  -1.127827621970132E1  -1.575129464704641E2  
 2.310005535000000E9    -4.528778292761650   2.881485625703370E1  -1.901531758330843E1   3.361570593364559E1  -1.916257396200564E1   3.398909371394628E1  -9.880983522375182   6.676934910471331E1  
 2.340005490000000E9    -1.403082842675475E1   1.768661974962506E2  -1.674308144355375E1  -1.641194493001760E2  -1.678864125255302E1  -1.651416209505939E2  -8.057916290626196  -4.924440798998285E1  
 2.370005445000000E9    -7.673628881551534  -1.502490895687386E2  -2.259770891191986E1  -5.996285075406321E-1  -2.275135366338100E1   5.486042713407258E-1  -1.028836017245761E1  -1.592263072172114E2  
 2.400005400000000E9    -4.677955094265434   9.561803539839559E1  -2.699217039706784E1  -1.547646418217954E2  -2.725050865444304E1  -1.549632023436677E2  -8.001263823540148   9.181780369071323E1  
 2.430005355000000E9    -4.381980254574364  -3.695286443679240E1  -2.788664275746118E1   5.535447938137972E1  -2.812254514334327E1   5.694893646222387E1  -7.549305746853956  -7.155535776528100  
 2.460005310000000E9    -5.238007709455378  -1.757228584308932E2  -2.541456353372108E1  -1.131675890771128E2  -2.561088217263027E1  -1.160391265620194E2  -9.334671941143332  -1.326730163324936E2  
 2.490005265000000E9    -1.417262292997254E1  -1.623685650824257E2  -2.956275764198309E1   2.398504185287224E1  -2.914018037147784E1   2.509517147231296E1  -7.964302432857073   1.152662166662586E2  
 2.520005220000000E9    -6.043336556191595   1.639899577110531  -4.453880114728853E1  -1.418446121539988E2  -4.355687262753175E1  -1.371041605608081E2  -8.851222034079044   1.577222653838166E1  
 2.550005175000000E9    -4.535494610784160  -1.182485637661209E2  -4.548518224610840E1   1.684374381017393E2  -4.699673285441109E1  -1.657844009979468E2  -7.309252566735164  -1.111572441936373E2  
 2.580005130000000E9    -4.008750969797148   1.110181005913478E2  -3.650947671421396E1   4.843056821252796E1  -3.643314381607668E1   4.815557526069343E1  -5.370705794287770   1.463963528618511E2  
 2.610005085000000E9    -4.467024666838062  -1.270081925374793E1  -2.543415607956705E1  -1.065083480776120E2  -2.566374505080573E1  -1.069083224328760E2  -7.140342216570538   2.915454068739062E1  
 2.640005040000000E9    -8.566391619691858  -4.198920124528930E1  -2.431602519656943E1   1.614185843211223E1  -2.437620451987297E1   1.529918887687905E1  -7.077998277049492  -9.123489377451982E1  
 2.670004995000000E9    -5.317747226709512   1.679111719107594E2  -2.798061993044017E1  -1.571071747882270E2  -2.834485630763277E1  -1.585822696004196E2  -6.902770511317272  -1.793342356062449E2  
 2.700004950000000E9    -4.682944454590951   4.497382745613427E1  -2.943834813634981E1   4.326063357334326E1  -2.934975352772387E1   4.435197410530411E1  -7.936238741639929   6.083125240403510E1  
 2.730004905000000E9    -4.512363815760882  -9.732570410782802E1  -2.848131022736775E1  -1.039970271678165E2  -2.821317053329173E1  -1.033375102344478E2  -5.111301031902312  -5.909825578440227E1  
 2.760004860000000E9    -5.330031764894958   1.430259033933388E2  -2.047847245850583E1   9.343130309099111E1  -2.056940974975724E1   9.346724713735127E1  -5.227542881781592  -1.648078279584766E2  
 2.790004815000000E9    -6.411869698336699   9.128988294401343E1  -2.258024667569519E1  -1.342850590907891E2  -2.281211507619134E1  -1.367152711254897E2  -6.803848307794951   7.169320425150070E1  
 2.820004770000000E9    -4.169725039220475  -3.658402616701275E1  -2.646575265174367E1   6.947223855276425E1  -2.729778054863998E1   6.882659201341977E1  -5.227485085874335  -2.633624858186627E1  
 2.850004725000000E9    -3.943120817863083  -1.454198147635043E2  -2.578576207464918E1  -8.262844332474010E1  -2.571400149861205E1  -7.879586625816637E1  -6.912262751793119  -1.322191159806409E2  
 2.880004680000000E9    -5.966819266172747   6.479413993896098E1  -2.289851230578482E1   1.152824973393956E2  -2.273425132153056E1   1.122305186902140E2  -6.101890775536730   1.007802124011759E2  
 2.910004635000000E9    -8.465289556208830  -3.488196352286011E1  -1.897602017762422E1  -8.504597173336020E1  -1.887397669116513E1  -8.435374049248274E1  -4.527937416735079   2.997124239212061  
 2.940004590000000E9    -6.902990202880770  -1.355481148058247E2  -2.249255822855047E1   7.638907647572667E1  -2.237731659343307E1   7.707142078272909E1  -7.247098953323003  -1.271497126937746E2  
